(1781874201.967017) can0 12D#0000000000000000 R
(1781874201.967522) can0 12D#0000000000000000 R
(1781874201.967813) can0 12D#0000000000000000 R
(1781874201.968096) can0 12D#0000000000000000 R
(1781874201.968352) can0 12D#0000000000000000 R
(1781874201.968599) can0 12D#0000000000000000 R
(1781874201.968846) can0 12D#0000000000000000 R
(1781874201.969088) can0 12D#0000000000000000 R
(1781874201.969334) can0 12D#0000000000000000 R
(1781874201.969648) can0 12D#0000000000000000 R
(1781874201.969772) can0 12D#0000000000000000 R
(1781874201.969873) can0 12D#0000000000000000 R
(1781874201.969973) can0 12D#0000000000000000 R
(1781874201.970070) can0 12D#0000000000000000 R
(1781874201.970167) can0 12D#0000000000000000 R
(1781874201.970264) can0 12D#0000000000000000 R
(1781874201.970993) can0 12D#0000000000000000 R
(1781874201.971108) can0 12D#0000000000000000 R
(1781874201.971367) can0 12D#0000000000000000 R
(1781874201.971529) can0 12D#0000000000000000 R
(1781874201.971641) can0 12D#0000000000000000 R
(1781874201.972693) can0 12D#0000000000000035 R
(1781874201.972843) can0 12D#0000000000000035 R
(1781874201.972947) can0 12D#0000000000000035 R
(1781874201.973050) can0 12D#0000000000000035 R
(1781874201.973155) can0 12D#0000000000000035 R
(1781874201.973260) can0 12D#0000000000000035 R
(1781874201.974277) can0 12D#0000000000000035 R
(1781874201.974401) can0 12D#0000000000000035 R
(1781874201.974507) can0 12D#0000000000000035 R
(1781874201.974610) can0 12D#0000000000000035 R
(1781874201.974713) can0 12D#0000000000000035 R
(1781874201.974816) can0 12D#0000000000000035 R
(1781874201.975966) can0 12D#0000000000000035 R
(1781874201.976074) can0 12D#0000000000000035 R
(1781874201.976177) can0 12D#0000000000000035 R
(1781874201.976279) can0 12D#0000000000000035 R
(1781874201.976381) can0 12D#0000000000000035 R
(1781874201.976484) can0 12D#0000000000000035 R
(1781874201.977608) can0 12D#0000000000000035 R
(1781874201.977714) can0 12D#0000000000000035 R
(1781874201.977846) can0 12D#0000000000000035 R
(1781874201.977950) can0 12D#0000000000000035 R
(1781874201.978052) can0 12D#0000000000000035 R
(1781874201.978155) can0 12D#0000000000000035 R
(1781874201.978996) can0 12D#0000000000000035 R
(1781874201.979101) can0 12D#0000000000000035 R
(1781874201.979203) can0 12D#0000000000000035 R
(1781874201.979305) can0 12D#0000000000000035 R
(1781874201.979407) can0 12D#0000000000000035 R
(1781874201.979508) can0 12D#0000000000000035 R
(1781874201.980643) can0 12D#0000000000000035 R
(1781874201.980748) can0 12D#0000000000000035 R
(1781874201.980850) can0 12D#0000000000000035 R
(1781874201.980953) can0 12D#0000000000000035 R
(1781874201.981055) can0 12D#0000000000000035 R
(1781874201.982211) can0 12D#0000000000000035 R
(1781874201.982332) can0 12D#0000000000000035 R
(1781874201.982435) can0 12D#000000000000005F R
(1781874201.982536) can0 12D#000000000000005F R
(1781874201.982638) can0 12D#000000000000005F R
(1781874201.982739) can0 12D#000000000000005F R
(1781874201.983963) can0 12D#000000000000005F R
(1781874201.984134) can0 12D#000000000000005F R
(1781874201.984251) can0 12D#000000000000005F R
(1781874201.984373) can0 12D#000000000000005F R
(1781874201.984492) can0 12D#000000000000005F R
(1781874201.984613) can0 12D#000000000000005F R
(1781874201.994879) can0 12D#000000000000005F R
(1781874201.995019) can0 12D#000000000000005F R
(1781874201.995149) can0 12D#000000000000005F R
(1781874201.995274) can0 12E#0000000000000000 R
(1781874201.995391) can0 12D#000000000000006A R
(1781874201.995509) can0 12E#0000000000000035 R
(1781874202.001407) can0 121#0000000004840010 R
(1781874202.001607) can0 129#0000000100000004 R
(1781874202.001769) can0 540#0000000000000000 R
(1781874202.001942) can0 5B0#0000000000000000 R
(1781874202.002090) can0 120#0000000000000000 R
(1781874202.002246) can0 12D#000000000000008B R
(1781874202.015730) can0 12A#10010000000A001D R
(1781874202.015922) can0 12D#00000000000000BE R
(1781874202.016082) can0 12E#000000000000005F R
(1781874202.016214) can0 121#0000000004840025 R
(1781874202.016338) can0 129#0000000100000031 R
(1781874202.036731) can0 120#0000000000000035 R
(1781874202.036980) can0 12D#00000000000000D4 R
(1781874202.037103) can0 12D#0000000000000035 R
(1781874202.037222) can0 12E#000000000000006A R
(1781874202.037340) can0 121#00AC01D604800053 R
(1781874202.037456) can0 129#000000010000005B R
(1781874202.054717) can0 120#000000000000005F R
(1781874202.054982) can0 12D#000000000000005F R
(1781874202.055258) can0 12D#000000000000006A R
(1781874202.055505) can0 12E#000000000000008B R
(1781874202.055748) can0 12A#10010000000A0028 R
(1781874202.055990) can0 5A0#0000000000000000 R
(1781874202.074703) can0 121#00AC01D604800066 R
(1781874202.074960) can0 129#000000010000006E R
(1781874202.075203) can0 120#000000000000006A R
(1781874202.075448) can0 12D#000000000000008B R
(1781874202.075690) can0 12D#00000000000000BE R
(1781874202.075935) can0 12E#00000000000000BE R
(1781874202.094874) can0 121#00AC01D604800087 R
(1781874202.095149) can0 129#000000010000008F R
(1781874202.095402) can0 120#000000000000008B R
(1781874202.095652) can0 12D#00000000000000D4 R
(1781874202.095817) can0 12D#0000000000000035 R
(1781874202.095970) can0 12E#00000000000000D4 R
(1781874202.101212) can0 121#00AC01D6048000B2 R
(1781874202.101463) can0 129#00000001000000BA R
(1781874202.101704) can0 540#0000000100010400 R
(1781874202.101946) can0 5B0#0000000000000035 R
(1781874202.102186) can0 120#00000000000000BE R
(1781874202.102429) can0 12D#000000000000005F R
(1781874202.116779) can0 12A#10010000000A0042 R
(1781874202.117231) can0 12D#000000000000006A R
(1781874202.117482) can0 12E#0000000000000035 R
(1781874202.117726) can0 121#00AC01D6048000D8 R
(1781874202.117969) can0 129#00000001000000D0 R
(1781874202.136253) can0 120#00000000000000D4 R
(1781874202.136533) can0 12D#000000000000008B R
(1781874202.136795) can0 12D#00000000000000BE R
(1781874202.137054) can0 12E#000000000000005F R
(1781874202.137311) can0 121#00AC01D604800039 R
(1781874202.137567) can0 129#0000000100000031 R
(1781874202.154742) can0 120#0000000000000035 R
(1781874202.155001) can0 12D#00000000000000D4 R
(1781874202.155254) can0 12D#0000000000000035 R
(1781874202.155524) can0 12E#000000000000006A R
(1781874202.155775) can0 12A#10010000000A0077 R
(1781874202.156028) can0 5A0#0000000000000035 R
(1781874202.174796) can0 121#00AC01D604800053 R
(1781874202.175052) can0 129#000000010000005B R
(1781874202.175301) can0 120#000000000000005F R
(1781874202.175552) can0 12D#000000000000005F R
(1781874202.175798) can0 12D#000000000000006A R
(1781874202.176048) can0 12E#000000000000008B R
(1781874202.191312) can0 121#00AC01D604800066 R
(1781874202.191585) can0 129#000000010000006E R
(1781874202.191837) can0 120#000000000000006A R
(1781874202.192084) can0 541#0001000000113B65 R
(1781874202.192328) can0 12D#000000000000008B R
(1781874202.192574) can0 12D#00000000000000BE R
(1781874202.196505) can0 12E#00000000000000BE R
(1781874202.196758) can0 121#00AC01D604800087 R
(1781874202.197008) can0 129#000000010000008F R
(1781874202.197255) can0 540#0000000100010400 R
(1781874202.197504) can0 5B0#100000000000005E R
(1781874202.214681) can0 120#000000000000008B R
(1781874202.214947) can0 541#0001100000113B15 R
(1781874202.215196) can0 12D#00000000000000D4 R
(1781874202.215446) can0 12A#10010000000A0096 R
(1781874202.215693) can0 12D#0000000000000035 R
(1781874202.215941) can0 12E#00000000000000D4 R
(1781874202.231078) can0 121#00AC01D6048000B2 R
(1781874202.231337) can0 129#00000001000000BA R
(1781874202.231581) can0 120#00000000000000BE R
(1781874202.231823) can0 541#0001100000113B20 R
(1781874202.232064) can0 12D#000000000000005F R
(1781874202.232304) can0 450#0000000000002800 R
(1781874202.241236) can0 12D#000000000000006A R
(1781874202.241490) can0 12E#0000000000000035 R
(1781874202.241740) can0 121#00A601CF048000D9 R
(1781874202.241988) can0 129#00000001000000D0 R
(1781874202.242235) can0 120#00000000000000D4 R
(1781874202.242482) can0 541#0001100000113B4A R
(1781874202.255021) can0 12D#000000000000008B R
(1781874202.255273) can0 12D#00000000000000BE R
(1781874202.255519) can0 12E#000000000000005F R
(1781874202.255765) can0 12A#10010000000A00A3 R
(1781874202.256052) can0 5A0#000000000000005F R
(1781874202.256306) can0 121#00A601CF04800038 R
(1781874202.271350) can0 129#0000000100000031 R
(1781874202.271607) can0 120#0000000000000035 R
(1781874202.271857) can0 541#0001100000113B7F R
(1781874202.272106) can0 12D#00000000000000D4 R
(1781874202.272353) can0 12D#0000000000000035 R
(1781874202.272603) can0 12E#000000000000006A R
(1781874202.281427) can0 450#0000000000002800 R
(1781874202.281678) can0 121#00A601CF04800052 R
(1781874202.281924) can0 129#000000010000005B R
(1781874202.282182) can0 120#000000000000005F R
(1781874202.282430) can0 541#0001100000113B9E R
(1781874202.295394) can0 12D#000000000000005F R
(1781874202.295653) can0 12D#000000000000006A R
(1781874202.295898) can0 12E#000000000000008B R
(1781874202.296145) can0 121#00A601CF04800067 R
(1781874202.296392) can0 129#000000010000006E R
(1781874202.296636) can0 540#0000001100010400 R
(1781874202.311234) can0 5B0#100000000000006B R
(1781874202.311487) can0 120#000000000000006A R
(1781874202.311733) can0 541#0001100000113BAB R
(1781874202.311978) can0 12D#000000000000008B R
(1781874202.312224) can0 12A#10010000000A00C9 R
(1781874202.312479) can0 12D#00000000000000BE R
(1781874202.322703) can0 12E#00000000000000BE R
(1781874202.322954) can0 121#00A601CF04800086 R
(1781874202.323201) can0 129#000000010000008F R
(1781874202.323448) can0 120#000000000000008B R
(1781874202.323694) can0 541#0001100000113BC1 R
(1781874202.323940) can0 12D#00000000000000D4 R
(1781874202.338983) can0 450#0000000000002800 R
(1781874202.339232) can0 12D#0000000000000035 R
(1781874202.339480) can0 12E#00000000000000D4 R
(1781874202.339725) can0 121#00A601CF048000B3 R
(1781874202.339972) can0 129#00000001000000BA R
(1781874202.340216) can0 120#00000000000000BE R
(1781874202.352335) can0 541#0001100000113B20 R
(1781874202.352582) can0 12D#000000000000005F R
(1781874202.352828) can0 12D#000000000000006A R
(1781874202.353076) can0 12E#0000000000000035 R
(1781874202.353322) can0 12A#10010000000A0028 R
(1781874202.371365) can0 5A0#000000000000006A R
(1781874202.371630) can0 121#00A601CF048000D9 R
(1781874202.371877) can0 129#00000001000000D0 R
(1781874202.372124) can0 120#00000000000000D4 R
(1781874202.372371) can0 541#0001100000113B4A R
(1781874202.372616) can0 12D#000000000000008B R
(1781874202.378875) can0 12D#00000000000000BE R
(1781874202.379135) can0 12E#000000000000005F R
(1781874202.379381) can0 450#0000000000002800 R
(1781874202.379626) can0 121#00A601CF04800038 R
(1781874202.379872) can0 129#0000000100000031 R
(1781874202.380118) can0 120#0000000000000035 R
(1781874202.395226) can0 541#0001100000113B7F R
(1781874202.395482) can0 12D#00000000000000D4 R
(1781874202.395729) can0 12D#0000000000000035 R
(1781874202.395974) can0 12E#000000000000006A R
(1781874202.396217) can0 121#00A601CF04800052 R
(1781874202.396463) can0 129#000000010000005B R
(1781874202.411454) can0 540#0000401000010400 R
(1781874202.411710) can0 5B0#100000000000008A R
(1781874202.411956) can0 120#000000000000005F R
(1781874202.412201) can0 541#0001100000113B9E R
(1781874202.412447) can0 12D#000000000000005F R
(1781874202.412698) can0 12A#10010000000A0042 R
(1781874202.419006) can0 12D#000000000000006A R
(1781874202.419253) can0 12E#000000000000008B R
(1781874202.419499) can0 121#00A601CF04800067 R
(1781874202.419745) can0 129#000000010000006E R
(1781874202.419991) can0 120#000000000000006A R
(1781874202.420239) can0 541#0001100000113BAB R
(1781874202.435084) can0 12D#000000000000008B R
(1781874202.435333) can0 450#0000000000002800 R
(1781874202.435578) can0 12D#00000000000000BE R
(1781874202.435823) can0 12E#00000000000000BE R
(1781874202.436069) can0 121#00A601CF04800086 R
(1781874202.451925) can0 129#000000010000008F R
(1781874202.452185) can0 120#000000000000008B R
(1781874202.452429) can0 541#0001100000113BC1 R
(1781874202.452676) can0 12D#00000000000000D4 R
(1781874202.452921) can0 12D#0000000000000035 R
(1781874202.453165) can0 12E#00000000000000D4 R
(1781874202.461525) can0 12A#10010000000A0077 R
(1781874202.461781) can0 5A0#000000000000008B R
(1781874202.462027) can0 121#00A601CF048000B3 R
(1781874202.462273) can0 129#00000001000000BA R
(1781874202.462519) can0 120#00000000000000BE R
(1781874202.462764) can0 541#0001100000113B20 R
(1781874202.476504) can0 12D#000000000000005F R
(1781874202.476753) can0 12D#000000000000006A R
(1781874202.476998) can0 12E#0000000000000035 R
(1781874202.477245) can0 450#0000000000002800 R
(1781874202.477495) can0 121#00A601CF048000D9 R
(1781874202.477740) can0 129#00000001000000D0 R
(1781874202.495216) can0 120#00000000000000D4 R
(1781874202.495465) can0 541#0001100000113B4A R
(1781874202.495711) can0 12D#000000000000008B R
(1781874202.495956) can0 12D#00000000000000BE R
(1781874202.496202) can0 12E#000000000000005F R
(1781874202.496447) can0 121#00A601CF04800038 R
(1781874202.501655) can0 129#0000000100000031 R
(1781874202.501903) can0 540#0000401000010400 R
(1781874202.502149) can0 5B0#10000000000000BF R
(1781874202.502396) can0 120#0000000000000035 R
(1781874202.502642) can0 541#0001100000113B7F R
(1781874202.516353) can0 12D#00000000000000D4 R
(1781874202.516616) can0 12A#10010000000A0096 R
(1781874202.516861) can0 12D#0000000000000035 R
(1781874202.517110) can0 12E#000000000000006A R
(1781874202.517355) can0 121#00A601CF04800052 R
(1781874202.517600) can0 129#000000010000005B R
(1781874202.534711) can0 120#000000000000005F R
(1781874202.534968) can0 541#0001100000113B9E R
(1781874202.535215) can0 12D#000000000000005F R
(1781874202.535458) can0 450#0000000000002800 R
(1781874202.535704) can0 12D#000000000000006A R
(1781874202.535948) can0 12E#000000000000008B R
(1781874202.551764) can0 121#00A601CF04800067 R
(1781874202.552014) can0 129#000000010000006E R
(1781874202.552261) can0 120#000000000000006A R
(1781874202.552507) can0 541#0001100000113BAB R
(1781874202.552779) can0 12D#000000000000008B R
(1781874202.553027) can0 12D#00000000000000BE R
(1781874202.558964) can0 12E#00000000000000BE R
(1781874202.559212) can0 12A#10010000000A00A3 R
(1781874202.559458) can0 5A0#00000000000000BE R
(1781874202.559704) can0 121#00A601CF04800086 R
(1781874202.559949) can0 129#000000010000008F R
(1781874202.560199) can0 120#000000000000008B R
(1781874202.574855) can0 541#0001100000113BC1 R
(1781874202.575108) can0 12D#00000000000000D4 R
(1781874202.575354) can0 12D#0000000000000035 R
(1781874202.575597) can0 12E#00000000000000D4 R
(1781874202.575841) can0 450#0000000000002800 R
(1781874202.576084) can0 121#00A601CF048000B3 R
(1781874202.591756) can0 129#00000001000000BA R
(1781874202.592005) can0 120#00000000000000BE R
(1781874202.592250) can0 541#0001100000113B20 R
(1781874202.592495) can0 12D#000000000000005F R
(1781874202.592740) can0 12D#000000000000006A R
(1781874202.598841) can0 12E#0000000000000035 R
(1781874202.599099) can0 121#00A601CF048000D9 R
(1781874202.599344) can0 129#00000001000000D0 R
(1781874202.599588) can0 540#0000401000010400 R
(1781874202.599832) can0 5B0#10000000000000D5 R
(1781874202.600079) can0 120#00000000000000D4 R
(1781874202.614974) can0 541#0001100000113B4A R
(1781874202.615226) can0 12D#000000000000008B R
(1781874202.615475) can0 12A#10010000000A00C9 R
(1781874202.615718) can0 12D#00000000000000BE R
(1781874202.615963) can0 12E#000000000000005F R
(1781874202.616205) can0 121#00A601CF04800038 R
(1781874202.631779) can0 129#0000000100000031 R
(1781874202.632025) can0 120#0000000000000035 R
(1781874202.632269) can0 541#0001100000113C77 R
(1781874202.632513) can0 12D#00000000000000D4 R
(1781874202.632756) can0 450#0000000000002800 R
(1781874202.633001) can0 12D#0000000000000035 R
(1781874202.651598) can0 12E#000000000000006A R
(1781874202.651862) can0 121#00A601CF04800052 R
(1781874202.652106) can0 129#000000010000005B R
(1781874202.652346) can0 120#000000000000005F R
(1781874202.652589) can0 541#0001100000113C96 R
(1781874202.652829) can0 12D#000000000000005F R
(1781874202.655118) can0 12D#000000000000006A R
(1781874202.655367) can0 12E#000000000000008B R
(1781874202.655611) can0 12A#10010000000A0028 R
(1781874202.655856) can0 5A0#00000000000000D4 R
(1781874202.656100) can0 121#00A601CF04800067 R
(1781874202.672502) can0 129#000000010000006E R
(1781874202.672803) can0 120#000000000000006A R
(1781874202.673051) can0 541#0001100000113CA3 R
(1781874202.673296) can0 12D#000000000000008B R
(1781874202.673541) can0 12D#00000000000000BE R
(1781874202.673787) can0 12E#00000000000000BE R
(1781874202.691360) can0 450#0000000000002800 R
(1781874202.691609) can0 121#00A601CF04800086 R
(1781874202.691850) can0 129#000000010000008F R
(1781874202.692091) can0 120#000000000000008B R
(1781874202.692334) can0 541#0001100000113CC9 R
(1781874202.692573) can0 12D#00000000000000D4 R
(1781874202.696506) can0 12D#0000000000000035 R
(1781874202.696753) can0 12E#00000000000000D4 R
(1781874202.696998) can0 121#00A601CF048000B3 R
(1781874202.697242) can0 129#00000001000000BA R
(1781874202.697486) can0 540#0000401000010400 R
(1781874202.697735) can0 5B0#1000000000000034 R
(1781874202.714807) can0 120#00000000000000BE R
(1781874202.715057) can0 541#0001100000113C28 R
(1781874202.715301) can0 12D#000000000000005F R
(1781874202.715545) can0 12A#10010000000A0042 R
(1781874202.715789) can0 12D#000000000000006A R
(1781874202.716033) can0 12E#0000000000000035 R
(1781874202.722741) can0 121#00A601CF048000D9 R
(1781874202.722986) can0 129#00000001000000D0 R
(1781874202.723230) can0 120#00000000000000D4 R
(1781874202.723473) can0 541#0001100000113C42 R
(1781874202.723718) can0 12D#000000000000008B R
(1781874202.723962) can0 450#0000000000002800 R
(1781874202.739042) can0 12D#00000000000000BE R
(1781874202.739288) can0 12E#000000000000005F R
(1781874202.739534) can0 121#00A601CF04800038 R
(1781874202.739780) can0 129#0000000100000031 R
(1781874202.740025) can0 120#0000000000000035 R
(1781874202.754710) can0 541#0001100000113C77 R
(1781874202.754971) can0 12D#00000000000000D4 R
(1781874202.755217) can0 12D#0000000000000035 R
(1781874202.755464) can0 12E#000000000000006A R
(1781874202.755709) can0 12A#10010000000A0077 R
(1781874202.755955) can0 5A0#0000000000000035 R
(1781874202.771620) can0 121#00A601CF04800052 R
(1781874202.771874) can0 129#000000010000005B R
(1781874202.772119) can0 120#000000000000005F R
(1781874202.772363) can0 541#0001100000113C96 R
(1781874202.772608) can0 12D#000000000000005F R
(1781874202.772851) can0 12D#000000000000006A R
(1781874202.781598) can0 12E#000000000000008B R
(1781874202.781846) can0 450#0000000000002800 R
(1781874202.782091) can0 121#00A601CF04800067 R
(1781874202.782336) can0 129#000000010000006E R
(1781874202.782580) can0 120#000000000000006A R
(1781874202.782825) can0 541#0001100000113CA3 R
(1781874202.795535) can0 12D#000000000000008B R
(1781874202.795784) can0 12D#00000000000000BE R
(1781874202.796029) can0 12E#00000000000000BE R
(1781874202.796273) can0 121#00A601CF04800086 R
(1781874202.796517) can0 129#000000010000008F R
(1781874202.796761) can0 540#0000401000010400 R
(1781874202.811500) can0 5B0#100000000000005E R
(1781874202.811747) can0 120#000000000000008B R
(1781874202.811992) can0 541#0001100000113CC9 R
(1781874202.812243) can0 12D#00000000000000D4 R
(1781874202.812493) can0 12A#10010000000A0096 R
(1781874202.821441) can0 12D#0000000000000035 R
(1781874202.821699) can0 12E#00000000000000D4 R
(1781874202.821948) can0 121#00A601CF048000B3 R
(1781874202.822191) can0 129#00000001000000BA R
(1781874202.822433) can0 120#00000000000000BE R
(1781874202.822676) can0 541#0001100000113C28 R
(1781874202.836413) can0 12D#000000000000005F R
(1781874202.836670) can0 450#0000000000002800 R
(1781874202.836916) can0 12D#000000000000006A R
(1781874202.837162) can0 12E#0000000000000035 R
(1781874202.837407) can0 121#00A601CF048000D9 R
(1781874202.837652) can0 129#00000001000000D0 R
(1781874202.852248) can0 120#00000000000000D4 R
(1781874202.852496) can0 541#0000100000113C4A R
(1781874202.852746) can0 12D#000000000000008B R
(1781874202.852990) can0 12D#00000000000000BE R
(1781874202.853235) can0 12E#000000000000005F R
(1781874202.853479) can0 12A#10010000000A00A3 R
(1781874202.871912) can0 5A0#000000000000005F R
(1781874202.872188) can0 121#00A601CF04800038 R
(1781874202.872441) can0 129#0000000100000031 R
(1781874202.872742) can0 120#0000000000000035 R
(1781874202.873014) can0 541#0000100000113C7F R
(1781874202.873272) can0 12D#00000000000000D4 R
(1781874202.876757) can0 12D#0000000000000035 R
(1781874202.877015) can0 12E#000000000000006A R
(1781874202.877268) can0 450#0000000000002800 R
(1781874202.877518) can0 121#00A601CF04800052 R
(1781874202.877766) can0 129#000000010000005B R
(1781874202.878012) can0 120#000000000000005F R
(1781874202.895140) can0 541#0000100000113C9E R
(1781874202.895393) can0 12D#000000000000005F R
(1781874202.895637) can0 12D#000000000000006A R
(1781874202.895880) can0 12E#000000000000008B R
(1781874202.896120) can0 121#00A601CF04800067 R
(1781874202.901710) can0 129#000000010000006E R
(1781874202.901965) can0 540#0000401000010400 R
(1781874202.902212) can0 5B0#100000000000006B R
(1781874202.902459) can0 120#000000000000006A R
(1781874202.902705) can0 541#0000100000113CAB R
(1781874202.902950) can0 12D#000000000000008B R
(1781874202.918914) can0 12A#10010000000A00C9 R
(1781874202.919167) can0 12D#00000000000000BE R
(1781874202.919412) can0 12E#00000000000000BE R
(1781874202.919655) can0 121#00A601CF04800086 R
(1781874202.919900) can0 129#000000010000008F R
(1781874202.920254) can0 120#000000000000008B R
(1781874202.935002) can0 541#0000100000113CC1 R
(1781874202.935249) can0 12D#00000000000000D4 R
(1781874202.935493) can0 450#0000000000002800 R
(1781874202.935737) can0 12D#0000000000000035 R
(1781874202.936016) can0 12E#00000000000000D4 R
(1781874202.936264) can0 121#00A601CF048000B3 R
(1781874202.952015) can0 129#00000001000000BA R
(1781874202.952265) can0 120#00000000000000BE R
(1781874202.952511) can0 541#0000100000113C20 R
(1781874202.952757) can0 12D#000000000000005F R
(1781874202.953003) can0 12D#000000000000006A R
(1781874202.953248) can0 12E#0000000000000035 R
(1781874202.959022) can0 12A#10010000000A0028 R
(1781874202.959268) can0 5A0#000000000000006A R
(1781874202.959513) can0 121#00A601CF048000D9 R
(1781874202.959757) can0 129#00000001000000D0 R
(1781874202.960002) can0 120#00000000000000D4 R
(1781874202.974915) can0 541#0000100000113C4A R
(1781874202.975232) can0 12D#000000000000008B R
(1781874202.975482) can0 12D#00000000000000BE R
(1781874202.975722) can0 12E#000000000000C044 R
(1781874202.975963) can0 450#0000000000002800 R
(1781874202.976204) can0 121#00A601CF04800038 R
(1781874202.994704) can0 129#0000000100000031 R
(1781874202.994958) can0 120#0000000000000035 R
(1781874202.995199) can0 541#0000100000113C7F R
(1781874202.995441) can0 12D#00000000000000D4 R
(1781874202.995681) can0 12D#0000000000000035 R
(1781874202.995922) can0 12E#000000000000C071 R
(1781874203.001533) can0 121#00A601CF04800052 R
(1781874203.001794) can0 129#000000010000005B R
(1781874203.002040) can0 540#0000401000010400 R
(1781874203.002285) can0 5B0#100000000000008A R
(1781874203.002529) can0 120#000000000000005F R
(1781874203.002773) can0 541#0000100000113C9E R
(1781874203.016582) can0 12D#000000000000005F R
(1781874203.016890) can0 12A#10010000000A0042 R
(1781874203.017156) can0 12D#000000000000006A R
(1781874203.017405) can0 12E#000000000000C090 R
(1781874203.017661) can0 121#00A601CF04800067 R
(1781874203.017909) can0 129#000000010000006E R
(1781874203.031776) can0 120#000000000000006A R
(1781874203.032043) can0 541#0000100000113CAB R
(1781874203.032293) can0 12D#000000000000008B R
(1781874203.032545) can0 450#0000000000002800 R
(1781874203.032784) can0 12D#00000000000000BE R
(1781874203.032883) can0 12E#000000000000C0A5 R
(1781874203.051610) can0 121#00A601CF04800086 R
(1781874203.051885) can0 129#000000010000008F R
(1781874203.052134) can0 120#000000000000008B R
(1781874203.052382) can0 541#0000100000113CC1 R
(1781874203.052627) can0 12D#00000000000000D4 R
(1781874203.056445) can0 12D#0000000000000035 R
(1781874203.056727) can0 12E#000000000000C0CF R
(1781874203.056977) can0 12A#10010000000A0077 R
(1781874203.057221) can0 5A0#0000000004000085 R
(1781874203.057463) can0 121#00A601CF048000B3 R
(1781874203.057714) can0 129#00000001000000BA R
(1781874203.074666) can0 120#00000000000000BE R
(1781874203.074782) can0 541#0000100000113C20 R
(1781874203.074882) can0 12D#000000000000005F R
(1781874203.075000) can0 12D#000000000000006A R
(1781874203.075099) can0 12E#000000000000C02E R
(1781874203.075198) can0 450#0000000000002800 R
(1781874203.091648) can0 121#00A601CF048000D9 R
(1781874203.091897) can0 129#00000001000000D0 R
(1781874203.092142) can0 120#00000000000000D4 R
(1781874203.092388) can0 541#0000100000113C4A R
(1781874203.092631) can0 12D#000000000000008B R
(1781874203.092874) can0 12D#00000000000000BE R
(1781874203.099997) can0 12E#000000000000C044 R
(1781874203.100261) can0 121#00A601CF04800038 R
(1781874203.100551) can0 129#0000000100000031 R
(1781874203.100810) can0 540#0000401000010400 R
(1781874203.101063) can0 5B0#10000000000000BF R
(1781874203.101311) can0 120#0000000000000035 R
(1781874203.114709) can0 541#0000100000113C7F R
(1781874203.114819) can0 12D#00000000000000D4 R
(1781874203.114918) can0 12A#10010000000A0096 R
(1781874203.115016) can0 12D#0000000000000035 R
(1781874203.115113) can0 12E#000000000000C071 R
(1781874203.131351) can0 121#00A601CF04800052 R
(1781874203.131648) can0 129#000000010000005B R
(1781874203.131899) can0 120#000000000000005F R
(1781874203.132142) can0 541#0000100000113C9E R
(1781874203.132384) can0 12D#000000000000005F R
(1781874203.132623) can0 450#0000000000002800 R
(1781874203.141498) can0 12D#000000000000006A R
(1781874203.141752) can0 12E#000000000000C090 R
(1781874203.141994) can0 121#00A601CF04800067 R
(1781874203.142237) can0 129#000000010000006E R
(1781874203.142479) can0 120#000000000000006A R
(1781874203.142727) can0 541#0000100000113CAB R
(1781874203.155030) can0 12D#000000000000008B R
(1781874203.155279) can0 12D#00000000000000BE R
(1781874203.155521) can0 12E#000000000000C0A5 R
(1781874203.155763) can0 12A#10010000000A00A3 R
(1781874203.156005) can0 5A0#00000000040000B0 R
(1781874203.156248) can0 121#00A601CF04800086 R
(1781874203.172656) can0 129#000000010000008F R
(1781874203.172904) can0 120#000000000000008B R
(1781874203.173149) can0 541#0000100000113CC1 R
(1781874203.173395) can0 12D#00000000000000D4 R
(1781874203.173636) can0 12D#0000000000000035 R
(1781874203.173880) can0 12E#000000000000C0CF R
(1781874203.181631) can0 450#0000000000002800 R
(1781874203.181878) can0 121#00A601CF048000B3 R
(1781874203.182119) can0 129#00000001000000BA R
(1781874203.182361) can0 120#00000000000000BE R
(1781874203.182603) can0 541#0000100000113C20 R
(1781874203.182845) can0 12D#000000000000005F R
(1781874203.195643) can0 12D#000000000000006A R
(1781874203.195895) can0 12E#000000000000C02E R
(1781874203.196146) can0 121#00A601CF048000D9 R
(1781874203.196390) can0 129#00000001000000D0 R
(1781874203.196631) can0 540#0000401000010400 R
(1781874203.211577) can0 5B0#10000000000000D5 R
(1781874203.211839) can0 120#00000000000000D4 R
(1781874203.212084) can0 541#0000100000113C4A R
(1781874203.212326) can0 12D#000000000000008B R
(1781874203.212567) can0 12A#10010000000A00C9 R
(1781874203.212810) can0 12D#00000000000000BE R
(1781874203.222743) can0 12E#000000000000C044 R
(1781874203.223004) can0 121#00A601CF04800038 R
(1781874203.223247) can0 129#0000000100000031 R
(1781874203.223491) can0 120#0000000000000035 R
(1781874203.223735) can0 541#0000100000113C7F R
(1781874203.223977) can0 12D#00000000000000D4 R
(1781874203.239941) can0 450#0000000000002800 R
(1781874203.240184) can0 12D#0000000000000035 R
(1781874203.240427) can0 12E#000000000000C071 R
(1781874203.240667) can0 121#00A601CF04800052 R
(1781874203.240908) can0 129#000000010000005B R
(1781874203.241150) can0 120#000000000000005F R
(1781874203.255045) can0 541#0000100000113C9E R
(1781874203.255294) can0 12D#000000000000005F R
(1781874203.255535) can0 12D#000000000000006A R
(1781874203.255776) can0 12E#000000000000C090 R
(1781874203.256024) can0 12A#10010000000A0028 R
(1781874203.256265) can0 5A0#00000000040000DA R
(1781874203.271494) can0 121#00A601CF04800067 R
(1781874203.271740) can0 129#000000010000006E R
(1781874203.271980) can0 120#000000000000006A R
(1781874203.272221) can0 541#0000100000113CAB R
(1781874203.272462) can0 12D#000000000000008B R
(1781874203.279843) can0 12D#00000000000000BE R
(1781874203.280102) can0 12E#000000000000C0A5 R
(1781874203.280344) can0 450#0000000000002800 R
(1781874203.280583) can0 121#00A601CF04800086 R
(1781874203.280822) can0 129#000000010000008F R
(1781874203.281061) can0 120#000000000000008B R
(1781874203.295211) can0 541#0000100000113CC1 R
(1781874203.295467) can0 12D#00000000000000D4 R
(1781874203.295708) can0 12D#0000000000000035 R
(1781874203.295954) can0 12E#000000000000C0CF R
(1781874203.296194) can0 121#00A601CF048000B3 R
(1781874203.296434) can0 129#00000001000000BA R
(1781874203.311374) can0 540#0000401000010400 R
(1781874203.311621) can0 5B0#1000000000000034 R
(1781874203.311864) can0 120#00000000000000BE R
(1781874203.312106) can0 541#0000100000113C20 R
(1781874203.312348) can0 12D#000000000000005F R
(1781874203.312588) can0 12A#10010000000A0042 R
(1781874203.321555) can0 12D#000000000000006A R
(1781874203.321811) can0 12E#000000000000C02E R
(1781874203.322054) can0 121#00A601CF048000D9 R
(1781874203.322296) can0 129#00000001000000D0 R
(1781874203.322538) can0 120#00000000000000D4 R
(1781874203.322782) can0 541#0000100000113C4A R
(1781874203.335109) can0 12D#000000000000008B R
(1781874203.335359) can0 450#0000000000002800 R
(1781874203.335598) can0 12D#00000000000000BE R
(1781874203.335837) can0 12E#000000000000C044 R
(1781874203.336077) can0 121#00A601CF04800038 R
(1781874203.336316) can0 129#0000000100000031 R
(1781874203.352117) can0 120#0000000000000035 R
(1781874203.352358) can0 541#0000100000113C7F R
(1781874203.352601) can0 12D#00000000000000D4 R
(1781874203.352840) can0 12D#0000000000000035 R
(1781874203.353080) can0 12E#000000000000C071 R
(1781874203.361493) can0 12A#10010000000A0077 R
(1781874203.361747) can0 5A0#000000000400003B R
(1781874203.361988) can0 121#00A601CF04800052 R
(1781874203.362230) can0 129#000000010000005B R
(1781874203.362475) can0 120#000000000000005F R
(1781874203.362716) can0 541#0000100000113C9E R
(1781874203.376470) can0 12D#000000000000005F R
(1781874203.376719) can0 12D#000000000000006A R
(1781874203.376961) can0 12E#000000000000C090 R
(1781874203.377203) can0 450#0000000000002800 R
(1781874203.377450) can0 121#00A601CF04800067 R
(1781874203.377692) can0 129#000000010000006E R
(1781874203.395057) can0 120#000000000000006A R
(1781874203.395301) can0 541#0000100000113CAB R
(1781874203.395544) can0 12D#000000000000008B R
(1781874203.395783) can0 12D#00000000000000BE R
(1781874203.396022) can0 12E#000000000000C0A5 R
(1781874203.396262) can0 121#00A601CF04800086 R
(1781874203.401823) can0 129#000000010000008F R
(1781874203.402068) can0 540#0000401000010400 R
(1781874203.402309) can0 5B0#100000000000005E R
(1781874203.402552) can0 120#000000000000008B R
(1781874203.402792) can0 541#0000100000113CC1 R
(1781874203.403033) can0 12D#00000000000000D4 R
(1781874203.416616) can0 12A#10010000000A0096 R
(1781874203.416864) can0 12D#0000000000000035 R
(1781874203.417106) can0 12E#000000000000C0CF R
(1781874203.417348) can0 121#00A601CF048000B3 R
(1781874203.417590) can0 129#00000001000000BA R
(1781874203.434694) can0 120#00000000000000BE R
(1781874203.434956) can0 541#0000100000113C20 R
(1781874203.435199) can0 12D#000000000000005F R
(1781874203.435439) can0 450#0000000000002800 R
(1781874203.435679) can0 12D#000000000000006A R
(1781874203.435921) can0 12E#000000000000C02E R
(1781874203.451704) can0 121#00A601CF048000D9 R
(1781874203.451957) can0 129#00000001000000D0 R
(1781874203.452198) can0 120#00000000000000D4 R
(1781874203.452441) can0 541#0000100000113C4A R
(1781874203.452681) can0 12D#000000000000008B R
(1781874203.452922) can0 12D#00000000000000BE R
(1781874203.459921) can0 12E#000000000000C044 R
(1781874203.460168) can0 12A#10010000000A00A3 R
(1781874203.460383) can0 5A0#0000000004000051 R
(1781874203.460505) can0 121#00A601CF04800038 R
(1781874203.460623) can0 129#0000000100000031 R
(1781874203.460739) can0 120#0000000000000035 R
(1781874203.475082) can0 541#0000100000113C7F R
(1781874203.475330) can0 12D#00000000000000D4 R
(1781874203.475573) can0 12D#0000000000000035 R
(1781874203.475814) can0 12E#000000000000C071 R
(1781874203.476056) can0 450#0000000000002800 R
(1781874203.476331) can0 121#00A601CF04800052 R
(1781874203.491663) can0 129#000000010000005B R
(1781874203.491910) can0 120#000000000000005F R
(1781874203.492152) can0 541#0000100000113C9E R
(1781874203.492396) can0 12D#000000000000005F R
(1781874203.492638) can0 12D#000000000000006A R
(1781874203.492881) can0 12E#000000000000C090 R
(1781874203.500063) can0 121#00A601CF04800067 R
(1781874203.500309) can0 129#000000010000006E R
(1781874203.500551) can0 540#0000401000010400 R
(1781874203.500791) can0 5B0#100000000000006B R
(1781874203.501029) can0 120#000000000000006A R
(1781874203.514964) can0 541#0000100000113CAB R
(1781874203.515221) can0 12D#000000000000008B R
(1781874203.515466) can0 12A#10010000000A00C9 R
(1781874203.515706) can0 12D#00000000000000BE R
(1781874203.515950) can0 12E#000000000000C0A5 R
(1781874203.516193) can0 121#00A601CF04800086 R
(1781874203.531580) can0 129#000000010000008F R
(1781874203.531828) can0 120#000000000000008B R
(1781874203.532069) can0 541#0000100000113CC1 R
(1781874203.532311) can0 12D#00000000000000D4 R
(1781874203.532551) can0 450#0000000000002800 R
(1781874203.532794) can0 12D#0000000000000035 R
(1781874203.551460) can0 12E#000000000000C0CF R
(1781874203.551704) can0 121#00A601CF048000B3 R
(1781874203.551946) can0 129#00000001000000BA R
(1781874203.552187) can0 120#00000000000000BE R
(1781874203.552428) can0 541#0000100000113C20 R
(1781874203.552667) can0 12D#000000000000005F R
(1781874203.556588) can0 12D#000000000000006A R
(1781874203.556835) can0 12E#000000000000C02E R
(1781874203.557076) can0 12A#10010000000A0028 R
(1781874203.557320) can0 5A0#0000000004000064 R
(1781874203.557561) can0 121#00A601CF048000D9 R
(1781874203.557814) can0 129#00000001000000D0 R
(1781874203.572727) can0 120#00000000000000D4 R
(1781874203.572974) can0 541#0000100000113C4A R
(1781874203.573215) can0 12D#000000000000008B R
(1781874203.573456) can0 12D#00000000000000BE R
(1781874203.573696) can0 12E#000000000000C044 R
(1781874203.591262) can0 450#0000000000002800 R
(1781874203.591520) can0 121#00A601CF04800038 R
(1781874203.591759) can0 129#0000000100000031 R
(1781874203.591997) can0 120#0000000000000035 R
(1781874203.592237) can0 541#0000100000113C7F R
(1781874203.592480) can0 12D#00000000000000D4 R
(1781874203.596529) can0 12D#0000000000000035 R
(1781874203.596786) can0 12E#000000000000C071 R
(1781874203.597029) can0 121#00A601CF04800052 R
(1781874203.597271) can0 129#000000010000005B R
(1781874203.597511) can0 540#0000401000010400 R
(1781874203.597753) can0 5B0#100000000000008A R
(1781874203.614879) can0 120#000000000000005F R
(1781874203.615124) can0 541#0000100000113C9E R
(1781874203.615363) can0 12D#000000000000005F R
(1781874203.615605) can0 12A#10010000000A0042 R
(1781874203.615846) can0 12D#000000000000006A R
(1781874203.616089) can0 12E#000000000000C090 R
(1781874203.631450) can0 121#00A601CF04800067 R
(1781874203.631697) can0 129#000000010000006E R
(1781874203.631940) can0 120#000000000000006A R
(1781874203.632179) can0 541#0000100000113DBD R
(1781874203.632421) can0 12D#000000000000008B R
(1781874203.632662) can0 450#0000000000002800 R
(1781874203.640014) can0 12D#00000000000000BE R
(1781874203.640260) can0 12E#000000000000C0A5 R
(1781874203.640501) can0 121#00A601CF04800086 R
(1781874203.640743) can0 129#000000010000008F R
(1781874203.640985) can0 120#000000000000008B R
(1781874203.641229) can0 541#0000100000113DD7 R
(1781874203.654948) can0 12D#00000000000000D4 R
(1781874203.655192) can0 12D#0000000000000035 R
(1781874203.655435) can0 12E#000000000000C0CF R
(1781874203.655674) can0 12A#10010000000A0077 R
(1781874203.655916) can0 5A0#0000000004000085 R
(1781874203.671516) can0 121#00A601CF048000B3 R
(1781874203.671773) can0 129#00000001000000BA R
(1781874203.672016) can0 120#00000000000000BE R
(1781874203.672256) can0 541#0000100000113D36 R
(1781874203.672497) can0 12D#000000000000005F R
(1781874203.672736) can0 12D#000000000000006A R
(1781874203.681525) can0 12E#000000000000C02E R
(1781874203.681779) can0 450#0000000000002800 R
(1781874203.682021) can0 121#00A601CF048000D9 R
(1781874203.682261) can0 129#00000001000000D0 R
(1781874203.682502) can0 120#00000000000000D4 R
(1781874203.682744) can0 541#0000100000113D5C R
(1781874203.695546) can0 12D#000000000000008B R
(1781874203.695800) can0 12D#00000000000000BE R
(1781874203.696042) can0 12E#000000000000C044 R
(1781874203.696284) can0 121#00A601CF04800038 R
(1781874203.696524) can0 129#0000000100000031 R
(1781874203.696767) can0 540#0000401000010400 R
(1781874203.711675) can0 5B0#10000000000000BF R
(1781874203.711918) can0 120#0000000000000035 R
(1781874203.712158) can0 541#0000100000113D69 R
(1781874203.712399) can0 12D#00000000000000D4 R
(1781874203.712641) can0 12A#10010000000A0096 R
(1781874203.712883) can0 12D#0000000000000035 R
(1781874203.721628) can0 12E#000000000000C071 R
(1781874203.721880) can0 121#00A601CF04800052 R
(1781874203.722123) can0 129#000000010000005B R
(1781874203.722365) can0 120#000000000000005F R
(1781874203.722609) can0 541#0000100000113D88 R
(1781874203.736437) can0 12D#000000000000005F R
(1781874203.736702) can0 450#0000000000002800 R
(1781874203.736944) can0 12D#000000000000006A R
(1781874203.737186) can0 12E#000000000000C090 R
(1781874203.737434) can0 121#00A601CF04800067 R
(1781874203.737676) can0 129#000000010000006E R
(1781874203.752166) can0 120#000000000000006A R
(1781874203.752438) can0 541#0000100000113DBD R
(1781874203.752686) can0 12D#000000000000008B R
(1781874203.752929) can0 12D#00000000000000BE R
(1781874203.753173) can0 12E#000000000000C0A5 R
(1781874203.753413) can0 12A#10010000000A00A3 R
(1781874203.771375) can0 5A0#00000000040000B0 R
(1781874203.771636) can0 121#00A601CF04800086 R
(1781874203.771880) can0 129#000000010000008F R
(1781874203.772122) can0 120#000000000000008B R
(1781874203.772365) can0 541#0000100000113DD7 R
(1781874203.772606) can0 12D#00000000000000D4 R
(1781874203.779967) can0 12D#0000000000000035 R
(1781874203.780213) can0 12E#000000000000C0CF R
(1781874203.780457) can0 450#0000000000002800 R
(1781874203.780699) can0 121#00A601CF048000B3 R
(1781874203.780942) can0 129#00000001000000BA R
(1781874203.781183) can0 120#00000000000000BE R
(1781874203.795132) can0 541#0000100000113D36 R
(1781874203.795377) can0 12D#000000000000005F R
(1781874203.795618) can0 12D#000000000000006A R
(1781874203.795859) can0 12E#000000000000C02E R
(1781874203.796101) can0 121#00A601CF048000D9 R
(1781874203.796342) can0 129#00000001000000D0 R
(1781874203.801882) can0 540#0000401000010400 R
(1781874203.802126) can0 5B0#10000000000000D5 R
(1781874203.802368) can0 120#00000000000000D4 R
(1781874203.802610) can0 541#0000100000113D5C R
(1781874203.802851) can0 12D#000000000000008B R
(1781874203.819873) can0 12A#10010000000A00C9 R
(1781874203.820132) can0 12D#00000000000000BE R
(1781874203.820373) can0 12E#000000000000C044 R
(1781874203.820615) can0 121#00A601CF04800038 R
(1781874203.820858) can0 129#0000000100000031 R
(1781874203.821099) can0 120#0000000000000035 R
(1781874203.835038) can0 541#0000100000113D69 R
(1781874203.835286) can0 12D#00000000000000D4 R
(1781874203.835527) can0 450#0000000000002800 R
(1781874203.835774) can0 12D#0000000000000035 R
(1781874203.836015) can0 12E#000000000000C071 R
(1781874203.836257) can0 121#00A601CF04800052 R
(1781874203.851984) can0 129#000000010000005B R
(1781874203.852246) can0 120#000000000000005F R
(1781874203.852491) can0 541#0000100000113D88 R
(1781874203.852731) can0 12D#000000000000005F R
(1781874203.852973) can0 12D#000000000000006A R
(1781874203.853214) can0 12E#000000000000C090 R
(1781874203.861563) can0 12A#10010000000A0028 R
(1781874203.861808) can0 5A0#00000000040000DA R
(1781874203.862051) can0 121#00A601CF04800067 R
(1781874203.862294) can0 129#000000010000006E R
(1781874203.862537) can0 120#000000000000006A R
(1781874203.862782) can0 541#0000100000113DBD R
(1781874203.872709) can0 12D#000000000000008B R
(1781874203.873541) can0 12D#00000000000000BE R
(1781874203.873781) can0 12E#000000000000C0A5 R
(1781874203.891363) can0 450#0000000000002800 R
(1781874203.891608) can0 121#00A601CF04800086 R
(1781874203.891850) can0 129#000000010000008F R
(1781874203.892091) can0 120#000000000000008B R
(1781874203.892358) can0 541#0000100000113DD7 R
(1781874203.892602) can0 12D#00000000000000D4 R
(1781874203.896854) can0 12D#0000000000000035 R
(1781874203.897096) can0 12E#000000000000C0CF R
(1781874203.897336) can0 121#00A601CF048000B3 R
(1781874203.897576) can0 129#00000001000000BA R
(1781874203.897817) can0 540#0000401000010400 R
(1781874203.898055) can0 5B0#1000000000000034 R
(1781874203.911703) can0 120#00000000000000BE R
(1781874203.911949) can0 541#0000100000113D36 R
(1781874203.912192) can0 12D#000000000000005F R
(1781874203.912435) can0 12A#10010000000A0042 R
(1781874203.912677) can0 12D#000000000000006A R
(1781874203.922656) can0 12E#000000000000C02E R
(1781874203.922917) can0 121#00A601CF048000D9 R
(1781874203.923161) can0 129#00000001000000D0 R
(1781874203.923404) can0 120#00000000000000D4 R
(1781874203.923648) can0 541#0000100000113D5C R
(1781874203.923892) can0 12D#000000000000008B R
(1781874203.939874) can0 450#0000000000002800 R
(1781874203.940131) can0 12D#00000000000000BE R
(1781874203.940373) can0 12E#000000000000C044 R
(1781874203.940615) can0 121#00A601CF04800038 R
(1781874203.940856) can0 129#0000000100000031 R
(1781874203.941096) can0 120#0000000000000035 R
(1781874203.954830) can0 541#0000100000113D69 R
(1781874203.955078) can0 12D#00000000000000D4 R
(1781874203.955330) can0 12D#0000000000000035 R
(1781874203.955573) can0 12E#000000000000C071 R
(1781874203.955814) can0 12A#10010000000A0077 R
(1781874203.956055) can0 5A0#000000000400003B R
(1781874203.971614) can0 121#00A601CF04800052 R
(1781874203.971861) can0 129#000000010000005B R
(1781874203.972103) can0 120#000000000000005F R
(1781874203.972345) can0 541#0000100000113D88 R
(1781874203.972586) can0 12D#000000000000005F R
(1781874203.972827) can0 12D#000000000000006A R
(1781874203.981620) can0 12E#000000000000C090 R
(1781874203.981924) can0 450#0000000000002800 R
(1781874203.982168) can0 121#00A601CF04800067 R
(1781874203.982409) can0 129#000000010000006E R
(1781874203.982651) can0 120#000000000000006A R
(1781874203.982891) can0 541#0000100000113DBD R
(1781874203.995494) can0 12D#000000000000008B R
(1781874203.995738) can0 12D#00000000000000BE R
(1781874203.995978) can0 12E#000000000000C0A5 R
(1781874203.996217) can0 121#00A601CF04800086 R
(1781874203.996456) can0 129#000000010000008F R
(1781874204.011297) can0 540#0000401000010400 R
(1781874204.011562) can0 5B0#100000000000005E R
(1781874204.011809) can0 120#000000000000008B R
(1781874204.012054) can0 541#0000100000113DD7 R
(1781874204.012299) can0 12D#00000000000000D4 R
(1781874204.012458) can0 12A#10050000000A0083 R
(1781874204.021480) can0 12D#0000000000000035 R
(1781874204.021645) can0 12E#000000000000C0CF R
(1781874204.021785) can0 121#00A601CF048000B3 R
(1781874204.021923) can0 129#00000001000000BA R
(1781874204.022064) can0 120#00000000000000BE R
(1781874204.022205) can0 541#0000100000113D36 R
(1781874204.036535) can0 12D#000000000000005F R
(1781874204.036804) can0 450#0000000000002800 R
(1781874204.036981) can0 12D#000000000000006A R
(1781874204.037086) can0 12E#000000000000C02E R
(1781874204.037191) can0 121#00A601CF048000D9 R
(1781874204.037300) can0 129#00000001000000D0 R
(1781874204.052263) can0 120#00000000000000D4 R
(1781874204.052537) can0 541#0000100000113D5C R
(1781874204.052791) can0 12D#000000000000008B R
(1781874204.053038) can0 12D#00000000000000BE R
(1781874204.053284) can0 12E#000000000000C044 R
(1781874204.053532) can0 12A#10050000000A00B6 R
(1781874204.061613) can0 5A0#0000000004000051 R
(1781874204.061863) can0 121#00A601CF04800038 R
(1781874204.062007) can0 129#0000000100000031 R
(1781874204.062112) can0 120#0000000000000035 R
(1781874204.062218) can0 541#0000100000113D69 R
(1781874204.076447) can0 12D#00000000000000D4 R
(1781874204.076711) can0 12D#0000000000000035 R
(1781874204.076958) can0 12E#000000000000C071 R
(1781874204.077202) can0 450#0000000000002800 R
(1781874204.077446) can0 121#00A601CF04800052 R
(1781874204.077689) can0 129#000000010000005B R
(1781874204.095013) can0 120#000000000000005F R
(1781874204.095311) can0 541#0000100000113D88 R
(1781874204.095564) can0 12D#000000000000005F R
(1781874204.095811) can0 12D#000000000000006A R
(1781874204.096056) can0 12E#000000000000C090 R
(1781874204.096300) can0 121#00A601CF04800067 R
(1781874204.101756) can0 129#000000010000006E R
(1781874204.102006) can0 540#0000401000010400 R
(1781874204.102250) can0 5B0#100000000000006B R
(1781874204.102498) can0 120#000000000000006A R
(1781874204.102744) can0 541#0000100000113DBD R
(1781874204.102985) can0 12D#000000000000008B R
(1781874204.119962) can0 12A#10050000000A00DC R
(1781874204.120210) can0 12D#00000000000000BE R
(1781874204.120451) can0 12E#000000000000C0A5 R
(1781874204.120693) can0 121#00A601CF04800086 R
(1781874204.120935) can0 129#000000010000008F R
(1781874204.121178) can0 120#000000000000008B R
(1781874204.135146) can0 541#0000100000113DD7 R
(1781874204.135396) can0 12D#00000000000000D4 R
(1781874204.135640) can0 450#0000000000002800 R
(1781874204.135882) can0 12D#0000000000000035 R
(1781874204.136124) can0 12E#000000000000C0CF R
(1781874204.136365) can0 121#00A601CF048000B3 R
(1781874204.151892) can0 129#00000001000000BA R
(1781874204.152157) can0 120#00000000000000BE R
(1781874204.152406) can0 541#0000100000113D36 R
(1781874204.152650) can0 12D#000000000000005F R
(1781874204.152891) can0 12D#000000000000006A R
(1781874204.159850) can0 12E#000000000000C02E R
(1781874204.160117) can0 12A#10050000000A003D R
(1781874204.160359) can0 5A0#0000000004000064 R
(1781874204.160601) can0 121#00A601CF048000D9 R
(1781874204.160841) can0 129#00000001000000D0 R
(1781874204.161081) can0 120#00000000000000D4 R
(1781874204.175057) can0 541#0000100000113D5C R
(1781874204.175310) can0 12D#000000000000008B R
(1781874204.175555) can0 12D#00000000000000BE R
(1781874204.175797) can0 12E#000000000000C044 R
(1781874204.176040) can0 450#0000000000002800 R
(1781874204.176282) can0 121#00A601CF04800038 R
(1781874204.194834) can0 129#0000000100000031 R
(1781874204.195079) can0 120#0000000000000035 R
(1781874204.195322) can0 541#0000100000113D69 R
(1781874204.195564) can0 12D#00000000000000D4 R
(1781874204.195806) can0 12D#0000000000000035 R
(1781874204.196053) can0 12E#000000000000C071 R
(1781874204.201542) can0 121#00A601CF04800052 R
(1781874204.201790) can0 129#000000010000005B R
(1781874204.202034) can0 540#0000401000010400 R
(1781874204.202279) can0 5B0#100000000000008A R
(1781874204.202522) can0 120#000000000000005F R
(1781874204.202763) can0 541#0000100000113D88 R
(1781874204.215180) can0 12D#000000000000005F R
(1781874204.215426) can0 12A#10050000000A0057 R
(1781874204.215668) can0 12D#000000000000006A R
(1781874204.215910) can0 12E#000000000000C090 R
(1781874204.216151) can0 121#00A601CF04800067 R
(1781874204.231524) can0 129#000000010000006E R
(1781874204.231786) can0 120#000000000000006A R
(1781874204.232030) can0 541#0000100000113DBD R
(1781874204.232273) can0 12D#000000000000008B R
(1781874204.232514) can0 450#0000000000002800 R
(1781874204.232758) can0 12D#00000000000000BE R
(1781874204.251373) can0 12E#000000000000C0A5 R
(1781874204.251630) can0 121#00A601CF04800086 R
(1781874204.251877) can0 129#000000010000008F R
(1781874204.252120) can0 120#000000000000008B R
(1781874204.252360) can0 541#0000100000113DD7 R
(1781874204.252604) can0 12D#00000000000000D4 R
(1781874204.256581) can0 12D#0000000000000035 R
(1781874204.256829) can0 12E#000000000000C0CF R
(1781874204.257073) can0 12A#10050000000A0062 R
(1781874204.257316) can0 5A0#0000000004000085 R
(1781874204.257558) can0 121#00A601CF048000B3 R
(1781874204.257801) can0 129#00000001000000BA R
(1781874204.274881) can0 120#00000000000000BE R
(1781874204.275131) can0 541#0000100000113D36 R
(1781874204.275374) can0 12D#000000000000005F R
(1781874204.275618) can0 12D#000000000000006A R
(1781874204.275861) can0 12E#000000000000C02E R
(1781874204.276106) can0 450#0000000000002800 R
(1781874204.291656) can0 121#00A601CF048000D9 R
(1781874204.291912) can0 129#00000001000000D0 R
(1781874204.292159) can0 120#00000000000000D4 R
(1781874204.292399) can0 541#0000100000113D5C R
(1781874204.292641) can0 12D#000000000000008B R
(1781874204.292880) can0 12D#00000000000000BE R
(1781874204.296757) can0 12E#000000000000C044 R
(1781874204.297018) can0 121#00A601CF04800038 R
(1781874204.297264) can0 129#0000000100000031 R
(1781874204.297508) can0 540#0000401000010400 R
(1781874204.297750) can0 5B0#10000000000000BF R
(1781874204.314778) can0 120#0000000000000035 R
(1781874204.315046) can0 541#0000100000113D69 R
(1781874204.315294) can0 12D#00000000000000D4 R
(1781874204.315537) can0 12A#10050000000A0083 R
(1781874204.315782) can0 12D#0000000000000035 R
(1781874204.316026) can0 12E#000000000000C071 R
(1781874204.331354) can0 121#00A601CF04800052 R
(1781874204.331602) can0 129#000000010000005B R
(1781874204.331842) can0 120#000000000000005F R
(1781874204.332084) can0 541#0000100000113D88 R
(1781874204.332322) can0 12D#000000000000005F R
(1781874204.332562) can0 450#0000000000002800 R
(1781874204.341512) can0 12D#000000000000006A R
(1781874204.341761) can0 12E#000000000000C090 R
(1781874204.342004) can0 121#00A601CF04800067 R
(1781874204.342245) can0 129#000000010000006E R
(1781874204.342485) can0 120#000000000000006A R
(1781874204.342727) can0 541#0000100000113DBD R
(1781874204.355171) can0 12D#000000000000008B R
(1781874204.355419) can0 12D#00000000000000BE R
(1781874204.355661) can0 12E#000000000000C0A5 R
(1781874204.355902) can0 12A#10050000000A00B6 R
(1781874204.356142) can0 5A0#00000000040000B0 R
(1781874204.356382) can0 121#00A601CF04800086 R
(1781874204.371705) can0 129#000000010000008F R
(1781874204.371953) can0 120#000000000000008B R
(1781874204.372196) can0 541#0000100000113DD7 R
(1781874204.372437) can0 12D#00000000000000D4 R
(1781874204.372679) can0 12D#0000000000000035 R
(1781874204.381425) can0 12E#000000000000C0CF R
(1781874204.381683) can0 450#0000000000002800 R
(1781874204.381924) can0 121#00A601CF048000B3 R
(1781874204.382164) can0 129#00000001000000BA R
(1781874204.382407) can0 120#00000000000000BE R
(1781874204.382646) can0 541#0000100000113D36 R
(1781874204.395714) can0 12D#000000000000005F R
(1781874204.395976) can0 12D#000000000000006A R
(1781874204.396221) can0 12E#000000000000C02E R
(1781874204.396464) can0 121#00A601CF048000D9 R
(1781874204.396708) can0 129#00000001000000D0 R
(1781874204.396951) can0 540#0000401000010500 R
(1781874204.411584) can0 5B0#10000000000000D5 R
(1781874204.411833) can0 120#00000000000000D4 R
(1781874204.412076) can0 541#0000100000113D5C R
(1781874204.412318) can0 12D#000000000000008B R
(1781874204.412560) can0 12A#10050000000A00DC R
(1781874204.412801) can0 12D#00000000000000BE R
(1781874204.422836) can0 12E#000000000000C044 R
(1781874204.423088) can0 121#00A601CF04800038 R
(1781874204.423333) can0 129#0000000100000031 R
(1781874204.423575) can0 120#0000000000000035 R
(1781874204.423816) can0 541#0000100000113D69 R
(1781874204.424059) can0 12D#00000000000000D4 R
(1781874204.439972) can0 450#0000000000002800 R
(1781874204.440155) can0 12D#0000000000000035 R
(1781874204.440331) can0 12E#000000000000C071 R
(1781874204.440507) can0 121#00A601CF04800052 R
(1781874204.440682) can0 129#000000010000005B R
(1781874204.440857) can0 120#000000000000005F R
(1781874204.452212) can0 541#0000100000113D88 R
(1781874204.452329) can0 12D#000000000000005F R
(1781874204.452434) can0 12D#000000000000006A R
(1781874204.452539) can0 12E#000000000000C090 R
(1781874204.452676) can0 12A#10050000000A003D R
(1781874204.471397) can0 5A0#00000000040000DA R
(1781874204.471700) can0 121#00A601CF04800067 R
(1781874204.471956) can0 129#000000010000006E R
(1781874204.472206) can0 120#000000000000006A R
(1781874204.472453) can0 541#0000100000113DBD R
(1781874204.472704) can0 12D#000000000000008B R
(1781874204.479948) can0 12D#00000000000000BE R
(1781874204.480236) can0 12E#000000000000C0A5 R
(1781874204.480600) can0 450#0000000000002800 R
(1781874204.480889) can0 121#00A601CF04800086 R
(1781874204.481151) can0 129#000000010000008F R
(1781874204.481407) can0 120#000000000000008B R
(1781874204.495385) can0 541#0000100000113DD7 R
(1781874204.495565) can0 12D#00000000000000D4 R
(1781874204.495711) can0 12D#0000000000000035 R
(1781874204.495852) can0 12E#000000000000C0CF R
(1781874204.495992) can0 121#00A601CF048000B3 R
(1781874204.496131) can0 129#00000001000000BA R
(1781874204.511482) can0 540#0000401000010500 R
(1781874204.511762) can0 5B0#1000000000000034 R
(1781874204.512008) can0 120#00000000000000BE R
(1781874204.512250) can0 541#0000100000113D36 R
(1781874204.512493) can0 12D#000000000000005F R
(1781874204.512737) can0 12A#10050000000A0057 R
(1781874204.520038) can0 12D#000000000000006A R
(1781874204.520306) can0 12E#000000000000C02E R
(1781874204.520553) can0 121#00A601CF048000D9 R
(1781874204.520794) can0 129#00000001000000D0 R
(1781874204.521036) can0 120#00000000000000D4 R
(1781874204.535033) can0 541#0000100000113D5C R
(1781874204.535351) can0 12D#000000000000008B R
(1781874204.535520) can0 450#0000000000002800 R
(1781874204.535639) can0 12D#00000000000000BE R
(1781874204.535738) can0 12E#000000000000C044 R
(1781874204.535833) can0 121#00A601CF04800038 R
(1781874204.551912) can0 129#0000000100000031 R
(1781874204.552169) can0 120#0000000000000035 R
(1781874204.552411) can0 541#0000100000113D69 R
(1781874204.552655) can0 12D#00000000000000D4 R
(1781874204.552896) can0 12D#0000000000000035 R
(1781874204.553144) can0 12E#000000000000C071 R
(1781874204.561565) can0 12A#10050000000A0062 R
(1781874204.561683) can0 5A0#000000000400003B R
(1781874204.561795) can0 121#00A601CF04800052 R
(1781874204.561905) can0 129#000000010000005B R
(1781874204.562013) can0 120#000000000000005F R
(1781874204.562119) can0 541#0000100000113D88 R
(1781874204.576642) can0 12D#000000000000005F R
(1781874204.576918) can0 12D#000000000000006A R
(1781874204.577168) can0 12E#000000000000C090 R
(1781874204.577426) can0 450#0000000000002800 R
(1781874204.577672) can0 121#00A601CF04800067 R
(1781874204.577917) can0 129#000000010000006E R
(1781874204.595234) can0 120#000000000000006A R
(1781874204.595493) can0 541#0000100000113DBD R
(1781874204.595737) can0 12D#000000000000008B R
(1781874204.595980) can0 12D#00000000000000BE R
(1781874204.596220) can0 12E#000000000000C0A5 R
(1781874204.596470) can0 121#00A601CF04800086 R
(1781874204.601656) can0 129#000000010000008F R
(1781874204.601921) can0 540#0000401000010500 R
(1781874204.602165) can0 5B0#100000000000005E R
(1781874204.602408) can0 120#000000000000008B R
(1781874204.602651) can0 541#0000100000113DD7 R
(1781874204.616519) can0 12D#00000000000000D4 R
(1781874204.616793) can0 12A#10050000000A0083 R
(1781874204.617040) can0 12D#0000000000000035 R
(1781874204.617283) can0 12E#000000000000C0CF R
(1781874204.617526) can0 121#00A601CF048000B3 R
(1781874204.617767) can0 129#00000001000000BA R
(1781874204.634841) can0 120#00000000000000BE R
(1781874204.635103) can0 541#0000100000113E39 R
(1781874204.635348) can0 12D#000000000000005F R
(1781874204.635590) can0 450#0000000000002800 R
(1781874204.635829) can0 12D#000000000000006A R
(1781874204.636069) can0 12E#000000000000C02E R
(1781874204.651772) can0 121#00A601CF048000D9 R
(1781874204.652016) can0 129#00000001000000D0 R
(1781874204.652254) can0 120#00000000000000D4 R
(1781874204.652493) can0 541#0000100000113E53 R
(1781874204.652739) can0 12D#000000000000008B R
(1781874204.652980) can0 12D#00000000000000BE R
(1781874204.659980) can0 12E#000000000000C044 R
(1781874204.660229) can0 12A#10050000000A00B6 R
(1781874204.660473) can0 5A0#0000000004000051 R
(1781874204.660717) can0 121#00A601CF04800038 R
(1781874204.660959) can0 129#0000000100000031 R
(1781874204.661202) can0 120#0000000000000035 R
(1781874204.674964) can0 541#0000100000113E66 R
(1781874204.675106) can0 12D#00000000000000D4 R
(1781874204.675228) can0 12D#0000000000000035 R
(1781874204.675346) can0 12E#000000000000C071 R
(1781874204.675464) can0 450#0000000000002800 R
(1781874204.691510) can0 121#00A601CF04800052 R
(1781874204.691784) can0 129#000000010000005B R
(1781874204.692028) can0 120#000000000000005F R
(1781874204.692267) can0 541#0000100000113E87 R
(1781874204.692506) can0 12D#000000000000005F R
(1781874204.692745) can0 12D#000000000000006A R
(1781874204.699872) can0 12E#000000000000C090 R
(1781874204.700129) can0 121#00A601CF04800067 R
(1781874204.700372) can0 129#000000010000006E R
(1781874204.700642) can0 540#0000401000010500 R
(1781874204.700885) can0 5B0#100000000000006B R
(1781874204.701127) can0 120#000000000000006A R
(1781874204.715114) can0 541#0000100000113EB2 R
(1781874204.715359) can0 12D#000000000000008B R
(1781874204.715597) can0 12A#10050000000A00DC R
(1781874204.715836) can0 12D#00000000000000BE R
(1781874204.716076) can0 12E#000000000000C0A5 R
(1781874204.716316) can0 121#00A601CF04800086 R
(1781874204.731651) can0 129#000000010000008F R
(1781874204.731896) can0 120#000000000000008B R
(1781874204.732136) can0 541#0000100000113ED8 R
(1781874204.732377) can0 12D#00000000000000D4 R
(1781874204.732618) can0 450#0000000000002800 R
(1781874204.732813) can0 12D#0000000000000035 R
(1781874204.751536) can0 12E#000000000000C0CF R
(1781874204.751793) can0 121#00A601CF048000B3 R
(1781874204.752037) can0 129#00000001000000BA R
(1781874204.752279) can0 120#00000000000000BE R
(1781874204.752518) can0 541#0000100000113E39 R
(1781874204.752757) can0 12D#000000000000005F R
(1781874204.755336) can0 12D#000000000000006A R
(1781874204.755595) can0 12E#000000000000C02E R
(1781874204.755839) can0 12A#10050000000A003D R
(1781874204.756080) can0 5A0#0000000004000064 R
(1781874204.756323) can0 121#00A601CF048000D9 R
(1781874204.772559) can0 129#00000001000000D0 R
(1781874204.772815) can0 120#00000000000000D4 R
(1781874204.773059) can0 541#0000100000113E53 R
(1781874204.773370) can0 12D#000000000000008B R
(1781874204.773640) can0 12D#00000000000000BE R
(1781874204.773900) can0 12E#000000000000C044 R
(1781874204.791285) can0 450#0000000000002800 R
(1781874204.791542) can0 121#00A601CF04800038 R
(1781874204.791784) can0 129#0000000100000031 R
(1781874204.792024) can0 120#0000000000000035 R
(1781874204.792265) can0 541#0000100000113E66 R
(1781874204.792506) can0 12D#00000000000000D4 R
(1781874204.796664) can0 12D#0000000000000035 R
(1781874204.796913) can0 12E#000000000000C071 R
(1781874204.797158) can0 121#00A601CF04800052 R
(1781874204.797402) can0 129#000000010000005B R
(1781874204.797646) can0 540#0000401000010500 R
(1781874204.797887) can0 5B0#100000000000008A R
(1781874204.814983) can0 120#000000000000005F R
(1781874204.815245) can0 541#0000100000113E87 R
(1781874204.815488) can0 12D#000000000000005F R
(1781874204.815729) can0 12A#10050000000A0057 R
(1781874204.815968) can0 12D#000000000000006A R
(1781874204.816208) can0 12E#000000000000C090 R
(1781874204.822852) can0 121#00A601CF04800067 R
(1781874204.823100) can0 129#000000010000006E R
(1781874204.823341) can0 120#000000000000006A R
(1781874204.823584) can0 541#0000100000113EB2 R
(1781874204.823826) can0 12D#000000000000008B R
(1781874204.839846) can0 450#0000000000002800 R
(1781874204.840112) can0 12D#00000000000000BE R
(1781874204.840354) can0 12E#000000000000C0A5 R
(1781874204.840594) can0 121#00A601CF04800086 R
(1781874204.840833) can0 129#000000010000008F R
(1781874204.841072) can0 120#000000000000008B R
(1781874204.854844) can0 541#0000100000113ED8 R
(1781874204.855099) can0 12D#00000000000000D4 R
(1781874204.855340) can0 12D#0000000000000035 R
(1781874204.855580) can0 12E#000000000000C0CF R
(1781874204.855825) can0 12A#10050000000A0062 R
(1781874204.856067) can0 5A0#0000000004000085 R
(1781874204.871549) can0 121#00A601CF048000B3 R
(1781874204.871802) can0 129#00000001000000BA R
(1781874204.872042) can0 120#00000000000000BE R
(1781874204.872283) can0 541#0000100000113E39 R
(1781874204.872523) can0 12D#000000000000005F R
(1781874204.872641) can0 12D#000000000000006A R
(1781874204.881585) can0 12E#000000000000C02E R
(1781874204.881849) can0 450#0000000000002800 R
(1781874204.882095) can0 121#00A601CF048000D9 R
(1781874204.882337) can0 129#00000001000000D0 R
(1781874204.882586) can0 120#00000000000000D4 R
(1781874204.882828) can0 541#0000100000113E53 R
(1781874204.895690) can0 12D#000000000000008B R
(1781874204.895945) can0 12D#00000000000000BE R
(1781874204.896187) can0 12E#000000000000C044 R
(1781874204.896429) can0 121#00A601CF04800038 R
(1781874204.896668) can0 129#0000000100000031 R
(1781874204.896908) can0 540#0000401000010500 R
(1781874204.911444) can0 5B0#10000000000000BF R
(1781874204.911635) can0 120#0000000000000035 R
(1781874204.911754) can0 541#0000100000113E66 R
(1781874204.911870) can0 12D#00000000000000D4 R
(1781874204.911987) can0 12A#10050000000A0083 R
(1781874204.921417) can0 12D#0000000000000035 R
(1781874204.921672) can0 12E#000000000000C071 R
(1781874204.921915) can0 121#00A601CF04800052 R
(1781874204.922162) can0 129#000000010000005B R
(1781874204.922403) can0 120#000000000000005F R
(1781874204.922643) can0 541#0000100000113E87 R
(1781874204.936598) can0 12D#000000000000005F R
(1781874204.936847) can0 450#0000000000002800 R
(1781874204.937088) can0 12D#000000000000006A R
(1781874204.937328) can0 12E#000000000000C090 R
(1781874204.937567) can0 121#00A601CF04800067 R
(1781874204.937808) can0 129#000000010000006E R
(1781874204.952207) can0 120#000000000000006A R
(1781874204.952473) can0 541#0000100000113EB2 R
(1781874204.952717) can0 12D#000000000000008B R
(1781874204.952959) can0 12D#00000000000000BE R
(1781874204.953200) can0 12E#000000000000C0A5 R
(1781874204.953442) can0 12A#10050000000A00B6 R
(1781874204.971368) can0 5A0#00000000040000B0 R
(1781874204.971619) can0 121#00A601CF04800086 R
(1781874204.971862) can0 129#000000010000008F R
(1781874204.972104) can0 120#000000000000008B R
(1781874204.972347) can0 541#0000100000113ED8 R
(1781874204.972590) can0 12D#00000000000000D4 R
(1781874204.976701) can0 12D#0000000000000035 R
(1781874204.976948) can0 12E#000000000000C0CF R
(1781874204.977188) can0 450#0000000000002800 R
(1781874204.977428) can0 121#00A601CF048000B3 R
(1781874204.977667) can0 129#00000001000000BA R
(1781874204.995026) can0 120#00000000000000BE R
(1781874204.995360) can0 541#0000100000113E39 R
(1781874204.995609) can0 12D#000000000000005F R
(1781874204.995850) can0 12D#000000000000006A R
(1781874204.996092) can0 12E#000000000000C02E R
(1781874204.996332) can0 121#00A601CF048000D9 R
(1781874205.001709) can0 129#00000001000000D0 R
(1781874205.002013) can0 540#0000401000010500 R
(1781874205.002264) can0 5B0#10000000000000D5 R
(1781874205.002520) can0 120#00000000000000D4 R
(1781874205.003044) can0 541#0000100000113E53 R
(1781874205.003290) can0 12D#000000000000008B R
(1781874205.020009) can0 12A#10050000000A00DC R
(1781874205.020274) can0 12D#00000000000000BE R
(1781874205.020396) can0 12E#000000000000C044 R
(1781874205.020514) can0 121#00A601CF04800038 R
(1781874205.020630) can0 129#0000000100000031 R
(1781874205.020754) can0 120#0000000000000035 R
(1781874205.035180) can0 541#0000100000113E66 R
(1781874205.035348) can0 12D#00000000000000D4 R
(1781874205.035481) can0 450#0000000000002800 R
(1781874205.035606) can0 12D#0000000000000035 R
(1781874205.035737) can0 12E#000000000000C071 R
(1781874205.035861) can0 121#00A601CF04800052 R
(1781874205.052083) can0 129#000000010000005B R
(1781874205.052382) can0 120#000000000000005F R
(1781874205.052634) can0 541#0000100000113E87 R
(1781874205.052882) can0 12D#000000000000005F R
(1781874205.053125) can0 12D#000000000000006A R
(1781874205.053370) can0 12E#000000000000C090 R
(1781874205.060078) can0 12A#10050000000A003D R
(1781874205.060344) can0 5A0#00000000040000DA R
(1781874205.060593) can0 121#00A601CF04800067 R
(1781874205.060835) can0 129#000000010000006E R
(1781874205.061077) can0 120#000000000000006A R
(1781874205.075030) can0 541#0000100000113EB2 R
(1781874205.075154) can0 12D#000000000000008B R
(1781874205.075256) can0 12D#00000000000000BE R
(1781874205.075355) can0 12E#000000000000C0A5 R
(1781874205.075489) can0 450#0000000000002800 R
(1781874205.075592) can0 121#00A601CF04800086 R
(1781874205.094872) can0 129#000000010000008F R
(1781874205.095126) can0 120#000000000000008B R
(1781874205.095370) can0 541#0000100000113ED8 R
(1781874205.095617) can0 12D#00000000000000D4 R
(1781874205.095861) can0 12D#0000000000000035 R
(1781874205.096105) can0 12E#000000000000C0CF R
(1781874205.101516) can0 121#00A601CF048000B3 R
(1781874205.101780) can0 129#00000001000000BA R
(1781874205.102026) can0 540#0000401000010500 R
(1781874205.102271) can0 5B0#1000000000000034 R
(1781874205.102513) can0 120#00000000000000BE R
(1781874205.102807) can0 541#0000100000113E39 R
(1781874205.116658) can0 12D#000000000000005F R
(1781874205.116905) can0 12A#10050000000A0057 R
(1781874205.117148) can0 12D#000000000000006A R
(1781874205.117390) can0 12E#000000000000C02E R
(1781874205.117632) can0 121#00A601CF048000D9 R
(1781874205.117875) can0 129#00000001000000D0 R
(1781874205.131518) can0 120#00000000000000D4 R
(1781874205.131634) can0 541#0000100000113E53 R
(1781874205.131734) can0 12D#000000000000008B R
(1781874205.131830) can0 450#0000000000002800 R
(1781874205.131926) can0 12D#00000000000000BE R
(1781874205.151335) can0 12E#000000000000C044 R
(1781874205.151617) can0 121#00A601CF04800038 R
(1781874205.151864) can0 129#0000000100000031 R
(1781874205.152107) can0 120#0000000000000035 R
(1781874205.152348) can0 541#0000100000113E66 R
(1781874205.152590) can0 12D#00000000000000D4 R
(1781874205.156810) can0 12D#0000000000000035 R
(1781874205.157068) can0 12E#000000000000C071 R
(1781874205.157309) can0 12A#10050000000A0062 R
(1781874205.157551) can0 5A0#000000000400003B R
(1781874205.157793) can0 121#00A601CF04800052 R
(1781874205.158034) can0 129#000000010000005B R
(1781874205.174909) can0 120#000000000000005F R
(1781874205.175194) can0 541#0000100000113E87 R
(1781874205.175440) can0 12D#000000000000005F R
(1781874205.175684) can0 12D#000000000000006A R
(1781874205.175926) can0 12E#000000000000C090 R
(1781874205.176168) can0 450#0000000000002800 R
(1781874205.191643) can0 121#00A601CF04800067 R
(1781874205.191930) can0 129#000000010000006E R
(1781874205.192174) can0 120#000000000000006A R
(1781874205.192417) can0 541#0000100000113EB2 R
(1781874205.192656) can0 12D#000000000000008B R
(1781874205.192896) can0 12D#00000000000000BE R
(1781874205.199983) can0 12E#000000000000C0A5 R
(1781874205.200163) can0 121#00A601CF04800086 R
(1781874205.200339) can0 129#000000010000008F R
(1781874205.200515) can0 540#0000401000010500 R
(1781874205.200690) can0 5B0#100000000000005E R
(1781874205.200867) can0 120#000000000000008B R
(1781874205.215118) can0 541#0000100000113ED8 R
(1781874205.215405) can0 12D#00000000000000D4 R
(1781874205.215656) can0 12A#10050000000A0083 R
(1781874205.215901) can0 12D#0000000000000035 R
(1781874205.216146) can0 12E#000000000000C0CF R
(1781874205.231414) can0 121#00A601CF048000B3 R
(1781874205.231714) can0 129#00000001000000BA R
(1781874205.231966) can0 120#00000000000000BE R
(1781874205.232213) can0 541#0000100000113E39 R
(1781874205.232457) can0 12D#000000000000005F R
(1781874205.232703) can0 450#0000000000002800 R
(1781874205.241486) can0 12D#000000000000006A R
(1781874205.241771) can0 12E#000000000000C02E R
(1781874205.242019) can0 121#00A601CF048000D9 R
(1781874205.242262) can0 129#00000001000000D0 R
(1781874205.242505) can0 120#00000000000000D4 R
(1781874205.242745) can0 541#0000100000113E53 R
(1781874205.255226) can0 12D#000000000000008B R
(1781874205.255483) can0 12D#00000000000000BE R
(1781874205.255736) can0 12E#000000000000C044 R
(1781874205.255979) can0 12A#10050000000A00B6 R
(1781874205.256219) can0 5A0#0000000004000051 R
(1781874205.256458) can0 121#00A601CF04800038 R
(1781874205.272685) can0 129#0000000100000031 R
(1781874205.272830) can0 120#0000000000000035 R
(1781874205.272925) can0 541#0000100000113E66 R
(1781874205.273018) can0 12D#00000000000000D4 R
(1781874205.273109) can0 12D#0000000000000035 R
(1781874205.273196) can0 12E#000000000000C071 R
(1781874205.281526) can0 450#0000000000002800 R
(1781874205.281636) can0 121#00A601CF04800052 R
(1781874205.281741) can0 129#000000010000005B R
(1781874205.281845) can0 120#000000000000005F R
(1781874205.281948) can0 541#0000100000113E87 R
(1781874205.295581) can0 12D#000000000000005F R
(1781874205.295738) can0 12D#000000000000006A R
(1781874205.295854) can0 12E#000000000000C090 R
(1781874205.295963) can0 121#00A601CF04800067 R
(1781874205.296080) can0 129#000000010000006E R
(1781874205.296191) can0 540#0000401000010500 R
(1781874205.311436) can0 5B0#100000000000006B R
(1781874205.311599) can0 120#000000000000006A R
(1781874205.311754) can0 541#0000100000113EB2 R
(1781874205.311908) can0 12D#000000000000008B R
(1781874205.312046) can0 12A#10050000000A00DC R
(1781874205.312183) can0 12D#00000000000000BE R
(1781874205.322750) can0 12E#000000000000C0A5 R
(1781874205.323007) can0 121#00A601CF04800086 R
(1781874205.323250) can0 129#000000010000008F R
(1781874205.323493) can0 120#000000000000008B R
(1781874205.323733) can0 541#0000100000113ED8 R
(1781874205.323980) can0 12D#00000000000000D4 R
(1781874205.339891) can0 450#0000000000002800 R
(1781874205.340153) can0 12D#0000000000000035 R
(1781874205.340399) can0 12E#000000000000C0CF R
(1781874205.340638) can0 121#00A601CF048000B3 R
(1781874205.340879) can0 129#00000001000000BA R
(1781874205.341119) can0 120#00000000000000BE R
(1781874205.355127) can0 541#0000100000113E39 R
(1781874205.355429) can0 12D#000000000000005F R
(1781874205.355682) can0 12D#000000000000006A R
(1781874205.355927) can0 12E#000000000000C02E R
(1781874205.356176) can0 12A#10050000000A003D R
(1781874205.356423) can0 5A0#0000000004000064 R
(1781874205.371438) can0 121#00A601CF048000D9 R
(1781874205.371695) can0 129#00000001000000D0 R
(1781874205.371938) can0 120#00000000000000D4 R
(1781874205.372188) can0 541#0000100000113E53 R
(1781874205.372433) can0 12D#000000000000008B R
(1781874205.379884) can0 12D#00000000000000BE R
(1781874205.380175) can0 12E#000000000000C044 R
(1781874205.380423) can0 450#0000000000002800 R
(1781874205.380667) can0 121#00A601CF04800038 R
(1781874205.380908) can0 129#0000000100000031 R
(1781874205.381151) can0 120#0000000000000035 R
(1781874205.395371) can0 541#0000100000113E66 R
(1781874205.395622) can0 12D#00000000000000D4 R
(1781874205.395863) can0 12D#0000000000000035 R
(1781874205.396105) can0 12E#000000000000C071 R
(1781874205.396345) can0 121#00A601CF04800052 R
(1781874205.396587) can0 129#000000010000005B R
(1781874205.411296) can0 540#0000401000010500 R
(1781874205.411547) can0 5B0#100000000000008A R
(1781874205.411787) can0 120#000000000000005F R
(1781874205.412026) can0 541#0000100000113E87 R
(1781874205.412268) can0 12D#000000000000005F R
(1781874205.412509) can0 12A#10050000000A0057 R
(1781874205.421500) can0 12D#000000000000006A R
(1781874205.421748) can0 12E#000000000000C090 R
(1781874205.421989) can0 121#00A601CF04800067 R
(1781874205.422228) can0 129#000000010000006E R
(1781874205.422467) can0 120#000000000000006A R
(1781874205.422707) can0 541#0000100000113EB2 R
(1781874205.435271) can0 12D#000000000000008B R
(1781874205.435528) can0 450#0000000000002800 R
(1781874205.435769) can0 12D#00000000000000BE R
(1781874205.436011) can0 12E#000000000000C0A5 R
(1781874205.436254) can0 121#00A601CF04800086 R
(1781874205.451785) can0 129#000000010000008F R
(1781874205.452042) can0 120#000000000000008B R
(1781874205.452284) can0 541#0000100000113ED8 R
(1781874205.452524) can0 12D#00000000000000D4 R
(1781874205.452763) can0 12D#0000000000000035 R
(1781874205.453002) can0 12E#000000000000C0CF R
(1781874205.461437) can0 12A#10050000000A0062 R
(1781874205.461695) can0 5A0#0000000004000085 R
(1781874205.461934) can0 121#00A601CF048000B3 R
(1781874205.462178) can0 129#00000001000000BA R
(1781874205.462418) can0 120#00000000000000BE R
(1781874205.462655) can0 541#0000100000113E39 R
(1781874205.476632) can0 12D#000000000000005F R
(1781874205.476881) can0 12D#000000000000006A R
(1781874205.477123) can0 12E#000000000000C02E R
(1781874205.477363) can0 450#0000000000002800 R
(1781874205.477604) can0 121#00A601CF048000D9 R
(1781874205.477845) can0 129#00000001000000D0 R
(1781874205.495168) can0 120#00000000000000D4 R
(1781874205.495375) can0 541#0000100000113E53 R
(1781874205.495606) can0 12D#000000000000008B R
(1781874205.495852) can0 12D#00000000000000BE R
(1781874205.496095) can0 12E#000000000000C044 R
(1781874205.496348) can0 121#00A601CF04800038 R
(1781874205.501848) can0 129#0000000100000031 R
(1781874205.502111) can0 540#0000401000010500 R
(1781874205.502362) can0 5B0#10000000000000BF R
(1781874205.502605) can0 120#0000000000000035 R
(1781874205.502847) can0 541#0000100000113E66 R
(1781874205.503087) can0 12D#00000000000000D4 R
(1781874205.516879) can0 12A#10050000000A0083 R
(1781874205.517159) can0 12D#0000000000000035 R
(1781874205.517400) can0 12E#000000000000C071 R
(1781874205.517640) can0 121#00A601CF04800052 R
(1781874205.517881) can0 129#000000010000005B R
(1781874205.535028) can0 120#000000000000005F R
(1781874205.535290) can0 541#0000100000113E87 R
(1781874205.535532) can0 12D#000000000000005F R
(1781874205.535775) can0 450#0000000000002800 R
(1781874205.536016) can0 12D#000000000000006A R
(1781874205.536264) can0 12E#000000000000C090 R
(1781874205.551621) can0 121#00A601CF04800067 R
(1781874205.551872) can0 129#000000010000006E R
(1781874205.552114) can0 120#000000000000006A R
(1781874205.552354) can0 541#0000100000113EB2 R
(1781874205.552594) can0 12D#000000000000008B R
(1781874205.552833) can0 12D#00000000000000BE R
(1781874205.559956) can0 12E#000000000000C0A5 R
(1781874205.560201) can0 12A#10050000000A00B6 R
(1781874205.560441) can0 5A0#00000000040000B0 R
(1781874205.560682) can0 121#00A601CF04800086 R
(1781874205.560922) can0 129#000000010000008F R
(1781874205.561162) can0 120#000000000000008B R
(1781874205.575209) can0 541#0000100000113ED8 R
(1781874205.575457) can0 12D#00000000000000D4 R
(1781874205.575699) can0 12D#0000000000000035 R
(1781874205.575942) can0 12E#000000000000C0CF R
(1781874205.576191) can0 450#0000000000002800 R
(1781874205.576429) can0 121#00A601CF048000B3 R
(1781874205.591657) can0 129#00000001000000BA R
(1781874205.591905) can0 120#00000000000000BE R
(1781874205.592144) can0 541#0000100000113E39 R
(1781874205.592385) can0 12D#000000000000005F R
(1781874205.592625) can0 12D#000000000000006A R
(1781874205.599838) can0 12E#000000000000C02E R
(1781874205.600095) can0 121#00A601CF048000D9 R
(1781874205.600336) can0 129#00000001000000D0 R
(1781874205.600577) can0 540#0000401000010500 R
(1781874205.600817) can0 5B0#10000000000000D5 R
(1781874205.601059) can0 120#00000000000000D4 R
(1781874205.615108) can0 541#0000100000113E53 R
(1781874205.615364) can0 12D#000000000000008B R
(1781874205.615606) can0 12A#10050000000A00DC R
(1781874205.615846) can0 12D#00000000000000BE R
(1781874205.616085) can0 12E#000000000000C044 R
(1781874205.616324) can0 121#00A601CF04800038 R
(1781874205.631547) can0 129#0000000100000031 R
(1781874205.631805) can0 120#0000000000000035 R
(1781874205.632047) can0 541#0000100000113F70 R
(1781874205.632287) can0 12D#00000000000000D4 R
(1781874205.632526) can0 450#0000000000002800 R
(1781874205.632768) can0 12D#0000000000000035 R
(1781874205.651423) can0 12E#000000000000C071 R
(1781874205.651667) can0 121#00A601CF04800052 R
(1781874205.651908) can0 129#000000010000005B R
(1781874205.652147) can0 120#000000000000005F R
(1781874205.652385) can0 541#0000100000113F91 R
(1781874205.652625) can0 12D#000000000000005F R
(1781874205.656822) can0 12D#000000000000006A R
(1781874205.657062) can0 12E#000000000000C090 R
(1781874205.657301) can0 12A#10050000000A003D R
(1781874205.657541) can0 5A0#00000000040000DA R
(1781874205.657781) can0 121#00A601CF04800067 R
(1781874205.658022) can0 129#000000010000006E R
(1781874205.672752) can0 120#000000000000006A R
(1781874205.672999) can0 541#0000100000113FA4 R
(1781874205.673242) can0 12D#000000000000008B R
(1781874205.673482) can0 12D#00000000000000BE R
(1781874205.673722) can0 12E#000000000000C0A5 R
(1781874205.691176) can0 450#0000000000002800 R
(1781874205.691432) can0 121#00A601CF04800086 R
(1781874205.691672) can0 129#000000010000008F R
(1781874205.691911) can0 120#000000000000008B R
(1781874205.692151) can0 541#0000100000113FCE R
(1781874205.692392) can0 12D#00000000000000D4 R
(1781874205.696656) can0 12D#0000000000000035 R
(1781874205.696793) can0 12E#000000000000C0CF R
(1781874205.697007) can0 121#00A601CF048000B3 R
(1781874205.697149) can0 129#00000001000000BA R
(1781874205.697275) can0 540#0000401000010500 R
(1781874205.697396) can0 5B0#1000000000000034 R
(1781874205.714974) can0 120#00000000000000BE R
(1781874205.715239) can0 541#0000100000113F2F R
(1781874205.715482) can0 12D#000000000000005F R
(1781874205.715725) can0 12A#10050000000A0057 R
(1781874205.715967) can0 12D#000000000000006A R
(1781874205.716207) can0 12E#000000000000C02E R
(1781874205.731383) can0 121#00A601CF048000D9 R
(1781874205.731644) can0 129#00000001000000D0 R
(1781874205.731890) can0 120#00000000000000D4 R
(1781874205.732131) can0 541#0000100000113F45 R
(1781874205.732372) can0 12D#000000000000008B R
(1781874205.732611) can0 450#0000000000002800 R
(1781874205.740072) can0 12D#00000000000000BE R
(1781874205.740326) can0 12E#000000000000C044 R
(1781874205.740567) can0 121#00A601CF04800038 R
(1781874205.740809) can0 129#0000000100000031 R
(1781874205.741057) can0 120#0000000000000035 R
(1781874205.754856) can0 541#0000100000113F70 R
(1781874205.755117) can0 12D#00000000000000D4 R
(1781874205.755360) can0 12D#0000000000000035 R
(1781874205.755601) can0 12E#000000000000C071 R
(1781874205.755841) can0 12A#10050000000A0062 R
(1781874205.756082) can0 5A0#000000000400003B R
(1781874205.771440) can0 121#00A601CF04800052 R
(1781874205.771695) can0 129#000000010000005B R
(1781874205.771935) can0 120#000000000000005F R
(1781874205.772174) can0 541#0000100000113F91 R
(1781874205.772413) can0 12D#000000000000005F R
(1781874205.772653) can0 12D#000000000000006A R
(1781874205.781459) can0 12E#000000000000C090 R
(1781874205.781703) can0 450#0000000000002800 R
(1781874205.781944) can0 121#00A601CF04800067 R
(1781874205.782183) can0 129#000000010000006E R
(1781874205.782421) can0 120#000000000000006A R
(1781874205.782662) can0 541#0000100000113FA4 R
(1781874205.795694) can0 12D#000000000000008B R
(1781874205.795968) can0 12D#00000000000000BE R
(1781874205.796210) can0 12E#000000000000C0A5 R
(1781874205.796451) can0 121#00A601CF04800086 R
(1781874205.796689) can0 129#000000010000008F R
(1781874205.796936) can0 540#0000401000010500 R
(1781874205.811587) can0 5B0#100000000000005E R
(1781874205.811832) can0 120#000000000000008B R
(1781874205.812074) can0 541#0000100000113FCE R
(1781874205.812315) can0 12D#00000000000000D4 R
(1781874205.812556) can0 12A#10050000000A0083 R
(1781874205.812797) can0 12D#0000000000000035 R
(1781874205.821463) can0 12E#000000000000C0CF R
(1781874205.821706) can0 121#00A601CF048000B3 R
(1781874205.821949) can0 129#00000001000000BA R
(1781874205.822199) can0 120#00000000000000BE R
(1781874205.822440) can0 541#0000100000113F2F R
(1781874205.836569) can0 12D#000000000000005F R
(1781874205.836823) can0 450#0000000000002800 R
(1781874205.837063) can0 12D#000000000000006A R
(1781874205.837303) can0 12E#000000000000C02E R
(1781874205.837542) can0 121#00A601CF048000D9 R
(1781874205.837784) can0 129#00000001000000D0 R
(1781874205.852105) can0 120#00000000000000D4 R
(1781874205.852350) can0 541#0000100000113F45 R
(1781874205.852592) can0 12D#000000000000008B R
(1781874205.852831) can0 12D#00000000000000BE R
(1781874205.853073) can0 12E#000000000000C044 R
(1781874205.853313) can0 12A#10050000000A00B6 R
(1781874205.865909) can0 5A0#0000000004000051 R
(1781874205.866151) can0 121#00A601CF04800038 R
(1781874205.866394) can0 129#0000000100000031 R
(1781874205.866638) can0 120#0000000000000035 R
(1781874205.866879) can0 541#0000100000113F70 R
(1781874205.867128) can0 12D#00000000000000D4 R
(1781874205.875548) can0 12D#0000000000000035 R
(1781874205.875793) can0 12E#000000000000C071 R
(1781874205.876034) can0 450#0000000000002800 R
(1781874205.891455) can0 121#00A601CF04800052 R
(1781874205.891711) can0 129#000000010000005B R
(1781874205.891952) can0 120#000000000000005F R
(1781874205.892193) can0 541#0000100000113F91 R
(1781874205.892434) can0 12D#000000000000005F R
(1781874205.892673) can0 12D#000000000000006A R
(1781874205.899960) can0 12E#000000000000C090 R
(1781874205.900213) can0 121#00A601CF04800067 R
(1781874205.900458) can0 129#000000010000006E R
(1781874205.900700) can0 540#0000401000010500 R
(1781874205.900943) can0 5B0#100000000000006B R
(1781874205.901186) can0 120#000000000000006A R
(1781874205.915516) can0 541#0000100000113FA4 R
(1781874205.915882) can0 12D#000000000000008B R
(1781874205.916225) can0 12A#10050000000A00DC R
(1781874205.916602) can0 12D#00000000000000BE R
(1781874205.916962) can0 12E#000000000000C0A5 R
(1781874205.917259) can0 121#00A601CF04800086 R
(1781874205.931397) can0 129#000000010000008F R
(1781874205.931641) can0 120#000000000000008B R
(1781874205.931883) can0 541#0000100000113FCE R
(1781874205.932122) can0 12D#00000000000000D4 R
(1781874205.932361) can0 450#0000000000002800 R
(1781874205.932599) can0 12D#0000000000000035 R
(1781874205.941593) can0 12E#000000000000C0CF R
(1781874205.941837) can0 121#00A601CF048000B3 R
(1781874205.942076) can0 129#00000001000000BA R
(1781874205.942319) can0 120#00000000000000BE R
(1781874205.942560) can0 541#0000100000113F2F R
(1781874205.955157) can0 12D#000000000000005F R
(1781874205.955411) can0 12D#000000000000006A R
(1781874205.955651) can0 12E#000000000000C02E R
(1781874205.955892) can0 12A#10050000000A003D R
(1781874205.956133) can0 5A0#0000000004000064 R
(1781874205.956376) can0 121#00A601CF048000D9 R
(1781874205.972607) can0 129#00000001000000D0 R
(1781874205.972853) can0 120#00000000000000D4 R
(1781874205.973095) can0 541#0000100000113F45 R
(1781874205.973335) can0 12D#000000000000008B R
(1781874205.973575) can0 12D#00000000000000BE R
(1781874205.973816) can0 12E#000000000000C044 R
(1781874205.991320) can0 450#0000000000002800 R
(1781874205.991570) can0 121#00A601CF04800038 R
(1781874205.991813) can0 129#0000000100000031 R
(1781874205.992055) can0 120#0000000000000035 R
(1781874205.992297) can0 541#0000100000113F70 R
(1781874205.992539) can0 12D#00000000000000D4 R
(1781874205.996812) can0 12D#0000000000000035 R
(1781874205.997115) can0 12E#000000000000C071 R
(1781874205.997361) can0 121#00A601CF04800052 R
(1781874205.997603) can0 129#000000010000005B R
(1781874205.997847) can0 540#0000401000010500 R
(1781874205.998089) can0 5B0#100000000000008A R
(1781874206.011681) can0 120#000000000000005F R
(1781874206.011949) can0 541#0000100000113F91 R
(1781874206.012197) can0 12D#000000000000005F R
(1781874206.012401) can0 12A#10050000000A0057 R
(1781874206.012500) can0 12D#000000000000006A R
(1781874206.022678) can0 12E#000000000000C090 R
(1781874206.022966) can0 121#00A601CF04800067 R
(1781874206.023220) can0 129#000000010000006E R
(1781874206.023466) can0 120#000000000000006A R
(1781874206.023709) can0 541#0000100000113FA4 R
(1781874206.023951) can0 12D#000000000000008B R
(1781874206.039935) can0 450#0000000000002800 R
(1781874206.040197) can0 12D#00000000000000BE R
(1781874206.040443) can0 12E#000000000000C0A5 R
(1781874206.040687) can0 121#00A601CF04800086 R
(1781874206.040927) can0 129#000000010000008F R
(1781874206.041174) can0 120#000000000000008B R
(1781874206.055025) can0 541#0000100000113FCE R
(1781874206.055305) can0 12D#00000000000000D4 R
(1781874206.055558) can0 12D#0000000000000035 R
(1781874206.055806) can0 12E#000000000000C0CF R
(1781874206.056052) can0 12A#10050000000A0062 R
(1781874206.056296) can0 5A0#0000000004000085 R
(1781874206.071630) can0 121#00A601CF048000B3 R
(1781874206.071902) can0 129#00000001000000BA R
(1781874206.072196) can0 120#00000000000000BE R
(1781874206.072461) can0 541#0000100000113F2F R
(1781874206.072715) can0 12D#000000000000005F R
(1781874206.072968) can0 12D#000000000000006A R
(1781874206.080046) can0 12E#000000000000C02E R
(1781874206.080306) can0 450#0000000000002800 R
(1781874206.080550) can0 121#00A601CF048000D9 R
(1781874206.080793) can0 129#00000001000000D0 R
(1781874206.081035) can0 120#00000000000000D4 R
(1781874206.081278) can0 541#0000100000113F45 R
(1781874206.095572) can0 12D#000000000000008B R
(1781874206.095825) can0 12D#00000000000000BE R
(1781874206.096072) can0 12E#000000000000C044 R
(1781874206.096320) can0 121#00A601CF04800038 R
(1781874206.096567) can0 129#0000000100000031 R
(1781874206.111299) can0 540#0000401000010500 R
(1781874206.111560) can0 5B0#10000000000000BF R
(1781874206.111815) can0 120#0000000000000035 R
(1781874206.112058) can0 541#0000100000113F70 R
(1781874206.112301) can0 12D#00000000000000D4 R
(1781874206.112544) can0 12A#10050000000A0083 R
(1781874206.121319) can0 12D#0000000000000035 R
(1781874206.121571) can0 12E#000000000000C071 R
(1781874206.121817) can0 121#00A601CF04800052 R
(1781874206.122062) can0 129#000000010000005B R
(1781874206.122306) can0 120#000000000000005F R
(1781874206.122549) can0 541#0000100000113F91 R
(1781874206.136782) can0 12D#000000000000005F R
(1781874206.137027) can0 450#0000000000002800 R
(1781874206.137268) can0 12D#000000000000006A R
(1781874206.137509) can0 12E#000000000000C090 R
(1781874206.137749) can0 121#00A601CF04800067 R
(1781874206.137992) can0 129#000000010000006E R
(1781874206.152063) can0 120#000000000000006A R
(1781874206.152326) can0 541#0000100000113FA4 R
(1781874206.152569) can0 12D#000000000000008B R
(1781874206.152811) can0 12D#00000000000000BE R
(1781874206.153052) can0 12E#000000000000C0A5 R
(1781874206.153295) can0 12A#10050000000A00B6 R
(1781874206.161441) can0 5A0#00000000040000B0 R
(1781874206.161687) can0 121#00A601CF04800086 R
(1781874206.161927) can0 129#000000010000008F R
(1781874206.162166) can0 120#000000000000008B R
(1781874206.162408) can0 541#0000100000113FCE R
(1781874206.176803) can0 12D#00000000000000D4 R
(1781874206.177057) can0 12D#0000000000000035 R
(1781874206.177300) can0 12E#000000000000C0CF R
(1781874206.177539) can0 450#0000000000002800 R
(1781874206.177780) can0 121#00A601CF048000B3 R
(1781874206.178024) can0 129#00000001000000BA R
(1781874206.195155) can0 120#00000000000000BE R
(1781874206.195411) can0 541#0000100000113F2F R
(1781874206.195651) can0 12D#000000000000005F R
(1781874206.195890) can0 12D#000000000000006A R
(1781874206.196131) can0 12E#000000000000C02E R
(1781874206.196373) can0 121#00A601CF048000D9 R
(1781874206.201587) can0 129#00000001000000D0 R
(1781874206.201831) can0 540#0000401000010500 R
(1781874206.202074) can0 5B0#10000000000000D5 R
(1781874206.202314) can0 120#00000000000000D4 R
(1781874206.202555) can0 541#0000100000113F45 R
(1781874206.202796) can0 12D#000000000000008B R
(1781874206.219993) can0 12A#10050000000A00DC R
(1781874206.220237) can0 12D#00000000000000BE R
(1781874206.220477) can0 12E#000000000000C044 R
(1781874206.220717) can0 121#00A601CF04800038 R
(1781874206.220957) can0 129#0000000100000031 R
(1781874206.221196) can0 120#0000000000000035 R
(1781874206.235052) can0 541#0000100000113F70 R
(1781874206.235302) can0 12D#00000000000000D4 R
(1781874206.235544) can0 450#0000000000002800 R
(1781874206.235784) can0 12D#0000000000000035 R
(1781874206.236029) can0 12E#000000000000C071 R
(1781874206.236274) can0 121#00A601CF04800052 R
(1781874206.251788) can0 129#000000010000005B R
(1781874206.252033) can0 120#000000000000005F R
(1781874206.252273) can0 541#0000100000113F91 R
(1781874206.252513) can0 12D#000000000000005F R
(1781874206.252753) can0 12D#000000000000006A R
(1781874206.259885) can0 12E#000000000000C090 R
(1781874206.260142) can0 12A#10050000000A003D R
(1781874206.260384) can0 5A0#00000000040000DA R
(1781874206.260624) can0 121#00A601CF04800067 R
(1781874206.260865) can0 129#000000010000006E R
(1781874206.261105) can0 120#000000000000006A R
(1781874206.275270) can0 541#0000100000113FA4 R
(1781874206.275522) can0 12D#000000000000008B R
(1781874206.275765) can0 12D#00000000000000BE R
(1781874206.276008) can0 12E#000000000000C0A5 R
(1781874206.276255) can0 450#0000000000002800 R
(1781874206.276496) can0 121#00A601CF04800086 R
(1781874206.295171) can0 129#000000010000008F R
(1781874206.295417) can0 120#000000000000008B R
(1781874206.295659) can0 541#0000100000113FCE R
(1781874206.295899) can0 12D#00000000000000D4 R
(1781874206.296142) can0 12D#0000000000000035 R
(1781874206.296384) can0 12E#000000000000C0CF R
(1781874206.301386) can0 121#00A601CF048000B3 R
(1781874206.301630) can0 129#00000001000000BA R
(1781874206.301870) can0 540#0000401000010500 R
(1781874206.302111) can0 5B0#1000000000000034 R
(1781874206.302352) can0 120#00000000000000BE R
(1781874206.302593) can0 541#0000100000113F2F R
(1781874206.315314) can0 12D#000000000000005F R
(1781874206.315562) can0 12A#10050000000A0057 R
(1781874206.315805) can0 12D#000000000000006A R
(1781874206.316047) can0 12E#000000000000C02E R
(1781874206.316289) can0 121#00A601CF048000D9 R
(1781874206.331499) can0 129#00000001000000D0 R
(1781874206.331755) can0 120#00000000000000D4 R
(1781874206.332000) can0 541#0000100000113F45 R
(1781874206.332267) can0 12D#000000000000008B R
(1781874206.332509) can0 450#0000000000002800 R
(1781874206.332750) can0 12D#00000000000000BE R
(1781874206.351382) can0 12E#000000000000C044 R
(1781874206.351637) can0 121#00A601CF04800038 R
(1781874206.351880) can0 129#0000000100000031 R
(1781874206.352122) can0 120#0000000000000035 R
(1781874206.352363) can0 541#0000100000113F70 R
(1781874206.352606) can0 12D#00000000000000D4 R
(1781874206.356760) can0 12D#0000000000000035 R
(1781874206.357006) can0 12E#000000000000C071 R
(1781874206.357247) can0 12A#10050000000A0062 R
(1781874206.357486) can0 5A0#000000000400003B R
(1781874206.357727) can0 121#00A601CF04800052 R
(1781874206.357967) can0 129#000000010000005B R
(1781874206.375003) can0 120#000000000000005F R
(1781874206.375246) can0 541#0000100000113F91 R
(1781874206.375488) can0 12D#000000000000005F R
(1781874206.375728) can0 12D#000000000000006A R
(1781874206.375969) can0 12E#000000000000C090 R
(1781874206.376209) can0 450#0000000000002800 R
(1781874206.391396) can0 121#00A601CF04800067 R
(1781874206.391645) can0 129#000000010000006E R
(1781874206.391886) can0 120#000000000000006A R
(1781874206.392126) can0 541#0000100000113FA4 R
(1781874206.392367) can0 12D#000000000000008B R
(1781874206.392608) can0 12D#00000000000000BE R
(1781874206.396881) can0 12E#000000000000C0A5 R
(1781874206.397130) can0 121#00A601CF04800086 R
(1781874206.397378) can0 129#000000010000008F R
(1781874206.397621) can0 540#0000401000010500 R
(1781874206.397860) can0 5B0#100000000000005E R
(1781874206.414881) can0 120#000000000000008B R
(1781874206.415138) can0 541#0000100000113FCE R
(1781874206.415381) can0 12D#00000000000000D4 R
(1781874206.415622) can0 12A#10050000000A0083 R
(1781874206.415863) can0 12D#0000000000000035 R
(1781874206.416104) can0 12E#000000000000C0CF R
(1781874206.431251) can0 121#00A601CF048000B3 R
(1781874206.431519) can0 129#00000001000000BA R
(1781874206.431778) can0 120#00000000000000BE R
(1781874206.432037) can0 541#0000100000113F2F R
(1781874206.432293) can0 12D#000000000000005F R
(1781874206.432551) can0 450#0000000000002800 R
(1781874206.441372) can0 12D#000000000000006A R
(1781874206.441623) can0 12E#000000000000C02E R
(1781874206.441869) can0 121#00A601CF048000D9 R
(1781874206.442112) can0 129#00000001000000D0 R
(1781874206.442355) can0 120#00000000000000D4 R
(1781874206.442598) can0 541#0000100000113F45 R
(1781874206.455313) can0 12D#000000000000008B R
(1781874206.455560) can0 12D#00000000000000BE R
(1781874206.455802) can0 12E#000000000000C044 R
(1781874206.456049) can0 12A#10050000000A00B6 R
(1781874206.456292) can0 5A0#0000000004000051 R
(1781874206.456538) can0 121#00A601CF04800038 R
(1781874206.471674) can0 129#0000000100000031 R
(1781874206.471918) can0 120#0000000000000035 R
(1781874206.472162) can0 541#0000100000113F70 R
(1781874206.472407) can0 12D#00000000000000D4 R
(1781874206.472650) can0 12D#0000000000000035 R
(1781874206.481378) can0 12E#000000000000C071 R
(1781874206.481637) can0 450#0000000000002800 R
(1781874206.481878) can0 121#00A601CF04800052 R
(1781874206.482117) can0 129#000000010000005B R
(1781874206.482362) can0 120#000000000000005F R
(1781874206.482602) can0 541#0000100000113F91 R
(1781874206.495695) can0 12D#000000000000005F R
(1781874206.495950) can0 12D#000000000000006A R
(1781874206.496190) can0 12E#000000000000C090 R
(1781874206.496431) can0 121#00A601CF04800067 R
(1781874206.496671) can0 129#000000010000006E R
(1781874206.496913) can0 540#0000401000010500 R
(1781874206.511538) can0 5B0#100000000000006B R
(1781874206.511794) can0 120#000000000000006A R
(1781874206.512036) can0 541#0000100000113FA4 R
(1781874206.512277) can0 12D#000000000000008B R
(1781874206.512523) can0 12A#10050000000A00DC R
(1781874206.512763) can0 12D#00000000000000BE R
(1781874206.522792) can0 12E#000000000000C0A5 R
(1781874206.523037) can0 121#00A601CF04800086 R
(1781874206.523280) can0 129#000000010000008F R
(1781874206.523520) can0 120#000000000000008B R
(1781874206.523761) can0 541#0000100000113FCE R
(1781874206.524003) can0 12D#00000000000000D4 R
(1781874206.536851) can0 450#0000000000002800 R
(1781874206.537119) can0 12D#0000000000000035 R
(1781874206.537366) can0 12E#000000000000C0CF R
(1781874206.537609) can0 121#00A601CF048000B3 R
(1781874206.537851) can0 129#00000001000000BA R
(1781874206.538092) can0 120#00000000000000BE R
(1781874206.552278) can0 541#0000100000113F2F R
(1781874206.552525) can0 12D#000000000000005F R
(1781874206.552776) can0 12D#000000000000006A R
(1781874206.553020) can0 12E#000000000000C02E R
(1781874206.553264) can0 12A#10050000000A003D R
(1781874206.571274) can0 5A0#0000000004000064 R
(1781874206.571533) can0 121#00A601CF048000D9 R
(1781874206.571777) can0 129#00000001000000D0 R
(1781874206.572019) can0 120#00000000000000D4 R
(1781874206.572262) can0 541#0000100000113F45 R
(1781874206.572505) can0 12D#000000000000008B R
(1781874206.579954) can0 12D#00000000000000BE R
(1781874206.580201) can0 12E#000000000000C044 R
(1781874206.580443) can0 450#0000000000002800 R
(1781874206.580685) can0 121#00A601CF04800038 R
(1781874206.580926) can0 129#0000000100000031 R
(1781874206.581169) can0 120#0000000000000035 R
(1781874206.595495) can0 541#0000100000113F70 R
(1781874206.595748) can0 12D#00000000000000D4 R
(1781874206.595993) can0 12D#0000000000000035 R
(1781874206.596233) can0 12E#000000000000C071 R
(1781874206.596477) can0 121#00A601CF04800052 R
(1781874206.596718) can0 129#000000010000005B R
(1781874206.611391) can0 540#0000401000010500 R
(1781874206.611635) can0 5B0#100000000000008A R
(1781874206.611877) can0 120#000000000000005F R
(1781874206.612119) can0 541#0000100000113F91 R
(1781874206.612360) can0 12D#000000000000005F R
(1781874206.612603) can0 12A#10050000000A0057 R
(1781874206.620069) can0 12D#000000000000006A R
(1781874206.620312) can0 12E#000000000000C090 R
(1781874206.620553) can0 121#00A601CF04800067 R
(1781874206.620794) can0 129#000000010000006E R
(1781874206.621036) can0 120#000000000000006A R
(1781874206.635125) can0 541#00001000001140A9 R
(1781874206.635383) can0 12D#000000000000008B R
(1781874206.635626) can0 450#0000000000002800 R
(1781874206.635869) can0 12D#00000000000000BE R
(1781874206.636114) can0 12E#000000000000C0A5 R
(1781874206.636354) can0 121#00A601CF04800086 R
(1781874206.651829) can0 129#000000010000008F R
(1781874206.652082) can0 120#000000000000008B R
(1781874206.652325) can0 541#00001000001140C3 R
(1781874206.652565) can0 12D#00000000000000D4 R
(1781874206.652805) can0 12D#0000000000000035 R
(1781874206.653047) can0 12E#000000000000C0CF R
(1781874206.661313) can0 12A#10050000000A0062 R
(1781874206.661560) can0 5A0#0000000004000085 R
(1781874206.661802) can0 121#00A601CF048000B3 R
(1781874206.662043) can0 129#00000001000000BA R
(1781874206.662284) can0 120#00000000000000BE R
(1781874206.662525) can0 541#0000100000114022 R
(1781874206.676925) can0 12D#000000000000005F R
(1781874206.677167) can0 12D#000000000000006A R
(1781874206.677407) can0 12E#000000000000C02E R
(1781874206.677648) can0 450#0000000000002800 R
(1781874206.677892) can0 121#00A601CF048000D9 R
(1781874206.678136) can0 129#00000001000000D0 R
(1781874206.695093) can0 120#00000000000000D4 R
(1781874206.695340) can0 541#0000100000114048 R
(1781874206.695580) can0 12D#000000000000008B R
(1781874206.695821) can0 12D#00000000000000BE R
(1781874206.696061) can0 12E#000000000000C044 R
(1781874206.696301) can0 121#00A601CF04800038 R
(1781874206.701464) can0 129#0000000100000031 R
(1781874206.701709) can0 540#0000401000010500 R
(1781874206.701950) can0 5B0#10000000000000BF R
(1781874206.702190) can0 120#0000000000000035 R
(1781874206.702431) can0 541#000010000011407D R
(1781874206.716691) can0 12D#00000000000000D4 R
(1781874206.716947) can0 12A#10050000000A0083 R
(1781874206.717191) can0 12D#0000000000000035 R
(1781874206.717433) can0 12E#000000000000C071 R
(1781874206.717675) can0 121#00A601CF04800052 R
(1781874206.717917) can0 129#000000010000005B R
(1781874206.734973) can0 120#000000000000005F R
(1781874206.735221) can0 541#000010000011409C R
(1781874206.735464) can0 12D#000000000000005F R
(1781874206.735706) can0 450#0000000000002800 R
(1781874206.735945) can0 12D#000000000000006A R
(1781874206.736229) can0 12E#000000000000C090 R
(1781874206.751674) can0 121#00A601CF04800067 R
(1781874206.751920) can0 129#000000010000006E R
(1781874206.752162) can0 120#000000000000006A R
(1781874206.752404) can0 541#00001000001140A9 R
(1781874206.752645) can0 12D#000000000000008B R
(1781874206.752888) can0 12D#00000000000000BE R
(1781874206.760019) can0 12E#000000000000C0A5 R
(1781874206.760263) can0 12A#10050000000A00B6 R
(1781874206.760506) can0 5A0#00000000040000B0 R
(1781874206.760749) can0 121#00A601CF04800086 R
(1781874206.760990) can0 129#000000010000008F R
(1781874206.761232) can0 120#000000000000008B R
(1781874206.775096) can0 541#00001000001140C3 R
(1781874206.775344) can0 12D#00000000000000D4 R
(1781874206.775586) can0 12D#0000000000000035 R
(1781874206.775828) can0 12E#000000000000C0CF R
(1781874206.776072) can0 450#0000000000002800 R
(1781874206.791436) can0 121#00A601CF048000B3 R
(1781874206.791696) can0 129#00000001000000BA R
(1781874206.791937) can0 120#00000000000000BE R
(1781874206.792178) can0 541#0000100000114022 R
(1781874206.792420) can0 12D#000000000000005F R
(1781874206.792661) can0 12D#000000000000006A R
(1781874206.799914) can0 12E#000000000000C02E R
(1781874206.800168) can0 121#00A601CF048000D9 R
(1781874206.800411) can0 129#00000001000000D0 R
(1781874206.800653) can0 540#0000401000010500 R
(1781874206.800894) can0 5B0#10000000000000D5 R
(1781874206.801136) can0 120#00000000000000D4 R
(1781874206.815241) can0 541#0000100000114048 R
