(1781712807.160227) can0 12D#0000000000000000 R
(1781712807.160753) can0 12D#0000000000000000 R
(1781712807.161063) can0 12D#0000000000000000 R
(1781712807.161317) can0 12D#0000000000000000 R
(1781712807.161555) can0 12D#0000000000000000 R
(1781712807.161794) can0 12D#0000000000000000 R
(1781712807.162032) can0 12D#0000000000000000 R
(1781712807.162267) can0 12D#0000000000000000 R
(1781712807.162579) can0 12D#0000000000000000 R
(1781712807.162701) can0 12D#0000000000000000 R
(1781712807.162798) can0 12D#0000000000000000 R
(1781712807.162892) can0 12D#0000000000000000 R
(1781712807.162985) can0 12D#0000000000000000 R
(1781712807.163077) can0 12D#0000000000000000 R
(1781712807.163169) can0 12D#0000000000000000 R
(1781712807.164319) can0 12D#0000000000000000 R
(1781712807.164474) can0 12D#0000000000000000 R
(1781712807.164585) can0 12D#0000000000000000 R
(1781712807.164687) can0 12D#0000000000000000 R
(1781712807.164789) can0 12D#0000000000000000 R
(1781712807.164889) can0 12D#0000000000000000 R
(1781712807.165910) can0 12D#0000000000000035 R
(1781712807.166021) can0 12D#0000000000000035 R
(1781712807.166122) can0 12D#0000000000000035 R
(1781712807.166222) can0 12D#0000000000000035 R
(1781712807.166323) can0 12D#0000000000000035 R
(1781712807.166424) can0 12D#0000000000000035 R
(1781712807.167258) can0 12D#0000000000000035 R
(1781712807.167363) can0 12D#0000000000000035 R
(1781712807.167462) can0 12D#0000000000000035 R
(1781712807.167563) can0 12D#0000000000000035 R
(1781712807.167663) can0 12D#0000000000000035 R
(1781712807.168831) can0 12D#0000000000000035 R
(1781712807.168939) can0 12D#0000000000000035 R
(1781712807.169039) can0 12D#0000000000000035 R
(1781712807.169140) can0 12D#0000000000000035 R
(1781712807.169240) can0 12D#0000000000000035 R
(1781712807.169340) can0 12D#0000000000000035 R
(1781712807.170537) can0 12D#0000000000000035 R
(1781712807.170710) can0 12D#0000000000000035 R
(1781712807.170823) can0 12D#0000000000000035 R
(1781712807.170945) can0 12D#0000000000000035 R
(1781712807.171052) can0 12D#0000000000000035 R
(1781712807.171153) can0 12D#0000000000000035 R
(1781712807.172142) can0 12D#0000000000000035 R
(1781712807.172266) can0 12D#0000000000000035 R
(1781712807.172367) can0 12D#0000000000000035 R
(1781712807.172465) can0 12D#0000000000000035 R
(1781712807.172561) can0 12D#0000000000000035 R
(1781712807.172657) can0 12D#0000000000000035 R
(1781712807.173818) can0 12D#0000000000000035 R
(1781712807.173935) can0 12D#0000000000000035 R
(1781712807.174044) can0 12D#0000000000000035 R
(1781712807.174148) can0 12D#0000000000000035 R
(1781712807.174249) can0 12D#0000000000000035 R
(1781712807.174347) can0 12D#0000000000000035 R
(1781712807.175175) can0 12D#0000000000000035 R
(1781712807.175296) can0 12D#0000000000000035 R
(1781712807.175401) can0 12D#000000000000005F R
(1781712807.175529) can0 12D#000000000000005F R
(1781712807.175643) can0 12D#000000000000005F R
(1781712807.176795) can0 12D#000000000000005F R
(1781712807.176934) can0 12D#000000000000005F R
(1781712807.177031) can0 12D#000000000000005F R
(1781712807.177127) can0 12D#000000000000005F R
(1781712807.177243) can0 12D#000000000000005F R
(1781712807.177338) can0 12D#000000000000005F R
(1781712807.184333) can0 12D#000000000000005F R
(1781712807.184476) can0 12D#000000000000005F R
(1781712807.184594) can0 12D#000000000000005F R
(1781712807.184709) can0 12D#000000000000005F R
(1781712807.184823) can0 12E#0000000000000000 R
(1781712807.184938) can0 12D#000000000000006A R
(1781712807.194301) can0 12E#0000000000000035 R
(1781712807.194501) can0 121#0000000004840010 R
(1781712807.194687) can0 129#0000000100000004 R
(1781712807.194866) can0 540#0000000000000000 R
(1781712807.195066) can0 5B0#0000000000000000 R
(1781712807.195250) can0 120#0000000000000000 R
(1781712807.208796) can0 12D#000000000000008B R
(1781712807.208897) can0 12A#10010000000A001D R
(1781712807.208976) can0 12D#00000000000000BE R
(1781712807.209050) can0 12E#000000000000005F R
(1781712807.209125) can0 121#0000000004840025 R
(1781712807.209211) can0 129#0000000100000031 R
(1781712807.230014) can0 120#0000000000000035 R
(1781712807.230215) can0 12D#00000000000000D4 R
(1781712807.230356) can0 12D#0000000000000035 R
(1781712807.230495) can0 12E#000000000000006A R
(1781712807.230630) can0 121#00AC01D604800053 R
(1781712807.230769) can0 129#000000010000005B R
(1781712807.245213) can0 120#000000000000005F R
(1781712807.245474) can0 12D#000000000000005F R
(1781712807.245744) can0 12D#000000000000006A R
(1781712807.245984) can0 12E#000000000000008B R
(1781712807.246220) can0 12A#10010000000A0028 R
(1781712807.264442) can0 5A0#0000000000000000 R
(1781712807.264706) can0 121#00AC01D604800066 R
(1781712807.264942) can0 129#000000010000006E R
(1781712807.265178) can0 120#000000000000006A R
(1781712807.265411) can0 12D#000000000000008B R
(1781712807.265643) can0 12D#00000000000000BE R
(1781712807.284458) can0 12E#00000000000000BE R
(1781712807.284748) can0 121#00AC01D604800087 R
(1781712807.284987) can0 129#000000010000008F R
(1781712807.285218) can0 120#000000000000008B R
(1781712807.285452) can0 12D#00000000000000D4 R
(1781712807.285684) can0 12D#0000000000000035 R
(1781712807.294325) can0 12E#00000000000000D4 R
(1781712807.294600) can0 121#00AC01D6048000B2 R
(1781712807.294841) can0 129#00000001000000BA R
(1781712807.295080) can0 540#0000000100020600 R
(1781712807.295316) can0 5B0#0000000000000035 R
(1781712807.295553) can0 120#00000000000000BE R
(1781712807.309948) can0 12D#000000000000005F R
(1781712807.310214) can0 12A#10010000000A0042 R
(1781712807.310460) can0 12D#000000000000006A R
(1781712807.310704) can0 12E#0000000000000035 R
(1781712807.310946) can0 121#00AC01D6048000D8 R
(1781712807.311187) can0 129#00000001000000D0 R
(1781712807.328304) can0 120#00000000000000D4 R
(1781712807.328575) can0 12D#000000000000008B R
(1781712807.328817) can0 12D#00000000000000BE R
(1781712807.329056) can0 12E#000000000000005F R
(1781712807.329291) can0 121#00AC01D604800039 R
(1781712807.344980) can0 129#0000000100000031 R
(1781712807.345275) can0 120#0000000000000035 R
(1781712807.345520) can0 12D#00000000000000D4 R
(1781712807.345757) can0 12D#0000000000000035 R
(1781712807.346018) can0 12E#000000000000006A R
(1781712807.346256) can0 12A#10010000000A0077 R
(1781712807.364436) can0 5A0#0000000000000035 R
(1781712807.364703) can0 121#00AC01D604800053 R
(1781712807.364944) can0 129#000000010000005B R
(1781712807.365180) can0 120#000000000000005F R
(1781712807.365417) can0 12D#000000000000005F R
(1781712807.365652) can0 12D#000000000000006A R
(1781712807.384200) can0 12E#000000000000008B R
(1781712807.384456) can0 121#00AC01D604800066 R
(1781712807.384700) can0 129#000000010000006E R
(1781712807.384939) can0 120#000000000000006A R
(1781712807.385176) can0 541#000100000000326A R
(1781712807.385414) can0 12D#000000000000008B R
(1781712807.389627) can0 12D#00000000000000BE R
(1781712807.389866) can0 12E#00000000000000BE R
(1781712807.390101) can0 121#00AC01D604800087 R
(1781712807.390339) can0 129#000000010000008F R
(1781712807.390576) can0 540#0000000100020600 R
(1781712807.390812) can0 5B0#100000000000005E R
(1781712807.408071) can0 120#000000000000008B R
(1781712807.408346) can0 541#000110000000330C R
(1781712807.408609) can0 12D#00000000000000D4 R
(1781712807.408896) can0 12A#10010000000A0096 R
(1781712807.409152) can0 12D#0000000000000035 R
(1781712807.409394) can0 12E#00000000000000D4 R
(1781712807.416044) can0 121#00AC01D6048000B2 R
(1781712807.416303) can0 129#00000001000000BA R
(1781712807.416545) can0 120#00000000000000BE R
(1781712807.416786) can0 541#0001100000003339 R
(1781712807.417024) can0 12D#000000000000005F R
(1781712807.432094) can0 450#0000000000002800 R
(1781712807.432357) can0 12D#000000000000006A R
(1781712807.432596) can0 12E#0000000000000035 R
(1781712807.432836) can0 121#00A901D3048000D1 R
(1781712807.433073) can0 129#00000001000000D0 R
(1781712807.433310) can0 120#00000000000000D4 R
(1781712807.447916) can0 541#0001100000003353 R
(1781712807.448178) can0 12D#000000000000008B R
(1781712807.448430) can0 12D#00000000000000BE R
(1781712807.448679) can0 12E#000000000000005F R
(1781712807.448923) can0 12A#10010000000A00A3 R
(1781712807.449217) can0 5A0#000000000000005F R
(1781712807.464460) can0 121#00A901D304800030 R
(1781712807.464587) can0 129#0000000100000031 R
(1781712807.464694) can0 120#0000000000000035 R
(1781712807.464802) can0 541#0001100000003366 R
(1781712807.464910) can0 12D#00000000000000D4 R
(1781712807.465015) can0 12D#0000000000000035 R
(1781712807.474563) can0 12E#000000000000006A R
(1781712807.474810) can0 450#0000000000002800 R
(1781712807.475047) can0 121#00A901D30480005A R
(1781712807.475281) can0 129#000000010000005B R
(1781712807.475516) can0 120#000000000000005F R
(1781712807.475754) can0 541#0001100000003387 R
(1781712807.488595) can0 12D#000000000000005F R
(1781712807.488854) can0 12D#000000000000006A R
(1781712807.489094) can0 12E#000000000000008B R
(1781712807.489333) can0 121#00A901D30480006F R
(1781712807.489571) can0 129#000000010000006E R
(1781712807.504120) can0 540#0000001100020600 R
(1781712807.504381) can0 5B0#100000000000006B R
(1781712807.504622) can0 120#000000000000006A R
(1781712807.504860) can0 541#00011000000033B2 R
(1781712807.505098) can0 12D#000000000000008B R
(1781712807.505335) can0 12A#10010000000A00C9 R
(1781712807.514415) can0 12D#00000000000000BE R
(1781712807.514708) can0 12E#00000000000000BE R
(1781712807.514948) can0 121#00A901D30480008E R
(1781712807.515184) can0 129#000000010000008F R
(1781712807.515421) can0 120#000000000000008B R
(1781712807.515657) can0 541#00011000000033D8 R
(1781712807.529584) can0 12D#00000000000000D4 R
(1781712807.529833) can0 450#0000000000002800 R
(1781712807.530072) can0 12D#0000000000000035 R
(1781712807.530309) can0 12E#00000000000000D4 R
(1781712807.530545) can0 121#00A901D3048000BB R
(1781712807.530781) can0 129#00000001000000BA R
(1781712807.545460) can0 120#00000000000000BE R
(1781712807.545706) can0 541#0001100000003339 R
(1781712807.545942) can0 12D#000000000000005F R
(1781712807.546180) can0 12D#000000000000006A R
(1781712807.546418) can0 12E#0000000000000035 R
(1781712807.546655) can0 12A#10010000000A0028 R
(1781712807.564744) can0 5A0#000000000000006A R
(1781712807.565009) can0 121#00A901D3048000D1 R
(1781712807.565249) can0 129#00000001000000D0 R
(1781712807.565485) can0 120#00000000000000D4 R
(1781712807.565722) can0 541#0001100000003353 R
(1781712807.565957) can0 12D#000000000000008B R
(1781712807.569868) can0 12D#00000000000000BE R
(1781712807.570057) can0 12E#000000000000005F R
(1781712807.570251) can0 450#0000000000002800 R
(1781712807.570427) can0 121#00A901D304800030 R
(1781712807.570598) can0 129#0000000100000031 R
(1781712807.588199) can0 120#0000000000000035 R
(1781712807.588461) can0 541#0001100000003366 R
(1781712807.588699) can0 12D#00000000000000D4 R
(1781712807.588936) can0 12D#0000000000000035 R
(1781712807.589171) can0 12E#000000000000006A R
(1781712807.589403) can0 121#00A901D30480005A R
(1781712807.595026) can0 129#000000010000005B R
(1781712807.595294) can0 540#0000401000020600 R
(1781712807.595536) can0 5B0#100000000000008A R
(1781712807.595769) can0 120#000000000000005F R
(1781712807.596003) can0 541#0001100000003387 R
(1781712807.596236) can0 12D#000000000000005F R
(1781712807.612170) can0 12A#10010000000A0042 R
(1781712807.612411) can0 12D#000000000000006A R
(1781712807.612643) can0 12E#000000000000008B R
(1781712807.612877) can0 121#00A901D30480006F R
(1781712807.613110) can0 129#000000010000006E R
(1781712807.613344) can0 120#000000000000006A R
(1781712807.628254) can0 541#00011000000033B2 R
(1781712807.628501) can0 12D#000000000000008B R
(1781712807.628737) can0 450#0000000000002800 R
(1781712807.628971) can0 12D#00000000000000BE R
(1781712807.629206) can0 12E#00000000000000BE R
(1781712807.629442) can0 121#00A901D30480008E R
(1781712807.645127) can0 129#000000010000008F R
(1781712807.645372) can0 120#000000000000008B R
(1781712807.645608) can0 541#00011000000033D8 R
(1781712807.645843) can0 12D#00000000000000D4 R
(1781712807.646076) can0 12D#0000000000000035 R
(1781712807.652069) can0 12E#00000000000000D4 R
(1781712807.652326) can0 12A#10010000000A0077 R
(1781712807.652567) can0 5A0#000000000000008B R
(1781712807.652803) can0 121#00A901D3048000BB R
(1781712807.653039) can0 129#00000001000000BA R
(1781712807.653275) can0 120#00000000000000BE R
(1781712807.668302) can0 541#0001100000003339 R
(1781712807.668585) can0 12D#000000000000005F R
(1781712807.668834) can0 12D#000000000000006A R
(1781712807.669079) can0 12E#0000000000000035 R
(1781712807.669318) can0 450#0000000000002800 R
(1781712807.669567) can0 121#00A901D3048000D1 R
(1781712807.688275) can0 129#00000001000000D0 R
(1781712807.688580) can0 120#00000000000000D4 R
(1781712807.688839) can0 541#0001100000003353 R
(1781712807.689083) can0 12D#000000000000008B R
(1781712807.689324) can0 12D#00000000000000BE R
(1781712807.689559) can0 12E#000000000000005F R
(1781712807.694797) can0 121#00A901D304800030 R
(1781712807.695049) can0 129#0000000100000031 R
(1781712807.695288) can0 540#0000401000020600 R
(1781712807.695525) can0 5B0#10000000000000BF R
(1781712807.695761) can0 120#0000000000000035 R
(1781712807.695997) can0 541#0001100000003366 R
(1781712807.709793) can0 12D#00000000000000D4 R
(1781712807.710068) can0 12A#10010000000A0096 R
(1781712807.710313) can0 12D#0000000000000035 R
(1781712807.710558) can0 12E#000000000000006A R
(1781712807.710798) can0 121#00A901D30480005A R
(1781712807.711034) can0 129#000000010000005B R
(1781712807.724979) can0 120#000000000000005F R
(1781712807.725236) can0 541#0001100000003387 R
(1781712807.725475) can0 12D#000000000000005F R
(1781712807.725716) can0 450#0000000000002800 R
(1781712807.725954) can0 12D#000000000000006A R
(1781712807.744603) can0 12E#000000000000008B R
(1781712807.744853) can0 121#00A901D30480006F R
(1781712807.745089) can0 129#000000010000006E R
(1781712807.745326) can0 120#000000000000006A R
(1781712807.745561) can0 541#00011000000033B2 R
(1781712807.745793) can0 12D#000000000000008B R
(1781712807.749690) can0 12D#00000000000000BE R
(1781712807.749956) can0 12E#00000000000000BE R
(1781712807.750203) can0 12A#10010000000A00A3 R
(1781712807.750440) can0 5A0#00000000000000BE R
(1781712807.750677) can0 121#00A901D30480008E R
(1781712807.750914) can0 129#000000010000008F R
(1781712807.768049) can0 120#000000000000008B R
(1781712807.768294) can0 541#00011000000033D8 R
(1781712807.768529) can0 12D#00000000000000D4 R
(1781712807.768776) can0 12D#0000000000000035 R
(1781712807.769011) can0 12E#00000000000000D4 R
(1781712807.769245) can0 450#0000000000002800 R
(1781712807.784885) can0 121#00A901D3048000BB R
(1781712807.785133) can0 129#00000001000000BA R
(1781712807.785367) can0 120#00000000000000BE R
(1781712807.785602) can0 541#0001100000003339 R
(1781712807.785838) can0 12D#000000000000005F R
(1781712807.786070) can0 12D#000000000000006A R
(1781712807.789800) can0 12E#0000000000000035 R
(1781712807.790036) can0 121#00A901D3048000D1 R
(1781712807.790269) can0 129#00000001000000D0 R
(1781712807.790503) can0 540#0000401000020600 R
(1781712807.790737) can0 5B0#10000000000000D5 R
(1781712807.807940) can0 120#00000000000000D4 R
(1781712807.808203) can0 541#0001100000003353 R
(1781712807.808449) can0 12D#000000000000008B R
(1781712807.808697) can0 12A#10010000000A00C9 R
(1781712807.808937) can0 12D#00000000000000BE R
(1781712807.809174) can0 12E#000000000000005F R
(1781712807.824601) can0 121#00A901D304800030 R
(1781712807.824853) can0 129#0000000100000031 R
(1781712807.825091) can0 120#0000000000000035 R
(1781712807.825330) can0 541#0001100000003366 R
(1781712807.825566) can0 12D#00000000000000D4 R
(1781712807.825896) can0 450#0000000000002800 R
(1781712807.834885) can0 12D#0000000000000035 R
(1781712807.835156) can0 12E#000000000000006A R
(1781712807.835396) can0 121#00A901D30480005A R
(1781712807.835635) can0 129#000000010000005B R
(1781712807.835871) can0 120#000000000000005F R
(1781712807.836107) can0 541#0001100000003387 R
(1781712807.848356) can0 12D#000000000000005F R
(1781712807.848626) can0 12D#000000000000006A R
(1781712807.848872) can0 12E#000000000000008B R
(1781712807.849115) can0 12A#10010000000A0028 R
(1781712807.849354) can0 5A0#00000000000000D4 R
(1781712807.849593) can0 121#00A901D30480006F R
(1781712807.865943) can0 129#000000010000006E R
(1781712807.866259) can0 120#000000000000006A R
(1781712807.866503) can0 541#00011000000033B2 R
(1781712807.866742) can0 12D#000000000000008B R
(1781712807.866983) can0 12D#00000000000000BE R
(1781712807.867224) can0 12E#00000000000000BE R
(1781712807.874919) can0 450#0000000000002800 R
(1781712807.875179) can0 121#00A901D30480008E R
(1781712807.875419) can0 129#000000010000008F R
(1781712807.875659) can0 120#000000000000008B R
(1781712807.875897) can0 541#00011000000033D8 R
(1781712807.888679) can0 12D#00000000000000D4 R
(1781712807.888940) can0 12D#0000000000000035 R
(1781712807.889180) can0 12E#00000000000000D4 R
(1781712807.889416) can0 121#00A901D3048000BB R
(1781712807.889650) can0 129#00000001000000BA R
(1781712807.889885) can0 540#0000401000020600 R
(1781712807.904902) can0 5B0#1000000000000034 R
(1781712807.905190) can0 120#00000000000000BE R
(1781712807.905437) can0 541#0001100000003339 R
(1781712807.905675) can0 12D#000000000000005F R
(1781712807.905912) can0 12A#10010000000A0042 R
(1781712807.906147) can0 12D#000000000000006A R
(1781712807.915938) can0 12E#0000000000000035 R
(1781712807.916198) can0 121#00A901D3048000D1 R
(1781712807.916440) can0 129#00000001000000D0 R
(1781712807.916677) can0 120#00000000000000D4 R
(1781712807.916856) can0 541#0001100000003353 R
(1781712807.917028) can0 12D#000000000000008B R
(1781712807.932304) can0 450#0000000000002800 R
(1781712807.932583) can0 12D#00000000000000BE R
(1781712807.932828) can0 12E#000000000000005F R
(1781712807.933068) can0 121#00A901D304800030 R
(1781712807.933423) can0 129#0000000100000031 R
(1781712807.933686) can0 120#0000000000000035 R
(1781712807.945544) can0 541#0001100000003366 R
(1781712807.945799) can0 12D#00000000000000D4 R
(1781712807.946038) can0 12D#0000000000000035 R
(1781712807.946275) can0 12E#000000000000006A R
(1781712807.946513) can0 12A#10010000000A0077 R
(1781712807.964551) can0 5A0#0000000000000035 R
(1781712807.964828) can0 121#00A901D30480005A R
(1781712807.965075) can0 129#000000010000005B R
(1781712807.965312) can0 120#000000000000005F R
(1781712807.965549) can0 541#0001100000003387 R
(1781712807.965783) can0 12D#000000000000005F R
(1781712807.972131) can0 12D#000000000000006A R
(1781712807.972393) can0 12E#000000000000008B R
(1781712807.972632) can0 450#0000000000002800 R
(1781712807.972869) can0 121#00A901D30480006F R
(1781712807.973102) can0 129#000000010000006E R
(1781712807.973337) can0 120#000000000000006A R
(1781712807.988507) can0 541#00011000000033B2 R
(1781712807.988773) can0 12D#000000000000008B R
(1781712807.989017) can0 12D#00000000000000BE R
(1781712807.989256) can0 12E#00000000000000BE R
(1781712807.989494) can0 121#00A901D30480008E R
(1781712807.989727) can0 129#000000010000008F R
(1781712808.004677) can0 540#0000401000020600 R
(1781712808.004958) can0 5B0#100000000000005E R
(1781712808.005207) can0 120#000000000000008B R
(1781712808.005450) can0 541#00011000000033D8 R
(1781712808.005688) can0 12D#00000000000000D4 R
(1781712808.005924) can0 12A#10010000000A0096 R
(1781712808.014886) can0 12D#0000000000000035 R
(1781712808.015174) can0 12E#00000000000000D4 R
(1781712808.015429) can0 121#00A901D3048000BB R
(1781712808.015669) can0 129#00000001000000BA R
(1781712808.015908) can0 120#00000000000000BE R
(1781712808.016144) can0 541#0001100000003339 R
(1781712808.028497) can0 12D#000000000000005F R
(1781712808.028783) can0 450#0000000000002800 R
(1781712808.029019) can0 12D#000000000000006A R
(1781712808.029260) can0 12E#0000000000000035 R
(1781712808.029495) can0 121#00A901D3048000D1 R
(1781712808.045188) can0 129#00000001000000D0 R
(1781712808.045454) can0 120#00000000000000D4 R
(1781712808.045690) can0 541#000010000000335B R
(1781712808.045937) can0 12D#000000000000008B R
(1781712808.046170) can0 12D#00000000000000BE R
(1781712808.046404) can0 12E#000000000000005F R
(1781712808.054755) can0 12A#10010000000A00A3 R
(1781712808.055020) can0 5A0#000000000000005F R
(1781712808.055256) can0 121#00A901D304800030 R
(1781712808.055490) can0 129#0000000100000031 R
(1781712808.055725) can0 120#0000000000000035 R
(1781712808.055959) can0 541#000010000000336E R
(1781712808.069957) can0 12D#00000000000000D4 R
(1781712808.070220) can0 12D#0000000000000035 R
(1781712808.070457) can0 12E#000000000000006A R
(1781712808.070692) can0 450#0000000000002800 R
(1781712808.070937) can0 121#00A901D30480005A R
(1781712808.071174) can0 129#000000010000005B R
(1781712808.088357) can0 120#000000000000005F R
(1781712808.088638) can0 541#000010000000338F R
(1781712808.088882) can0 12D#000000000000005F R
(1781712808.089123) can0 12D#000000000000006A R
(1781712808.089362) can0 12E#000000000000008B R
(1781712808.089602) can0 121#00A901D30480006F R
(1781712808.094888) can0 129#000000010000006E R
(1781712808.095149) can0 540#0000401000020600 R
(1781712808.095390) can0 5B0#100000000000006B R
(1781712808.095630) can0 120#000000000000006A R
(1781712808.095867) can0 541#00001000000033BA R
(1781712808.109705) can0 12D#000000000000008B R
(1781712808.110021) can0 12A#10010000000A00C9 R
(1781712808.110274) can0 12D#00000000000000BE R
(1781712808.110512) can0 12E#00000000000000BE R
(1781712808.110752) can0 121#00A901D30480008E R
(1781712808.110989) can0 129#000000010000008F R
(1781712808.128037) can0 120#000000000000008B R
(1781712808.128313) can0 541#00001000000033D0 R
(1781712808.128555) can0 12D#00000000000000D4 R
(1781712808.128796) can0 450#0000000000002800 R
(1781712808.129032) can0 12D#0000000000000035 R
(1781712808.129270) can0 12E#00000000000000D4 R
(1781712808.144983) can0 121#00A901D3048000BB R
(1781712808.145266) can0 129#00000001000000BA R
(1781712808.145514) can0 120#00000000000000BE R
(1781712808.145759) can0 541#0000100000003331 R
(1781712808.145998) can0 12D#000000000000005F R
(1781712808.146237) can0 12D#000000000000006A R
(1781712808.152261) can0 12E#0000000000000035 R
(1781712808.152528) can0 12A#10010000000A0028 R
(1781712808.152773) can0 5A0#000000000000006A R
(1781712808.153013) can0 121#00A901D3048000D1 R
(1781712808.153252) can0 129#00000001000000D0 R
(1781712808.153492) can0 120#00000000000000D4 R
(1781712808.168541) can0 541#000010000000335B R
(1781712808.168899) can0 12D#000000000000008B R
(1781712808.169237) can0 12D#00000000000000BE R
(1781712808.169753) can0 12E#000000000000C044 R
(1781712808.170259) can0 450#0000000000002800 R
(1781712808.170516) can0 121#00A901D304800030 R
(1781712808.185152) can0 129#0000000100000031 R
(1781712808.185429) can0 120#0000000000000035 R
(1781712808.185681) can0 541#000010000000336E R
(1781712808.185926) can0 12D#00000000000000D4 R
(1781712808.186165) can0 12D#0000000000000035 R
(1781712808.192794) can0 12E#000000000000C071 R
(1781712808.193147) can0 121#00A901D30480005A R
(1781712808.193413) can0 129#000000010000005B R
(1781712808.193663) can0 540#0000401000020600 R
(1781712808.193909) can0 5B0#100000000000008A R
(1781712808.194153) can0 120#000000000000005F R
(1781712808.208229) can0 541#000010000000338F R
(1781712808.208392) can0 12D#000000000000005F R
(1781712808.208519) can0 12A#10010000000A0042 R
(1781712808.208646) can0 12D#000000000000006A R
(1781712808.208768) can0 12E#000000000000C090 R
(1781712808.208898) can0 121#00A901D30480006F R
(1781712808.224969) can0 129#000000010000006E R
(1781712808.225258) can0 120#000000000000006A R
(1781712808.225506) can0 541#00001000000033BA R
(1781712808.225748) can0 12D#000000000000008B R
(1781712808.225987) can0 450#0000000000002800 R
(1781712808.226227) can0 12D#00000000000000BE R
(1781712808.244786) can0 12E#000000000000C0A5 R
(1781712808.245064) can0 121#00A901D30480008E R
(1781712808.245304) can0 129#000000010000008F R
(1781712808.245541) can0 120#000000000000008B R
(1781712808.245775) can0 541#00001000000034D8 R
(1781712808.246013) can0 12D#00000000000000D4 R
(1781712808.248377) can0 12D#0000000000000035 R
(1781712808.248620) can0 12E#000000000000C0CF R
(1781712808.248857) can0 12A#10010000000A0077 R
(1781712808.249093) can0 5A0#0000000004000085 R
(1781712808.249328) can0 121#00A901D3048000BB R
(1781712808.265790) can0 129#00000001000000BA R
(1781712808.266067) can0 120#00000000000000BE R
(1781712808.266334) can0 541#0000100000003439 R
(1781712808.266570) can0 12D#000000000000005F R
(1781712808.266839) can0 12D#000000000000006A R
(1781712808.267075) can0 12E#000000000000C02E R
(1781712808.284606) can0 450#0000000000002800 R
(1781712808.284893) can0 121#00A901D3048000D1 R
(1781712808.285142) can0 129#00000001000000D0 R
(1781712808.285380) can0 120#00000000000000D4 R
(1781712808.285618) can0 541#0000100000003453 R
(1781712808.285855) can0 12D#000000000000008B R
(1781712808.289795) can0 12D#00000000000000BE R
(1781712808.290067) can0 12E#000000000000C044 R
(1781712808.290317) can0 121#00A901D304800030 R
(1781712808.290561) can0 129#0000000100000031 R
(1781712808.290804) can0 540#0000401000020600 R
(1781712808.291045) can0 5B0#10000000000000BF R
(1781712808.308113) can0 120#0000000000000035 R
(1781712808.308378) can0 541#0000100000003466 R
(1781712808.308618) can0 12D#00000000000000D4 R
(1781712808.308860) can0 12A#10010000000A0096 R
(1781712808.309101) can0 12D#0000000000000035 R
(1781712808.309342) can0 12E#000000000000C071 R
(1781712808.324776) can0 121#00A901D30480005A R
(1781712808.325056) can0 129#000000010000005B R
(1781712808.325306) can0 120#000000000000005F R
(1781712808.325556) can0 541#0000100000003487 R
(1781712808.325805) can0 12D#000000000000005F R
(1781712808.326055) can0 450#0000000000002800 R
(1781712808.333274) can0 12D#000000000000006A R
(1781712808.333530) can0 12E#000000000000C090 R
(1781712808.333769) can0 121#00A901D30480006F R
(1781712808.334010) can0 129#000000010000006E R
(1781712808.334250) can0 120#000000000000006A R
(1781712808.347981) can0 541#00001000000034B2 R
(1781712808.348253) can0 12D#000000000000008B R
(1781712808.348505) can0 12D#00000000000000BE R
(1781712808.348750) can0 12E#000000000000C0A5 R
(1781712808.348995) can0 12A#10010000000A00A3 R
(1781712808.349238) can0 5A0#00000000040000B0 R
(1781712808.364813) can0 121#00A901D30480008E R
(1781712808.365082) can0 129#000000010000008F R
(1781712808.365331) can0 120#000000000000008B R
(1781712808.365575) can0 541#00001000000034D8 R
(1781712808.365818) can0 12D#00000000000000D4 R
(1781712808.366061) can0 12D#0000000000000035 R
(1781712808.374760) can0 12E#000000000000C0CF R
(1781712808.375017) can0 450#0000000000002800 R
(1781712808.375257) can0 121#00A901D3048000BB R
(1781712808.375492) can0 129#00000001000000BA R
(1781712808.375735) can0 120#00000000000000BE R
(1781712808.375973) can0 541#0000100000003439 R
(1781712808.388806) can0 12D#000000000000005F R
(1781712808.389056) can0 12D#000000000000006A R
(1781712808.389291) can0 12E#000000000000C02E R
(1781712808.389526) can0 121#00A901D3048000D1 R
(1781712808.389761) can0 129#00000001000000D0 R
(1781712808.389995) can0 540#0000401000020600 R
(1781712808.404741) can0 5B0#10000000000000D5 R
(1781712808.405002) can0 120#00000000000000D4 R
(1781712808.405241) can0 541#0000100000003453 R
(1781712808.405477) can0 12D#000000000000008B R
(1781712808.405713) can0 12A#10010000000A00C9 R
(1781712808.414658) can0 12D#00000000000000BE R
(1781712808.414945) can0 12E#000000000000C044 R
(1781712808.415190) can0 121#00A901D304800030 R
(1781712808.415429) can0 129#0000000100000031 R
(1781712808.415667) can0 120#0000000000000035 R
(1781712808.415907) can0 541#0000100000003466 R
(1781712808.429758) can0 12D#00000000000000D4 R
(1781712808.430029) can0 450#0000000000002800 R
(1781712808.430271) can0 12D#0000000000000035 R
(1781712808.430506) can0 12E#000000000000C071 R
(1781712808.430740) can0 121#00A901D30480005A R
(1781712808.430975) can0 129#000000010000005B R
(1781712808.445439) can0 120#000000000000005F R
(1781712808.445704) can0 541#0000100000003487 R
(1781712808.445943) can0 12D#000000000000005F R
(1781712808.446179) can0 12D#000000000000006A R
(1781712808.446414) can0 12E#000000000000C090 R
(1781712808.446661) can0 12A#10010000000A0028 R
(1781712808.464628) can0 5A0#00000000040000DA R
(1781712808.464880) can0 121#00A901D30480006F R
(1781712808.465118) can0 129#000000010000006E R
(1781712808.465356) can0 120#000000000000006A R
(1781712808.465590) can0 541#00001000000034B2 R
(1781712808.465825) can0 12D#000000000000008B R
(1781712808.473213) can0 12D#00000000000000BE R
(1781712808.473464) can0 12E#000000000000C0A5 R
(1781712808.473701) can0 450#0000000000002800 R
(1781712808.473938) can0 121#00A901D30480008E R
(1781712808.474174) can0 129#000000010000008F R
(1781712808.474409) can0 120#000000000000008B R
(1781712808.488377) can0 541#00001000000034D8 R
(1781712808.488639) can0 12D#00000000000000D4 R
(1781712808.488884) can0 12D#0000000000000035 R
(1781712808.489133) can0 12E#000000000000C0CF R
(1781712808.489372) can0 121#00A901D3048000BB R
(1781712808.494944) can0 129#00000001000000BA R
(1781712808.495192) can0 540#0000401000020600 R
(1781712808.495429) can0 5B0#1000000000000034 R
(1781712808.495665) can0 120#00000000000000BE R
(1781712808.495901) can0 541#0000100000003439 R
(1781712808.496134) can0 12D#000000000000005F R
(1781712808.513262) can0 12A#10010000000A0042 R
(1781712808.513519) can0 12D#000000000000006A R
(1781712808.513755) can0 12E#000000000000C02E R
(1781712808.513992) can0 121#00A901D3048000D1 R
(1781712808.514224) can0 129#00000001000000D0 R
(1781712808.514458) can0 120#00000000000000D4 R
(1781712808.528278) can0 541#0000100000003453 R
(1781712808.528534) can0 12D#000000000000008B R
(1781712808.528782) can0 450#0000000000002800 R
(1781712808.529023) can0 12D#00000000000000BE R
(1781712808.529263) can0 12E#000000000000C044 R
(1781712808.529503) can0 121#00A901D304800030 R
(1781712808.545253) can0 129#0000000100000031 R
(1781712808.545510) can0 120#0000000000000035 R
(1781712808.545751) can0 541#0000100000003466 R
(1781712808.545990) can0 12D#00000000000000D4 R
(1781712808.546228) can0 12D#0000000000000035 R
(1781712808.546468) can0 12E#000000000000C071 R
(1781712808.553249) can0 12A#10010000000A0077 R
(1781712808.553506) can0 5A0#000000000400003B R
(1781712808.553745) can0 121#00A901D30480005A R
(1781712808.553982) can0 129#000000010000005B R
(1781712808.554217) can0 120#000000000000005F R
(1781712808.568169) can0 541#0000100000003487 R
(1781712808.568423) can0 12D#000000000000005F R
(1781712808.568660) can0 12D#000000000000006A R
(1781712808.568898) can0 12E#000000000000C090 R
(1781712808.569134) can0 450#0000000000002800 R
(1781712808.569381) can0 121#00A901D30480006F R
(1781712808.587987) can0 129#000000010000006E R
(1781712808.588240) can0 120#000000000000006A R
(1781712808.588478) can0 541#00001000000034B2 R
(1781712808.588712) can0 12D#000000000000008B R
(1781712808.588947) can0 12D#00000000000000BE R
(1781712808.589182) can0 12E#000000000000C0A5 R
(1781712808.594708) can0 121#00A901D30480008E R
(1781712808.594959) can0 129#000000010000008F R
(1781712808.595197) can0 540#0000401000020600 R
(1781712808.595434) can0 5B0#100000000000005E R
(1781712808.595670) can0 120#000000000000008B R
(1781712808.595905) can0 541#00001000000034D8 R
(1781712808.609769) can0 12D#00000000000000D4 R
(1781712808.610022) can0 12A#10010000000A0096 R
(1781712808.610263) can0 12D#0000000000000035 R
(1781712808.610501) can0 12E#000000000000C0CF R
(1781712808.610741) can0 121#00A901D3048000BB R
(1781712808.610981) can0 129#00000001000000BA R
(1781712808.628097) can0 120#00000000000000BE R
(1781712808.628360) can0 541#0000100000003439 R
(1781712808.628600) can0 12D#000000000000005F R
(1781712808.628842) can0 450#0000000000002800 R
(1781712808.629081) can0 12D#000000000000006A R
(1781712808.629320) can0 12E#000000000000C02E R
(1781712808.644783) can0 121#00A901D3048000D1 R
(1781712808.645040) can0 129#00000001000000D0 R
(1781712808.645279) can0 120#00000000000000D4 R
(1781712808.645514) can0 541#0000100000003453 R
(1781712808.645749) can0 12D#000000000000008B R
(1781712808.649694) can0 12D#00000000000000BE R
(1781712808.649945) can0 12E#000000000000C044 R
(1781712808.650180) can0 12A#10010000000A00A3 R
(1781712808.650420) can0 5A0#0000000004000051 R
(1781712808.650655) can0 121#00A901D304800030 R
(1781712808.650888) can0 129#0000000100000031 R
(1781712808.668005) can0 120#0000000000000035 R
(1781712808.668254) can0 541#0000100000003466 R
(1781712808.668488) can0 12D#00000000000000D4 R
(1781712808.668722) can0 12D#0000000000000035 R
(1781712808.668955) can0 12E#000000000000C071 R
(1781712808.669190) can0 450#0000000000002800 R
(1781712808.684817) can0 121#00A901D30480005A R
(1781712808.685067) can0 129#000000010000005B R
(1781712808.685304) can0 120#000000000000005F R
(1781712808.685539) can0 541#0000100000003487 R
(1781712808.685776) can0 12D#000000000000005F R
(1781712808.686010) can0 12D#000000000000006A R
(1781712808.693199) can0 12E#000000000000C090 R
(1781712808.693442) can0 121#00A901D30480006F R
(1781712808.693675) can0 129#000000010000006E R
(1781712808.693908) can0 540#0000401000020600 R
(1781712808.694141) can0 5B0#100000000000006B R
(1781712808.694373) can0 120#000000000000006A R
(1781712808.704686) can0 541#00001000000034B2 R
(1781712808.704930) can0 12D#000000000000008B R
(1781712808.705163) can0 12A#10010000000A00C9 R
(1781712808.714721) can0 12D#00000000000000BE R
(1781712808.714971) can0 12E#000000000000C0A5 R
(1781712808.715207) can0 121#00A901D30480008E R
(1781712808.715445) can0 129#000000010000008F R
(1781712808.715681) can0 120#000000000000008B R
(1781712808.715918) can0 541#00001000000034D8 R
(1781712808.729818) can0 12D#00000000000000D4 R
(1781712808.730075) can0 450#0000000000002800 R
(1781712808.730314) can0 12D#0000000000000035 R
(1781712808.730550) can0 12E#000000000000C0CF R
(1781712808.730786) can0 121#00A901D3048000BB R
(1781712808.731021) can0 129#00000001000000BA R
(1781712808.745238) can0 120#00000000000000BE R
(1781712808.745495) can0 541#0000100000003439 R
(1781712808.745736) can0 12D#000000000000005F R
(1781712808.745978) can0 12D#000000000000006A R
(1781712808.746218) can0 12E#000000000000C02E R
(1781712808.746457) can0 12A#10010000000A0028 R
(1781712808.754856) can0 5A0#0000000004000064 R
(1781712808.755111) can0 121#00A901D3048000D1 R
(1781712808.755349) can0 129#00000001000000D0 R
(1781712808.755587) can0 120#00000000000000D4 R
(1781712808.755825) can0 541#0000100000003453 R
(1781712808.769688) can0 12D#000000000000008B R
(1781712808.769947) can0 12D#00000000000000BE R
(1781712808.770186) can0 12E#000000000000C044 R
(1781712808.770426) can0 450#0000000000002800 R
(1781712808.770664) can0 121#00A901D304800030 R
(1781712808.770906) can0 129#0000000100000031 R
(1781712808.788263) can0 120#0000000000000035 R
(1781712808.788519) can0 541#0000100000003466 R
(1781712808.788759) can0 12D#00000000000000D4 R
(1781712808.788996) can0 12D#0000000000000035 R
(1781712808.789233) can0 12E#000000000000C071 R
(1781712808.789472) can0 121#00A901D30480005A R
(1781712808.795053) can0 129#000000010000005B R
(1781712808.795306) can0 540#0000401000020600 R
(1781712808.795543) can0 5B0#100000000000008A R
(1781712808.795782) can0 120#000000000000005F R
(1781712808.796019) can0 541#0000100000003487 R
(1781712808.796257) can0 12D#000000000000005F R
(1781712808.813226) can0 12A#10010000000A0042 R
(1781712808.813483) can0 12D#000000000000006A R
(1781712808.813722) can0 12E#000000000000C090 R
(1781712808.813962) can0 121#00A901D30480006F R
(1781712808.814200) can0 129#000000010000006E R
(1781712808.814449) can0 120#000000000000006A R
(1781712808.828353) can0 541#00001000000034B2 R
(1781712808.828611) can0 12D#000000000000008B R
(1781712808.828847) can0 450#0000000000002800 R
(1781712808.829101) can0 12D#00000000000000BE R
(1781712808.829337) can0 12E#000000000000C0A5 R
(1781712808.844813) can0 121#00A901D30480008E R
(1781712808.845074) can0 129#000000010000008F R
(1781712808.845314) can0 120#000000000000008B R
(1781712808.845553) can0 541#00001000000034D8 R
(1781712808.845792) can0 12D#00000000000000D4 R
(1781712808.846030) can0 12D#0000000000000035 R
(1781712808.853126) can0 12E#000000000000C0CF R
(1781712808.853377) can0 12A#10010000000A0077 R
(1781712808.853611) can0 5A0#0000000004000085 R
(1781712808.853845) can0 121#00A901D3048000BB R
(1781712808.854089) can0 129#00000001000000BA R
(1781712808.854322) can0 120#00000000000000BE R
(1781712808.868279) can0 541#0000100000003439 R
(1781712808.868530) can0 12D#000000000000005F R
(1781712808.868767) can0 12D#000000000000006A R
(1781712808.869004) can0 12E#000000000000C02E R
(1781712808.869242) can0 450#0000000000002800 R
(1781712808.869479) can0 121#00A901D3048000D1 R
(1781712808.888111) can0 129#00000001000000D0 R
(1781712808.888369) can0 120#00000000000000D4 R
(1781712808.888609) can0 541#0000100000003453 R
(1781712808.888845) can0 12D#000000000000008B R
(1781712808.889080) can0 12D#00000000000000BE R
(1781712808.889313) can0 12E#000000000000C044 R
(1781712808.893236) can0 121#00A901D304800030 R
(1781712808.893478) can0 129#0000000100000031 R
(1781712808.893723) can0 540#0000401000020600 R
(1781712808.893957) can0 5B0#10000000000000BF R
(1781712808.894191) can0 120#0000000000000035 R
(1781712808.894424) can0 541#0000100000003466 R
(1781712808.908429) can0 12D#00000000000000D4 R
(1781712808.908679) can0 12A#10010000000A0096 R
(1781712808.908917) can0 12D#0000000000000035 R
(1781712808.909153) can0 12E#000000000000C071 R
(1781712808.909388) can0 121#00A901D30480005A R
(1781712808.924740) can0 129#000000010000005B R
(1781712808.925003) can0 120#000000000000005F R
(1781712808.925244) can0 541#0000100000003487 R
(1781712808.925482) can0 12D#000000000000005F R
(1781712808.925721) can0 450#0000000000002800 R
(1781712808.925965) can0 12D#000000000000006A R
(1781712808.944680) can0 12E#000000000000C090 R
(1781712808.944938) can0 121#00A901D30480006F R
(1781712808.945174) can0 129#000000010000006E R
(1781712808.945408) can0 120#000000000000006A R
(1781712808.945644) can0 541#00001000000034B2 R
(1781712808.945878) can0 12D#000000000000008B R
(1781712808.949798) can0 12D#00000000000000BE R
(1781712808.950113) can0 12E#000000000000C0A5 R
(1781712808.950350) can0 12A#10010000000A00A3 R
(1781712808.950588) can0 5A0#00000000040000B0 R
(1781712808.950824) can0 121#00A901D30480008E R
(1781712808.951058) can0 129#000000010000008F R
(1781712808.968108) can0 120#000000000000008B R
(1781712808.968361) can0 541#00001000000034D8 R
(1781712808.968599) can0 12D#00000000000000D4 R
(1781712808.968834) can0 12D#0000000000000035 R
(1781712808.969068) can0 12E#000000000000C0CF R
(1781712808.969300) can0 450#0000000000002800 R
(1781712808.984645) can0 121#00A901D3048000BB R
(1781712808.984897) can0 129#00000001000000BA R
(1781712808.985134) can0 120#00000000000000BE R
(1781712808.985379) can0 541#0000100000003439 R
(1781712808.985613) can0 12D#000000000000005F R
(1781712808.989723) can0 12D#000000000000006A R
(1781712808.989977) can0 12E#000000000000C02E R
(1781712808.990211) can0 121#00A901D3048000D1 R
(1781712808.990445) can0 129#00000001000000D0 R
(1781712808.990678) can0 540#0000401000020600 R
(1781712808.990910) can0 5B0#10000000000000D5 R
(1781712809.008117) can0 120#00000000000000D4 R
(1781712809.008394) can0 541#0000100000003453 R
(1781712809.008642) can0 12D#000000000000008B R
(1781712809.008883) can0 12A#10010000000A00C9 R
(1781712809.009123) can0 12D#00000000000000BE R
(1781712809.009358) can0 12E#000000000000C044 R
(1781712809.024722) can0 121#00A901D304800030 R
(1781712809.025029) can0 129#0000000100000031 R
(1781712809.025355) can0 120#0000000000000035 R
(1781712809.025608) can0 541#0000100000003466 R
(1781712809.025854) can0 12D#00000000000000D4 R
(1781712809.026101) can0 450#0000000000002800 R
(1781712809.034855) can0 12D#0000000000000035 R
(1781712809.035142) can0 12E#000000000000C071 R
(1781712809.035380) can0 121#00A901D30480005A R
(1781712809.035615) can0 129#000000010000005B R
(1781712809.035847) can0 120#000000000000005F R
(1781712809.036081) can0 541#0000100000003487 R
(1781712809.048227) can0 12D#000000000000005F R
(1781712809.048498) can0 12D#000000000000006A R
(1781712809.048742) can0 12E#000000000000C090 R
(1781712809.048980) can0 12A#10010000000A0028 R
(1781712809.049224) can0 5A0#00000000040000DA R
(1781712809.049463) can0 121#00A901D30480006F R
(1781712809.064957) can0 129#000000010000006E R
(1781712809.065218) can0 120#000000000000006A R
(1781712809.065456) can0 541#00001000000034B2 R
(1781712809.065694) can0 12D#000000000000008B R
(1781712809.065932) can0 12D#00000000000000BE R
(1781712809.074706) can0 12E#000000000000C0A5 R
(1781712809.074971) can0 450#0000000000002800 R
(1781712809.075209) can0 121#00A901D30480008E R
(1781712809.075446) can0 129#000000010000008F R
(1781712809.075684) can0 120#000000000000008B R
(1781712809.075948) can0 541#00001000000034D8 R
(1781712809.088819) can0 12D#00000000000000D4 R
(1781712809.089085) can0 12D#0000000000000035 R
(1781712809.089325) can0 12E#000000000000C0CF R
(1781712809.089561) can0 121#00A901D3048000BB R
(1781712809.089798) can0 129#00000001000000BA R
(1781712809.090033) can0 540#0000401000020600 R
(1781712809.104864) can0 5B0#1000000000000034 R
(1781712809.105126) can0 120#00000000000000BE R
(1781712809.105363) can0 541#0000100000003439 R
(1781712809.105600) can0 12D#000000000000005F R
(1781712809.105836) can0 12A#10010000000A0042 R
(1781712809.106074) can0 12D#000000000000006A R
(1781712809.115987) can0 12E#000000000000C02E R
(1781712809.116236) can0 121#00A901D3048000D1 R
(1781712809.116474) can0 129#00000001000000D0 R
(1781712809.116710) can0 120#00000000000000D4 R
(1781712809.116956) can0 541#0000100000003453 R
(1781712809.117195) can0 12D#000000000000008B R
(1781712809.129915) can0 450#0000000000002800 R
(1781712809.130167) can0 12D#00000000000000BE R
(1781712809.130403) can0 12E#000000000000C044 R
(1781712809.130639) can0 121#00A901D304800030 R
(1781712809.130872) can0 129#0000000100000031 R
(1781712809.145293) can0 120#0000000000000035 R
(1781712809.145558) can0 541#0000100000003466 R
(1781712809.145796) can0 12D#00000000000000D4 R
(1781712809.146032) can0 12D#0000000000000035 R
(1781712809.146266) can0 12E#000000000000C071 R
(1781712809.146501) can0 12A#10010000000A0077 R
(1781712809.164534) can0 5A0#000000000400003B R
(1781712809.164811) can0 121#00A901D30480005A R
(1781712809.165052) can0 129#000000010000005B R
(1781712809.165288) can0 120#000000000000005F R
(1781712809.165523) can0 541#0000100000003487 R
(1781712809.165757) can0 12D#000000000000005F R
(1781712809.173198) can0 12D#000000000000006A R
(1781712809.173538) can0 12E#000000000000C090 R
(1781712809.173852) can0 450#0000000000002800 R
(1781712809.173984) can0 121#00A901D30480006F R
(1781712809.174107) can0 129#000000010000006E R
(1781712809.174229) can0 120#000000000000006A R
(1781712809.188701) can0 541#00001000000034B2 R
(1781712809.188966) can0 12D#000000000000008B R
(1781712809.189207) can0 12D#00000000000000BE R
(1781712809.189445) can0 12E#000000000000C0A5 R
(1781712809.189683) can0 121#00A901D30480008E R
(1781712809.189922) can0 129#000000010000008F R
(1781712809.195108) can0 540#0000401000020600 R
(1781712809.195355) can0 5B0#100000000000005E R
(1781712809.195593) can0 120#000000000000008B R
(1781712809.195829) can0 541#00001000000034D8 R
(1781712809.196064) can0 12D#00000000000000D4 R
(1781712809.196300) can0 12A#10050000000A0083 R
(1781712809.213209) can0 12D#0000000000000035 R
(1781712809.213335) can0 12E#000000000000C0CF R
(1781712809.213439) can0 121#00A901D3048000BB R
(1781712809.213648) can0 129#00000001000000BA R
(1781712809.213771) can0 120#00000000000000BE R
(1781712809.228268) can0 541#0000100000003439 R
(1781712809.228380) can0 12D#000000000000005F R
(1781712809.228481) can0 450#0000000000002800 R
(1781712809.228582) can0 12D#000000000000006A R
(1781712809.228682) can0 12E#000000000000C02E R
(1781712809.228783) can0 121#00A901D3048000D1 R
(1781712809.245204) can0 129#00000001000000D0 R
(1781712809.245381) can0 120#00000000000000D4 R
(1781712809.245498) can0 541#0000100000003545 R
(1781712809.245612) can0 12D#000000000000008B R
(1781712809.245725) can0 12D#00000000000000BE R
(1781712809.245838) can0 12E#000000000000C044 R
(1781712809.254763) can0 12A#10050000000A00B6 R
(1781712809.254970) can0 5A0#0000000004000051 R
(1781712809.255149) can0 121#00A901D304800030 R
(1781712809.255322) can0 129#0000000100000031 R
(1781712809.255493) can0 120#0000000000000035 R
(1781712809.255666) can0 541#0000100000003570 R
(1781712809.269894) can0 12D#00000000000000D4 R
(1781712809.270159) can0 12D#0000000000000035 R
(1781712809.270394) can0 12E#000000000000C071 R
(1781712809.270629) can0 450#0000000000002800 R
(1781712809.270872) can0 121#00A901D30480005A R
(1781712809.271112) can0 129#000000010000005B R
(1781712809.288235) can0 120#000000000000005F R
(1781712809.288495) can0 541#0000100000003591 R
(1781712809.288729) can0 12D#000000000000005F R
(1781712809.288964) can0 12D#000000000000006A R
(1781712809.289199) can0 12E#000000000000C090 R
(1781712809.294676) can0 121#00A901D30480006F R
(1781712809.294949) can0 129#000000010000006E R
(1781712809.295191) can0 540#0000401000020600 R
(1781712809.295428) can0 5B0#100000000000006B R
(1781712809.295663) can0 120#000000000000006A R
(1781712809.295907) can0 541#00001000000035A4 R
(1781712809.309781) can0 12D#000000000000008B R
(1781712809.310060) can0 12A#10050000000A00DC R
(1781712809.310305) can0 12D#00000000000000BE R
(1781712809.310550) can0 12E#000000000000C0A5 R
(1781712809.310793) can0 121#00A901D30480008E R
(1781712809.311034) can0 129#000000010000008F R
(1781712809.328098) can0 120#000000000000008B R
(1781712809.328368) can0 541#00001000000035CE R
(1781712809.328610) can0 12D#00000000000000D4 R
(1781712809.328851) can0 450#0000000000002800 R
(1781712809.329090) can0 12D#0000000000000035 R
(1781712809.329328) can0 12E#000000000000C0CF R
(1781712809.344997) can0 121#00A901D3048000BB R
(1781712809.345262) can0 129#00000001000000BA R
(1781712809.345508) can0 120#00000000000000BE R
(1781712809.345752) can0 541#000010000000352F R
(1781712809.345987) can0 12D#000000000000005F R
(1781712809.346222) can0 12D#000000000000006A R
(1781712809.349954) can0 12E#000000000000C02E R
(1781712809.350217) can0 12A#10050000000A003D R
(1781712809.350460) can0 5A0#0000000004000064 R
(1781712809.350698) can0 121#00A901D3048000D1 R
(1781712809.350937) can0 129#00000001000000D0 R
(1781712809.351173) can0 120#00000000000000D4 R
(1781712809.368276) can0 541#0000100000003545 R
(1781712809.368556) can0 12D#000000000000008B R
(1781712809.368805) can0 12D#00000000000000BE R
(1781712809.369051) can0 12E#000000000000C044 R
(1781712809.369293) can0 450#0000000000002800 R
(1781712809.384771) can0 121#00A901D304800030 R
(1781712809.385048) can0 129#0000000100000031 R
(1781712809.385292) can0 120#0000000000000035 R
(1781712809.385531) can0 541#0000100000003570 R
(1781712809.385769) can0 12D#00000000000000D4 R
(1781712809.386007) can0 12D#0000000000000035 R
(1781712809.393137) can0 12E#000000000000C071 R
(1781712809.393393) can0 121#00A901D30480005A R
(1781712809.393631) can0 129#000000010000005B R
(1781712809.393868) can0 540#0000401000020600 R
(1781712809.394103) can0 5B0#100000000000008A R
(1781712809.394340) can0 120#000000000000005F R
(1781712809.408371) can0 541#0000100000003591 R
(1781712809.408631) can0 12D#000000000000005F R
(1781712809.408876) can0 12A#10050000000A0057 R
(1781712809.409120) can0 12D#000000000000006A R
(1781712809.409361) can0 12E#000000000000C090 R
(1781712809.409602) can0 121#00A901D30480006F R
(1781712809.424913) can0 129#000000010000006E R
(1781712809.425166) can0 120#000000000000006A R
(1781712809.425403) can0 541#00001000000035A4 R
(1781712809.425646) can0 12D#000000000000008B R
(1781712809.425886) can0 450#0000000000002800 R
(1781712809.426128) can0 12D#00000000000000BE R
(1781712809.434806) can0 12E#000000000000C0A5 R
(1781712809.435051) can0 121#00A901D30480008E R
(1781712809.435297) can0 129#000000010000008F R
(1781712809.435532) can0 120#000000000000008B R
(1781712809.435767) can0 541#00001000000035CE R
(1781712809.448266) can0 12D#00000000000000D4 R
(1781712809.448531) can0 12D#0000000000000035 R
(1781712809.448777) can0 12E#000000000000C0CF R
(1781712809.449020) can0 12A#10050000000A0062 R
(1781712809.449263) can0 5A0#0000000004000085 R
(1781712809.449504) can0 121#00A901D3048000BB R
(1781712809.465803) can0 129#00000001000000BA R
(1781712809.466067) can0 120#00000000000000BE R
(1781712809.466304) can0 541#000010000000352F R
(1781712809.466540) can0 12D#000000000000005F R
(1781712809.466774) can0 12D#000000000000006A R
(1781712809.467011) can0 12E#000000000000C02E R
(1781712809.484549) can0 450#0000000000002800 R
(1781712809.484809) can0 121#00A901D3048000D1 R
(1781712809.485052) can0 129#00000001000000D0 R
(1781712809.485293) can0 120#00000000000000D4 R
(1781712809.485535) can0 541#0000100000003545 R
(1781712809.485774) can0 12D#000000000000008B R
(1781712809.489866) can0 12D#00000000000000BE R
(1781712809.490153) can0 12E#000000000000C044 R
(1781712809.490390) can0 121#00A901D304800030 R
(1781712809.490627) can0 129#0000000100000031 R
(1781712809.490863) can0 540#0000401000020600 R
(1781712809.491103) can0 5B0#10000000000000BF R
(1781712809.504854) can0 120#0000000000000035 R
(1781712809.505102) can0 541#0000100000003570 R
(1781712809.505339) can0 12D#00000000000000D4 R
(1781712809.505576) can0 12A#10050000000A0083 R
(1781712809.505812) can0 12D#0000000000000035 R
(1781712809.506048) can0 12E#000000000000C071 R
(1781712809.516054) can0 121#00A901D30480005A R
(1781712809.516309) can0 129#000000010000005B R
(1781712809.516545) can0 120#000000000000005F R
(1781712809.516782) can0 541#0000100000003591 R
(1781712809.517017) can0 12D#000000000000005F R
(1781712809.533123) can0 450#0000000000002800 R
(1781712809.533373) can0 12D#000000000000006A R
(1781712809.533611) can0 12E#000000000000C090 R
(1781712809.533850) can0 121#00A901D30480006F R
(1781712809.534088) can0 129#000000010000006E R
(1781712809.534327) can0 120#000000000000006A R
(1781712809.548116) can0 541#00001000000035A4 R
(1781712809.548371) can0 12D#000000000000008B R
(1781712809.548610) can0 12D#00000000000000BE R
(1781712809.548846) can0 12E#000000000000C0A5 R
(1781712809.549081) can0 12A#10050000000A00B6 R
(1781712809.549313) can0 5A0#00000000040000B0 R
(1781712809.564809) can0 121#00A901D30480008E R
(1781712809.565057) can0 129#000000010000008F R
(1781712809.565294) can0 120#000000000000008B R
(1781712809.565529) can0 541#00001000000035CE R
(1781712809.565764) can0 12D#00000000000000D4 R
(1781712809.565999) can0 12D#0000000000000035 R
(1781712809.574781) can0 12E#000000000000C0CF R
(1781712809.575032) can0 450#0000000000002800 R
(1781712809.575269) can0 121#00A901D3048000BB R
(1781712809.575506) can0 129#00000001000000BA R
(1781712809.575741) can0 120#00000000000000BE R
(1781712809.575978) can0 541#000010000000352F R
(1781712809.588861) can0 12D#000000000000005F R
(1781712809.589106) can0 12D#000000000000006A R
(1781712809.589341) can0 12E#000000000000C02E R
(1781712809.589575) can0 121#00A901D3048000D1 R
(1781712809.589808) can0 129#00000001000000D0 R
(1781712809.604459) can0 540#0000401000020600 R
(1781712809.604705) can0 5B0#10000000000000D5 R
(1781712809.604944) can0 120#00000000000000D4 R
(1781712809.605178) can0 541#0000100000003545 R
(1781712809.605411) can0 12D#000000000000008B R
(1781712809.605646) can0 12A#10050000000A00DC R
(1781712809.614626) can0 12D#00000000000000BE R
(1781712809.614872) can0 12E#000000000000C044 R
(1781712809.615109) can0 121#00A901D304800030 R
(1781712809.615345) can0 129#0000000100000031 R
(1781712809.615580) can0 120#0000000000000035 R
(1781712809.615814) can0 541#0000100000003570 R
(1781712809.629854) can0 12D#00000000000000D4 R
(1781712809.630102) can0 450#0000000000002800 R
(1781712809.630336) can0 12D#0000000000000035 R
(1781712809.630570) can0 12E#000000000000C071 R
(1781712809.630803) can0 121#00A901D30480005A R
(1781712809.631037) can0 129#000000010000005B R
(1781712809.645474) can0 120#000000000000005F R
(1781712809.645741) can0 541#0000100000003591 R
(1781712809.645987) can0 12D#000000000000005F R
(1781712809.646223) can0 12D#000000000000006A R
(1781712809.646458) can0 12E#000000000000C090 R
(1781712809.646695) can0 12A#10050000000A003D R
(1781712809.654814) can0 5A0#00000000040000DA R
(1781712809.655055) can0 121#00A901D30480006F R
(1781712809.655289) can0 129#000000010000006E R
(1781712809.655523) can0 120#000000000000006A R
(1781712809.655758) can0 541#00001000000035A4 R
(1781712809.655994) can0 12D#000000000000008B R
(1781712809.669927) can0 12D#00000000000000BE R
(1781712809.670169) can0 12E#000000000000C0A5 R
(1781712809.670413) can0 450#0000000000002800 R
(1781712809.670648) can0 121#00A901D30480008E R
(1781712809.670881) can0 129#000000010000008F R
(1781712809.688280) can0 120#000000000000008B R
(1781712809.688537) can0 541#00001000000035CE R
(1781712809.688774) can0 12D#00000000000000D4 R
(1781712809.689010) can0 12D#0000000000000035 R
(1781712809.689246) can0 12E#000000000000C0CF R
(1781712809.689480) can0 121#00A901D3048000BB R
(1781712809.695001) can0 129#00000001000000BA R
(1781712809.695245) can0 540#0000401000020600 R
(1781712809.695479) can0 5B0#1000000000000034 R
(1781712809.695712) can0 120#00000000000000BE R
(1781712809.695945) can0 541#000010000000352F R
(1781712809.696179) can0 12D#000000000000005F R
(1781712809.713282) can0 12A#10050000000A0057 R
(1781712809.713554) can0 12D#000000000000006A R
(1781712809.713800) can0 12E#000000000000C02E R
(1781712809.714044) can0 121#00A901D3048000D1 R
(1781712809.714286) can0 129#00000001000000D0 R
(1781712809.714527) can0 120#00000000000000D4 R
(1781712809.728407) can0 541#0000100000003545 R
(1781712809.728656) can0 12D#000000000000008B R
(1781712809.728894) can0 450#0000000000002800 R
(1781712809.729129) can0 12D#00000000000000BE R
(1781712809.729364) can0 12E#000000000000C044 R
(1781712809.729598) can0 121#00A901D304800030 R
(1781712809.745006) can0 129#0000000100000031 R
(1781712809.745248) can0 120#0000000000000035 R
(1781712809.745483) can0 541#0000100000003570 R
(1781712809.745717) can0 12D#00000000000000D4 R
(1781712809.745952) can0 12D#0000000000000035 R
(1781712809.753064) can0 12E#000000000000C071 R
(1781712809.753319) can0 12A#10050000000A0062 R
(1781712809.753557) can0 5A0#000000000400003B R
(1781712809.753793) can0 121#00A901D30480005A R
(1781712809.754027) can0 129#000000010000005B R
(1781712809.754262) can0 120#000000000000005F R
(1781712809.768312) can0 541#0000100000003591 R
(1781712809.768556) can0 12D#000000000000005F R
(1781712809.768791) can0 12D#000000000000006A R
(1781712809.769025) can0 12E#000000000000C090 R
(1781712809.769257) can0 450#0000000000002800 R
(1781712809.769493) can0 121#00A901D30480006F R
(1781712809.788125) can0 129#000000010000006E R
(1781712809.788383) can0 120#000000000000006A R
(1781712809.788625) can0 541#00001000000035A4 R
(1781712809.788863) can0 12D#000000000000008B R
(1781712809.789100) can0 12D#00000000000000BE R
(1781712809.789336) can0 12E#000000000000C0A5 R
(1781712809.794781) can0 121#00A901D30480008E R
(1781712809.795023) can0 129#000000010000008F R
(1781712809.795265) can0 540#0000401000020600 R
(1781712809.795501) can0 5B0#100000000000005E R
(1781712809.795733) can0 120#000000000000008B R
(1781712809.795966) can0 541#00001000000035CE R
(1781712809.808422) can0 12D#00000000000000D4 R
(1781712809.808667) can0 12A#10050000000A0083 R
(1781712809.808903) can0 12D#0000000000000035 R
(1781712809.809136) can0 12E#000000000000C0CF R
(1781712809.809369) can0 121#00A901D3048000BB R
(1781712809.809603) can0 129#00000001000000BA R
(1781712809.824916) can0 120#00000000000000BE R
(1781712809.825156) can0 541#000010000000352F R
(1781712809.825392) can0 12D#000000000000005F R
(1781712809.825628) can0 450#0000000000002800 R
(1781712809.825862) can0 12D#000000000000006A R
(1781712809.844582) can0 12E#000000000000C02E R
(1781712809.844833) can0 121#00A901D3048000D1 R
(1781712809.845072) can0 129#00000001000000D0 R
(1781712809.845307) can0 120#00000000000000D4 R
(1781712809.845541) can0 541#0000100000003545 R
(1781712809.845781) can0 12D#000000000000008B R
(1781712809.850026) can0 12D#00000000000000BE R
(1781712809.850267) can0 12E#000000000000C044 R
(1781712809.850503) can0 12A#10050000000A00B6 R
(1781712809.850741) can0 5A0#0000000004000051 R
(1781712809.850974) can0 121#00A901D304800030 R
(1781712809.851207) can0 129#0000000100000031 R
(1781712809.868110) can0 120#0000000000000035 R
(1781712809.868351) can0 541#0000100000003570 R
(1781712809.868587) can0 12D#00000000000000D4 R
(1781712809.868819) can0 12D#0000000000000035 R
(1781712809.869052) can0 12E#000000000000C071 R
(1781712809.869285) can0 450#0000000000002800 R
(1781712809.884872) can0 121#00A901D30480005A R
(1781712809.885118) can0 129#000000010000005B R
(1781712809.885352) can0 120#000000000000005F R
(1781712809.885586) can0 541#0000100000003591 R
(1781712809.885819) can0 12D#000000000000005F R
(1781712809.886053) can0 12D#000000000000006A R
(1781712809.889966) can0 12E#000000000000C090 R
(1781712809.890205) can0 121#00A901D30480006F R
(1781712809.890438) can0 129#000000010000006E R
(1781712809.890698) can0 540#0000401000020600 R
(1781712809.890933) can0 5B0#100000000000006B R
(1781712809.908037) can0 120#000000000000006A R
(1781712809.908295) can0 541#00001000000035A4 R
(1781712809.908535) can0 12D#000000000000008B R
(1781712809.908771) can0 12A#10050000000A00DC R
(1781712809.909008) can0 12D#00000000000000BE R
(1781712809.909242) can0 12E#000000000000C0A5 R
(1781712809.924535) can0 121#00A901D30480008E R
(1781712809.924789) can0 129#000000010000008F R
(1781712809.925029) can0 120#000000000000008B R
(1781712809.925267) can0 541#00001000000035CE R
(1781712809.925502) can0 12D#00000000000000D4 R
(1781712809.925734) can0 450#0000000000002800 R
(1781712809.934732) can0 12D#0000000000000035 R
(1781712809.934976) can0 12E#000000000000C0CF R
(1781712809.935212) can0 121#00A901D3048000BB R
(1781712809.935447) can0 129#00000001000000BA R
(1781712809.935680) can0 120#00000000000000BE R
(1781712809.935912) can0 541#000010000000352F R
(1781712809.948477) can0 12D#000000000000005F R
(1781712809.948717) can0 12D#000000000000006A R
(1781712809.948951) can0 12E#000000000000C02E R
(1781712809.949184) can0 12A#10050000000A003D R
(1781712809.949418) can0 5A0#0000000004000064 R
(1781712809.949655) can0 121#00A901D3048000D1 R
(1781712809.964869) can0 129#00000001000000D0 R
(1781712809.965113) can0 120#00000000000000D4 R
(1781712809.965348) can0 541#0000100000003545 R
(1781712809.965583) can0 12D#000000000000008B R
(1781712809.965817) can0 12D#00000000000000BE R
(1781712809.966049) can0 12E#000000000000C044 R
(1781712809.974835) can0 450#0000000000002800 R
(1781712809.975083) can0 121#00A901D304800030 R
(1781712809.975319) can0 129#0000000100000031 R
(1781712809.975555) can0 120#0000000000000035 R
(1781712809.975788) can0 541#0000100000003570 R
(1781712809.988765) can0 12D#00000000000000D4 R
(1781712809.989016) can0 12D#0000000000000035 R
(1781712809.989249) can0 12E#000000000000C071 R
(1781712809.989482) can0 121#00A901D30480005A R
(1781712809.989717) can0 129#000000010000005B R
(1781712809.989949) can0 540#0000401000020600 R
(1781712810.004774) can0 5B0#100000000000008A R
(1781712810.005103) can0 120#000000000000005F R
(1781712810.005363) can0 541#0000100000003591 R
(1781712810.005611) can0 12D#000000000000005F R
(1781712810.005856) can0 12A#10050000000A0057 R
(1781712810.006099) can0 12D#000000000000006A R
(1781712810.015969) can0 12E#000000000000C090 R
(1781712810.016228) can0 121#00A901D30480006F R
(1781712810.016470) can0 129#000000010000006E R
(1781712810.016958) can0 120#000000000000006A R
(1781712810.017224) can0 541#00001000000035A4 R
(1781712810.017430) can0 12D#000000000000008B R
(1781712810.033267) can0 450#0000000000002800 R
(1781712810.033531) can0 12D#00000000000000BE R
(1781712810.033773) can0 12E#000000000000C0A5 R
(1781712810.034015) can0 121#00A901D30480008E R
(1781712810.034253) can0 129#000000010000008F R
(1781712810.034491) can0 120#000000000000008B R
(1781712810.045472) can0 541#00001000000035CE R
(1781712810.045715) can0 12D#00000000000000D4 R
(1781712810.045957) can0 12D#0000000000000035 R
(1781712810.046194) can0 12E#000000000000C0CF R
(1781712810.046435) can0 12A#10050000000A0062 R
(1781712810.070921) can0 5A0#0000000004000085 R
(1781712810.071056) can0 121#00A901D3048000BB R
(1781712810.071161) can0 129#00000001000000BA R
(1781712810.071365) can0 120#00000000000000BE R
(1781712810.071466) can0 541#000010000000352F R
(1781712810.071638) can0 12D#000000000000005F R
(1781712810.073173) can0 12D#000000000000006A R
(1781712810.073303) can0 12E#000000000000C02E R
(1781712810.073402) can0 450#0000000000002800 R
(1781712810.073497) can0 121#00A901D3048000D1 R
(1781712810.073592) can0 129#00000001000000D0 R
(1781712810.073696) can0 120#00000000000000D4 R
(1781712810.088534) can0 541#0000100000003545 R
(1781712810.088666) can0 12D#000000000000008B R
(1781712810.088763) can0 12D#00000000000000BE R
(1781712810.088857) can0 12E#000000000000C044 R
(1781712810.088956) can0 121#00A901D304800030 R
(1781712810.089049) can0 129#0000000100000031 R
(1781712810.104620) can0 540#0000401000020600 R
(1781712810.104899) can0 5B0#10000000000000BF R
(1781712810.105151) can0 120#0000000000000035 R
(1781712810.105399) can0 541#0000100000003570 R
(1781712810.105647) can0 12D#00000000000000D4 R
(1781712810.105899) can0 12A#10050000000A0083 R
(1781712810.113253) can0 12D#0000000000000035 R
(1781712810.113500) can0 12E#000000000000C071 R
(1781712810.113742) can0 121#00A901D30480005A R
(1781712810.113999) can0 129#000000010000005B R
(1781712810.114242) can0 120#000000000000005F R
(1781712810.114482) can0 541#0000100000003591 R
(1781712810.128527) can0 12D#000000000000005F R
(1781712810.128784) can0 450#0000000000002800 R
(1781712810.129032) can0 12D#000000000000006A R
(1781712810.129276) can0 12E#000000000000C090 R
(1781712810.129519) can0 121#00A901D30480006F R
(1781712810.145080) can0 129#000000010000006E R
(1781712810.145338) can0 120#000000000000006A R
(1781712810.145580) can0 541#00001000000035A4 R
(1781712810.145820) can0 12D#000000000000008B R
(1781712810.146061) can0 12D#00000000000000BE R
(1781712810.146302) can0 12E#000000000000C0A5 R
(1781712810.154697) can0 12A#10050000000A00B6 R
(1781712810.154945) can0 5A0#00000000040000B0 R
(1781712810.155193) can0 121#00A901D30480008E R
(1781712810.155436) can0 129#000000010000008F R
(1781712810.155676) can0 120#000000000000008B R
(1781712810.155917) can0 541#00001000000035CE R
(1781712810.169835) can0 12D#00000000000000D4 R
(1781712810.170085) can0 12D#0000000000000035 R
(1781712810.170332) can0 12E#000000000000C0CF R
(1781712810.170575) can0 450#0000000000002800 R
(1781712810.170819) can0 121#00A901D3048000BB R
(1781712810.171062) can0 129#00000001000000BA R
(1781712810.188444) can0 120#00000000000000BE R
(1781712810.188740) can0 541#000010000000352F R
(1781712810.188981) can0 12D#000000000000005F R
(1781712810.189216) can0 12D#000000000000006A R
(1781712810.189450) can0 12E#000000000000C02E R
(1781712810.189685) can0 121#00A901D3048000D1 R
(1781712810.194641) can0 129#00000001000000D0 R
(1781712810.194763) can0 540#0000401000020700 R
(1781712810.194869) can0 5B0#10000000000000D5 R
(1781712810.194975) can0 120#00000000000000D4 R
(1781712810.195086) can0 541#0000100000003545 R
(1781712810.209756) can0 12D#000000000000008B R
(1781712810.210001) can0 12A#10050000000A00DC R
(1781712810.210243) can0 12D#00000000000000BE R
(1781712810.210488) can0 12E#000000000000C044 R
(1781712810.210726) can0 121#00A901D304800030 R
(1781712810.210963) can0 129#0000000100000031 R
(1781712810.228101) can0 120#0000000000000035 R
(1781712810.228237) can0 541#0000100000003570 R
(1781712810.228355) can0 12D#00000000000000D4 R
(1781712810.228469) can0 450#0000000000002800 R
(1781712810.228583) can0 12D#0000000000000035 R
(1781712810.228696) can0 12E#000000000000C071 R
(1781712810.244919) can0 121#00A901D30480005A R
(1781712810.245184) can0 129#000000010000005B R
(1781712810.245422) can0 120#000000000000005F R
(1781712810.245656) can0 541#000010000000369E R
(1781712810.245897) can0 12D#000000000000005F R
(1781712810.246158) can0 12D#000000000000006A R
(1781712810.253207) can0 12E#000000000000C090 R
(1781712810.253464) can0 12A#10050000000A003D R
(1781712810.253704) can0 5A0#00000000040000DA R
(1781712810.253942) can0 121#00A901D30480006F R
(1781712810.254180) can0 129#000000010000006E R
(1781712810.254417) can0 120#000000000000006A R
(1781712810.268303) can0 541#00001000000036AB R
(1781712810.268577) can0 12D#000000000000008B R
(1781712810.268806) can0 12D#00000000000000BE R
(1781712810.268930) can0 12E#000000000000C0A5 R
(1781712810.269052) can0 450#0000000000002800 R
(1781712810.269175) can0 121#00A901D30480008E R
(1781712810.285000) can0 129#000000010000008F R
(1781712810.285272) can0 120#000000000000008B R
(1781712810.285522) can0 541#00001000000036C1 R
(1781712810.285765) can0 12D#00000000000000D4 R
(1781712810.286010) can0 12D#0000000000000035 R
(1781712810.293091) can0 12E#000000000000C0CF R
(1781712810.293359) can0 121#00A901D3048000BB R
(1781712810.293608) can0 129#00000001000000BA R
(1781712810.293855) can0 540#0000401000020700 R
(1781712810.294100) can0 5B0#1000000000000034 R
(1781712810.294343) can0 120#00000000000000BE R
(1781712810.308344) can0 541#0000100000003620 R
(1781712810.308597) can0 12D#000000000000005F R
(1781712810.308838) can0 12A#10050000000A0057 R
(1781712810.309081) can0 12D#000000000000006A R
(1781712810.309324) can0 12E#000000000000C02E R
(1781712810.309568) can0 121#00A901D3048000D1 R
(1781712810.324798) can0 129#00000001000000D0 R
(1781712810.325043) can0 120#00000000000000D4 R
(1781712810.325283) can0 541#000010000000364A R
(1781712810.325527) can0 12D#000000000000008B R
(1781712810.325769) can0 450#0000000000002800 R
(1781712810.326010) can0 12D#00000000000000BE R
(1781712810.344706) can0 12E#000000000000C044 R
(1781712810.344957) can0 121#00A901D304800030 R
(1781712810.345198) can0 129#0000000100000031 R
(1781712810.345438) can0 120#0000000000000035 R
(1781712810.345676) can0 541#000010000000367F R
(1781712810.345916) can0 12D#00000000000000D4 R
(1781712810.348704) can0 12D#0000000000000035 R
(1781712810.348946) can0 12E#000000000000C071 R
(1781712810.349183) can0 12A#10050000000A0062 R
(1781712810.349419) can0 5A0#000000000400003B R
(1781712810.349654) can0 121#00A901D30480005A R
(1781712810.365755) can0 129#000000010000005B R
(1781712810.366015) can0 120#000000000000005F R
(1781712810.366258) can0 541#000010000000369E R
(1781712810.366498) can0 12D#000000000000005F R
(1781712810.366735) can0 12D#000000000000006A R
(1781712810.366973) can0 12E#000000000000C090 R
(1781712810.384490) can0 450#0000000000002800 R
(1781712810.384751) can0 121#00A901D30480006F R
(1781712810.384997) can0 129#000000010000006E R
(1781712810.385239) can0 120#000000000000006A R
(1781712810.385483) can0 541#00001000000036AB R
(1781712810.385724) can0 12D#000000000000008B R
(1781712810.390021) can0 12D#00000000000000BE R
(1781712810.390266) can0 12E#000000000000C0A5 R
(1781712810.390504) can0 121#00A901D30480008E R
(1781712810.390742) can0 129#000000010000008F R
(1781712810.390979) can0 540#0000401000020700 R
(1781712810.391215) can0 5B0#100000000000005E R
(1781712810.408178) can0 120#000000000000008B R
(1781712810.408433) can0 541#00001000000036C1 R
(1781712810.408673) can0 12D#00000000000000D4 R
(1781712810.408914) can0 12A#10050000000A0083 R
(1781712810.409151) can0 12D#0000000000000035 R
(1781712810.409387) can0 12E#000000000000C0CF R
(1781712810.416000) can0 121#00A901D3048000BB R
(1781712810.416247) can0 129#00000001000000BA R
(1781712810.416497) can0 120#00000000000000BE R
(1781712810.416741) can0 541#0000100000003620 R
(1781712810.416982) can0 12D#000000000000005F R
(1781712810.417225) can0 450#0000000000002800 R
(1781712810.433306) can0 12D#000000000000006A R
(1781712810.433577) can0 12E#000000000000C02E R
(1781712810.433826) can0 121#00A901D3048000D1 R
(1781712810.434067) can0 129#00000001000000D0 R
(1781712810.434308) can0 120#00000000000000D4 R
(1781712810.448134) can0 541#000010000000364A R
(1781712810.448405) can0 12D#000000000000008B R
(1781712810.448647) can0 12D#00000000000000BE R
(1781712810.448885) can0 12E#000000000000C044 R
(1781712810.449124) can0 12A#10050000000A00B6 R
(1781712810.449359) can0 5A0#0000000004000051 R
(1781712810.464728) can0 121#00A901D304800030 R
(1781712810.464980) can0 129#0000000100000031 R
(1781712810.465216) can0 120#0000000000000035 R
(1781712810.465451) can0 541#000010000000367F R
(1781712810.465685) can0 12D#00000000000000D4 R
(1781712810.465920) can0 12D#0000000000000035 R
(1781712810.474709) can0 12E#000000000000C071 R
(1781712810.474954) can0 450#0000000000002800 R
(1781712810.475191) can0 121#00A901D30480005A R
(1781712810.475427) can0 129#000000010000005B R
(1781712810.475665) can0 120#000000000000005F R
(1781712810.475902) can0 541#000010000000369E R
(1781712810.488966) can0 12D#000000000000005F R
(1781712810.489226) can0 12D#000000000000006A R
(1781712810.489466) can0 12E#000000000000C090 R
(1781712810.489703) can0 121#00A901D30480006F R
(1781712810.489938) can0 129#000000010000006E R
(1781712810.490175) can0 540#0000401000020700 R
(1781712810.504635) can0 5B0#100000000000006B R
(1781712810.504879) can0 120#000000000000006A R
(1781712810.505113) can0 541#00001000000036AB R
(1781712810.505349) can0 12D#000000000000008B R
(1781712810.505585) can0 12A#10050000000A00DC R
(1781712810.514590) can0 12D#00000000000000BE R
(1781712810.514850) can0 12E#000000000000C0A5 R
(1781712810.515086) can0 121#00A901D30480008E R
(1781712810.515322) can0 129#000000010000008F R
(1781712810.515557) can0 120#000000000000008B R
(1781712810.515792) can0 541#00001000000036C1 R
(1781712810.529818) can0 12D#00000000000000D4 R
(1781712810.530073) can0 450#0000000000002800 R
(1781712810.530310) can0 12D#0000000000000035 R
(1781712810.530546) can0 12E#000000000000C0CF R
(1781712810.530784) can0 121#00A901D3048000BB R
(1781712810.531020) can0 129#00000001000000BA R
(1781712810.545373) can0 120#00000000000000BE R
(1781712810.545638) can0 541#0000100000003620 R
(1781712810.545879) can0 12D#000000000000005F R
(1781712810.546117) can0 12D#000000000000006A R
(1781712810.546351) can0 12E#000000000000C02E R
(1781712810.546590) can0 12A#10050000000A003D R
(1781712810.564558) can0 5A0#0000000004000064 R
(1781712810.564806) can0 121#00A901D3048000D1 R
(1781712810.565047) can0 129#00000001000000D0 R
(1781712810.565284) can0 120#00000000000000D4 R
(1781712810.565529) can0 541#000010000000364A R
(1781712810.565767) can0 12D#000000000000008B R
(1781712810.570048) can0 12D#00000000000000BE R
(1781712810.570353) can0 12E#000000000000C044 R
(1781712810.570588) can0 450#0000000000002800 R
(1781712810.570823) can0 121#00A901D304800030 R
(1781712810.571056) can0 129#0000000100000031 R
(1781712810.571291) can0 120#0000000000000035 R
(1781712810.588537) can0 541#000010000000367F R
(1781712810.588812) can0 12D#00000000000000D4 R
(1781712810.589055) can0 12D#0000000000000035 R
(1781712810.589294) can0 12E#000000000000C071 R
(1781712810.589533) can0 121#00A901D30480005A R
(1781712810.594915) can0 129#000000010000005B R
(1781712810.595184) can0 540#0000401000020700 R
(1781712810.595423) can0 5B0#100000000000008A R
(1781712810.595658) can0 120#000000000000005F R
(1781712810.595894) can0 541#000010000000369E R
(1781712810.596128) can0 12D#000000000000005F R
(1781712810.613225) can0 12A#10050000000A0057 R
(1781712810.613503) can0 12D#000000000000006A R
(1781712810.613741) can0 12E#000000000000C090 R
(1781712810.613975) can0 121#00A901D30480006F R
(1781712810.614211) can0 129#000000010000006E R
(1781712810.614446) can0 120#000000000000006A R
(1781712810.628450) can0 541#00001000000036AB R
(1781712810.628728) can0 12D#000000000000008B R
(1781712810.628970) can0 450#0000000000002800 R
(1781712810.629211) can0 12D#00000000000000BE R
(1781712810.629451) can0 12E#000000000000C0A5 R
(1781712810.629694) can0 121#00A901D30480008E R
(1781712810.645240) can0 129#000000010000008F R
(1781712810.645499) can0 120#000000000000008B R
(1781712810.645741) can0 541#00001000000036C1 R
(1781712810.645980) can0 12D#00000000000000D4 R
(1781712810.646217) can0 12D#0000000000000035 R
(1781712810.646456) can0 12E#000000000000C0CF R
(1781712810.653264) can0 12A#10050000000A0062 R
(1781712810.653517) can0 5A0#0000000004000085 R
(1781712810.653754) can0 121#00A901D3048000BB R
(1781712810.654001) can0 129#00000001000000BA R
(1781712810.654236) can0 120#00000000000000BE R
(1781712810.668335) can0 541#0000100000003620 R
(1781712810.668596) can0 12D#000000000000005F R
(1781712810.668836) can0 12D#000000000000006A R
(1781712810.669076) can0 12E#000000000000C02E R
(1781712810.669313) can0 450#0000000000002800 R
(1781712810.669552) can0 121#00A901D3048000D1 R
(1781712810.688223) can0 129#00000001000000D0 R
(1781712810.688545) can0 120#00000000000000D4 R
(1781712810.688806) can0 541#000010000000364A R
(1781712810.689054) can0 12D#000000000000008B R
(1781712810.689300) can0 12D#00000000000000BE R
(1781712810.689544) can0 12E#000000000000C044 R
(1781712810.694656) can0 121#00A901D304800030 R
(1781712810.694913) can0 129#0000000100000031 R
(1781712810.695152) can0 540#0000401000020700 R
(1781712810.695391) can0 5B0#10000000000000BF R
(1781712810.695627) can0 120#0000000000000035 R
(1781712810.695863) can0 541#000010000000367F R
(1781712810.704833) can0 12D#00000000000000D4 R
(1781712810.705089) can0 12A#10050000000A0083 R
(1781712810.705900) can0 12D#0000000000000035 R
(1781712810.715883) can0 12E#000000000000C071 R
(1781712810.716170) can0 121#00A901D30480005A R
(1781712810.716413) can0 129#000000010000005B R
(1781712810.716653) can0 120#000000000000005F R
(1781712810.716891) can0 541#000010000000369E R
(1781712810.717130) can0 12D#000000000000005F R
(1781712810.733173) can0 450#0000000000002800 R
(1781712810.733444) can0 12D#000000000000006A R
(1781712810.733735) can0 12E#000000000000C090 R
(1781712810.733993) can0 121#00A901D30480006F R
(1781712810.734243) can0 129#000000010000006E R
(1781712810.734492) can0 120#000000000000006A R
(1781712810.748274) can0 541#00001000000036AB R
(1781712810.748539) can0 12D#000000000000008B R
(1781712810.748774) can0 12D#00000000000000BE R
(1781712810.749009) can0 12E#000000000000C0A5 R
(1781712810.749244) can0 12A#10050000000A00B6 R
(1781712810.749478) can0 5A0#00000000040000B0 R
(1781712810.764811) can0 121#00A901D30480008E R
(1781712810.765066) can0 129#000000010000008F R
(1781712810.765307) can0 120#000000000000008B R
(1781712810.765545) can0 541#00001000000036C1 R
(1781712810.765783) can0 12D#00000000000000D4 R
(1781712810.766018) can0 12D#0000000000000035 R
(1781712810.773268) can0 12E#000000000000C0CF R
(1781712810.773511) can0 450#0000000000002800 R
(1781712810.773748) can0 121#00A901D3048000BB R
(1781712810.773984) can0 129#00000001000000BA R
(1781712810.774219) can0 120#00000000000000BE R
(1781712810.788566) can0 541#0000100000003620 R
(1781712810.788820) can0 12D#000000000000005F R
(1781712810.789054) can0 12D#000000000000006A R
(1781712810.789292) can0 12E#000000000000C02E R
(1781712810.789528) can0 121#00A901D3048000D1 R
(1781712810.789764) can0 129#00000001000000D0 R
(1781712810.804439) can0 540#0000401000020700 R
(1781712810.804685) can0 5B0#10000000000000D5 R
(1781712810.804920) can0 120#00000000000000D4 R
(1781712810.805155) can0 541#000010000000364A R
(1781712810.805392) can0 12D#000000000000008B R
(1781712810.805630) can0 12A#10050000000A00DC R
(1781712810.814652) can0 12D#00000000000000BE R
(1781712810.814891) can0 12E#000000000000C044 R
(1781712810.815128) can0 121#00A901D304800030 R
(1781712810.815364) can0 129#0000000100000031 R
(1781712810.815597) can0 120#0000000000000035 R
(1781712810.815833) can0 541#000010000000367F R
(1781712810.829914) can0 12D#00000000000000D4 R
(1781712810.830162) can0 450#0000000000002800 R
(1781712810.830400) can0 12D#0000000000000035 R
(1781712810.830637) can0 12E#000000000000C071 R
(1781712810.830871) can0 121#00A901D30480005A R
(1781712810.831108) can0 129#000000010000005B R
(1781712810.845189) can0 120#000000000000005F R
(1781712810.845433) can0 541#000010000000369E R
(1781712810.845672) can0 12D#000000000000005F R
(1781712810.845909) can0 12D#000000000000006A R
(1781712810.846147) can0 12E#000000000000C090 R
(1781712810.854558) can0 12A#10050000000A003D R
(1781712810.854814) can0 5A0#00000000040000DA R
(1781712810.855054) can0 121#00A901D30480006F R
(1781712810.855289) can0 129#000000010000006E R
(1781712810.855524) can0 120#000000000000006A R
(1781712810.855758) can0 541#00001000000036AB R
(1781712810.869800) can0 12D#000000000000008B R
(1781712810.870052) can0 12D#00000000000000BE R
(1781712810.870288) can0 12E#000000000000C0A5 R
(1781712810.870523) can0 450#0000000000002800 R
(1781712810.870759) can0 121#00A901D30480008E R
(1781712810.870995) can0 129#000000010000008F R
(1781712810.888401) can0 120#000000000000008B R
(1781712810.888644) can0 541#00001000000036C1 R
(1781712810.888883) can0 12D#00000000000000D4 R
(1781712810.889119) can0 12D#0000000000000035 R
(1781712810.889390) can0 12E#000000000000C0CF R
(1781712810.889627) can0 121#00A901D3048000BB R
(1781712810.894928) can0 129#00000001000000BA R
(1781712810.895173) can0 540#0000401000020700 R
(1781712810.895411) can0 5B0#1000000000000034 R
(1781712810.895649) can0 120#00000000000000BE R
(1781712810.895885) can0 541#0000100000003620 R
(1781712810.896121) can0 12D#000000000000005F R
(1781712810.913236) can0 12A#10050000000A0057 R
(1781712810.913479) can0 12D#000000000000006A R
(1781712810.913717) can0 12E#000000000000C02E R
(1781712810.913952) can0 121#00A901D3048000D1 R
(1781712810.914186) can0 129#00000001000000D0 R
(1781712810.914422) can0 120#00000000000000D4 R
(1781712810.928281) can0 541#000010000000364A R
(1781712810.928524) can0 12D#000000000000008B R
(1781712810.928759) can0 450#0000000000002800 R
(1781712810.928996) can0 12D#00000000000000BE R
(1781712810.929237) can0 12E#000000000000C044 R
(1781712810.944762) can0 121#00A901D304800030 R
(1781712810.945011) can0 129#0000000100000031 R
(1781712810.945249) can0 120#0000000000000035 R
(1781712810.945484) can0 541#000010000000367F R
(1781712810.945720) can0 12D#00000000000000D4 R
(1781712810.945957) can0 12D#0000000000000035 R
(1781712810.953117) can0 12E#000000000000C071 R
(1781712810.953362) can0 12A#10050000000A0062 R
(1781712810.953599) can0 5A0#000000000400003B R
(1781712810.953835) can0 121#00A901D30480005A R
(1781712810.954070) can0 129#000000010000005B R
(1781712810.954304) can0 120#000000000000005F R
(1781712810.968414) can0 541#000010000000369E R
(1781712810.968655) can0 12D#000000000000005F R
(1781712810.968891) can0 12D#000000000000006A R
(1781712810.969132) can0 12E#000000000000C090 R
(1781712810.969367) can0 450#0000000000002800 R
(1781712810.969603) can0 121#00A901D30480006F R
(1781712810.988207) can0 129#000000010000006E R
(1781712810.988451) can0 120#000000000000006A R
(1781712810.988687) can0 541#00001000000036AB R
(1781712810.988924) can0 12D#000000000000008B R
(1781712810.989163) can0 12D#00000000000000BE R
(1781712810.989402) can0 12E#000000000000C0A5 R
(1781712810.993254) can0 121#00A901D30480008E R
(1781712810.993493) can0 129#000000010000008F R
(1781712810.993730) can0 540#0000401000020700 R
(1781712810.993966) can0 5B0#100000000000005E R
(1781712810.994200) can0 120#000000000000008B R
(1781712811.008340) can0 541#00001000000036C1 R
(1781712811.008665) can0 12D#00000000000000D4 R
(1781712811.008936) can0 12A#10050000000A0083 R
(1781712811.009184) can0 12D#0000000000000035 R
(1781712811.009427) can0 12E#000000000000C0CF R
(1781712811.009668) can0 121#00A901D3048000BB R
(1781712811.024783) can0 129#00000001000000BA R
(1781712811.025063) can0 120#00000000000000BE R
(1781712811.025306) can0 541#0000100000003620 R
(1781712811.025548) can0 12D#000000000000005F R
(1781712811.025789) can0 450#0000000000002800 R
(1781712811.026027) can0 12D#000000000000006A R
(1781712811.044706) can0 12E#000000000000C02E R
(1781712811.044972) can0 121#00A901D3048000D1 R
(1781712811.045214) can0 129#00000001000000D0 R
(1781712811.045448) can0 120#00000000000000D4 R
(1781712811.045683) can0 541#000010000000364A R
(1781712811.045919) can0 12D#000000000000008B R
(1781712811.049944) can0 12D#00000000000000BE R
(1781712811.050182) can0 12E#000000000000C044 R
(1781712811.050416) can0 12A#10050000000A00B6 R
(1781712811.050658) can0 5A0#0000000004000051 R
(1781712811.050893) can0 121#00A901D304800030 R
(1781712811.051131) can0 129#0000000100000031 R
(1781712811.068240) can0 120#0000000000000035 R
(1781712811.068486) can0 541#000010000000367F R
(1781712811.068731) can0 12D#00000000000000D4 R
(1781712811.068965) can0 12D#0000000000000035 R
(1781712811.069232) can0 12E#000000000000C071 R
(1781712811.069471) can0 450#0000000000002800 R
(1781712811.084586) can0 121#00A901D30480005A R
(1781712811.084832) can0 129#000000010000005B R
(1781712811.085070) can0 120#000000000000005F R
(1781712811.085305) can0 541#000010000000369E R
(1781712811.085540) can0 12D#000000000000005F R
(1781712811.089943) can0 12D#000000000000006A R
(1781712811.090195) can0 12E#000000000000C090 R
(1781712811.090431) can0 121#00A901D30480006F R
(1781712811.090664) can0 129#000000010000006E R
(1781712811.090896) can0 540#0000401000020700 R
(1781712811.091158) can0 5B0#100000000000006B R
(1781712811.108362) can0 120#000000000000006A R
(1781712811.108614) can0 541#00001000000036AB R
(1781712811.108852) can0 12D#000000000000008B R
(1781712811.109092) can0 12A#10050000000A00DC R
(1781712811.109330) can0 12D#00000000000000BE R
(1781712811.109567) can0 12E#000000000000C0A5 R
(1781712811.124529) can0 121#00A901D30480008E R
(1781712811.124822) can0 129#000000010000008F R
(1781712811.125059) can0 120#000000000000008B R
(1781712811.125297) can0 541#00001000000036C1 R
(1781712811.125539) can0 12D#00000000000000D4 R
(1781712811.125774) can0 450#0000000000002800 R
(1781712811.134715) can0 12D#0000000000000035 R
(1781712811.134957) can0 12E#000000000000C0CF R
(1781712811.135193) can0 121#00A901D3048000BB R
(1781712811.135429) can0 129#00000001000000BA R
(1781712811.135665) can0 120#00000000000000BE R
(1781712811.135899) can0 541#0000100000003620 R
(1781712811.148318) can0 12D#000000000000005F R
(1781712811.148564) can0 12D#000000000000006A R
(1781712811.148801) can0 12E#000000000000C02E R
(1781712811.149037) can0 12A#10050000000A003D R
(1781712811.149273) can0 5A0#0000000004000064 R
(1781712811.164599) can0 121#00A901D3048000D1 R
(1781712811.164859) can0 129#00000001000000D0 R
(1781712811.165097) can0 120#00000000000000D4 R
(1781712811.165332) can0 541#000010000000364A R
(1781712811.165566) can0 12D#000000000000008B R
(1781712811.165799) can0 12D#00000000000000BE R
(1781712811.174476) can0 12E#000000000000C044 R
(1781712811.174625) can0 450#0000000000002800 R
(1781712811.174741) can0 121#00A901D304800030 R
(1781712811.174853) can0 129#0000000100000031 R
(1781712811.174960) can0 120#0000000000000035 R
(1781712811.175065) can0 541#000010000000367F R
(1781712811.188955) can0 12D#00000000000000D4 R
(1781712811.189275) can0 12D#0000000000000035 R
(1781712811.189517) can0 12E#000000000000C071 R
(1781712811.189755) can0 121#00A901D30480005A R
(1781712811.190078) can0 129#000000010000005B R
(1781712811.190339) can0 540#0000401000020700 R
(1781712811.204816) can0 5B0#100000000000008A R
(1781712811.205071) can0 120#000000000000005F R
(1781712811.205313) can0 541#000010000000369E R
(1781712811.205552) can0 12D#000000000000005F R
(1781712811.205789) can0 12A#10050000000A0057 R
(1781712811.206026) can0 12D#000000000000006A R
(1781712811.216002) can0 12E#000000000000C090 R
(1781712811.216247) can0 121#00A901D30480006F R
(1781712811.216484) can0 129#000000010000006E R
(1781712811.216720) can0 120#000000000000006A R
(1781712811.216960) can0 541#00001000000036AB R
(1781712811.217199) can0 12D#000000000000008B R
(1781712811.229965) can0 450#0000000000002800 R
(1781712811.230123) can0 12D#00000000000000BE R
(1781712811.230262) can0 12E#000000000000C0A5 R
(1781712811.230399) can0 121#00A901D30480008E R
(1781712811.230535) can0 129#000000010000008F R
(1781712811.245303) can0 120#000000000000008B R
(1781712811.245574) can0 541#00001000000037D7 R
(1781712811.245818) can0 12D#00000000000000D4 R
(1781712811.246083) can0 12D#0000000000000035 R
(1781712811.246339) can0 12E#000000000000C0CF R
(1781712811.246580) can0 12A#10050000000A0062 R
(1781712811.264537) can0 5A0#0000000004000085 R
(1781712811.264808) can0 121#00A901D3048000BB R
(1781712811.265052) can0 129#00000001000000BA R
(1781712811.265291) can0 120#00000000000000BE R
(1781712811.265528) can0 541#0000100000003736 R
(1781712811.265765) can0 12D#000000000000005F R
(1781712811.273176) can0 12D#000000000000006A R
(1781712811.273424) can0 12E#000000000000C02E R
(1781712811.273669) can0 450#0000000000002800 R
(1781712811.273906) can0 121#00A901D3048000D1 R
(1781712811.274152) can0 129#00000001000000D0 R
(1781712811.274390) can0 120#00000000000000D4 R
(1781712811.288812) can0 541#000010000000375C R
(1781712811.289076) can0 12D#000000000000008B R
(1781712811.289316) can0 12D#00000000000000BE R
(1781712811.289554) can0 12E#000000000000C044 R
(1781712811.289790) can0 121#00A901D304800030 R
(1781712811.290024) can0 129#0000000100000031 R
(1781712811.294893) can0 540#0000401000020700 R
(1781712811.295149) can0 5B0#10000000000000BF R
(1781712811.295398) can0 120#0000000000000035 R
(1781712811.295634) can0 541#0000100000003769 R
(1781712811.295871) can0 12D#00000000000000D4 R
(1781712811.313074) can0 12A#10050000000A0083 R
(1781712811.313337) can0 12D#0000000000000035 R
(1781712811.313576) can0 12E#000000000000C071 R
(1781712811.313811) can0 121#00A901D30480005A R
(1781712811.314048) can0 129#000000010000005B R
(1781712811.314284) can0 120#000000000000005F R
(1781712811.328414) can0 541#0000100000003788 R
(1781712811.328660) can0 12D#000000000000005F R
(1781712811.328898) can0 450#0000000000002800 R
(1781712811.329134) can0 12D#000000000000006A R
(1781712811.329368) can0 12E#000000000000C090 R
(1781712811.329603) can0 121#00A901D30480006F R
(1781712811.345018) can0 129#000000010000006E R
(1781712811.345273) can0 120#000000000000006A R
(1781712811.345510) can0 541#00001000000037BD R
(1781712811.345745) can0 12D#000000000000008B R
(1781712811.345980) can0 12D#00000000000000BE R
(1781712811.346214) can0 12E#000000000000C0A5 R
(1781712811.354555) can0 12A#10050000000A00B6 R
(1781712811.354796) can0 5A0#00000000040000B0 R
(1781712811.355033) can0 121#00A901D30480008E R
(1781712811.355270) can0 129#000000010000008F R
(1781712811.355506) can0 120#000000000000008B R
(1781712811.355743) can0 541#00001000000037D7 R
(1781712811.370177) can0 12D#00000000000000D4 R
(1781712811.370419) can0 12D#0000000000000035 R
(1781712811.370655) can0 12E#000000000000C0CF R
(1781712811.370891) can0 450#0000000000002800 R
(1781712811.371128) can0 121#00A901D3048000BB R
(1781712811.371371) can0 129#00000001000000BA R
(1781712811.388295) can0 120#00000000000000BE R
(1781712811.388537) can0 541#0000100000003736 R
(1781712811.388775) can0 12D#000000000000005F R
(1781712811.389010) can0 12D#000000000000006A R
(1781712811.389246) can0 12E#000000000000C02E R
(1781712811.394467) can0 121#00A901D3048000D1 R
(1781712811.394719) can0 129#00000001000000D0 R
(1781712811.394958) can0 540#0000401000020700 R
(1781712811.395244) can0 5B0#10000000000000D5 R
(1781712811.395484) can0 120#00000000000000D4 R
(1781712811.395720) can0 541#000010000000375C R
(1781712811.409872) can0 12D#000000000000008B R
(1781712811.410116) can0 12A#10050000000A00DC R
(1781712811.410350) can0 12D#00000000000000BE R
(1781712811.410584) can0 12E#000000000000C044 R
(1781712811.410816) can0 121#00A901D304800030 R
(1781712811.411051) can0 129#0000000100000031 R
(1781712811.428187) can0 120#0000000000000035 R
(1781712811.428428) can0 541#0000100000003769 R
(1781712811.428671) can0 12D#00000000000000D4 R
(1781712811.428906) can0 450#0000000000002800 R
(1781712811.429140) can0 12D#0000000000000035 R
(1781712811.429381) can0 12E#000000000000C071 R
(1781712811.444907) can0 121#00A901D30480005A R
(1781712811.445152) can0 129#000000010000005B R
(1781712811.445386) can0 120#000000000000005F R
(1781712811.445622) can0 541#0000100000003788 R
(1781712811.445855) can0 12D#000000000000005F R
(1781712811.446090) can0 12D#000000000000006A R
(1781712811.450101) can0 12E#000000000000C090 R
(1781712811.450341) can0 12A#10050000000A003D R
(1781712811.450583) can0 5A0#00000000040000DA R
(1781712811.450819) can0 121#00A901D30480006F R
(1781712811.451058) can0 129#000000010000006E R
(1781712811.468160) can0 120#000000000000006A R
(1781712811.468418) can0 541#00001000000037BD R
(1781712811.468656) can0 12D#000000000000008B R
(1781712811.468891) can0 12D#00000000000000BE R
(1781712811.469125) can0 12E#000000000000C0A5 R
(1781712811.469363) can0 450#0000000000002800 R
(1781712811.484701) can0 121#00A901D30480008E R
(1781712811.484956) can0 129#000000010000008F R
(1781712811.485194) can0 120#000000000000008B R
(1781712811.485428) can0 541#00001000000037D7 R
(1781712811.485663) can0 12D#00000000000000D4 R
(1781712811.485898) can0 12D#0000000000000035 R
(1781712811.493153) can0 12E#000000000000C0CF R
(1781712811.493401) can0 121#00A901D3048000BB R
(1781712811.493639) can0 129#00000001000000BA R
(1781712811.493876) can0 540#0000401000020700 R
(1781712811.494111) can0 5B0#1000000000000034 R
(1781712811.494345) can0 120#00000000000000BE R
(1781712811.508495) can0 541#0000100000003736 R
(1781712811.508748) can0 12D#000000000000005F R
(1781712811.508989) can0 12A#10050000000A0057 R
(1781712811.509228) can0 12D#000000000000006A R
(1781712811.509466) can0 12E#000000000000C02E R
(1781712811.509702) can0 121#00A901D3048000D1 R
(1781712811.524880) can0 129#00000001000000D0 R
(1781712811.525134) can0 120#00000000000000D4 R
(1781712811.525372) can0 541#000010000000375C R
(1781712811.525641) can0 12D#000000000000008B R
(1781712811.525881) can0 450#0000000000002800 R
(1781712811.526120) can0 12D#00000000000000BE R
(1781712811.534673) can0 12E#000000000000C044 R
(1781712811.534921) can0 121#00A901D304800030 R
(1781712811.535160) can0 129#0000000100000031 R
(1781712811.535396) can0 120#0000000000000035 R
(1781712811.535633) can0 541#0000100000003769 R
(1781712811.548420) can0 12D#00000000000000D4 R
(1781712811.548682) can0 12D#0000000000000035 R
(1781712811.548920) can0 12E#000000000000C071 R
(1781712811.549155) can0 12A#10050000000A0062 R
(1781712811.549389) can0 5A0#000000000400003B R
(1781712811.549623) can0 121#00A901D30480005A R
(1781712811.565809) can0 129#000000010000005B R
(1781712811.566067) can0 120#000000000000005F R
(1781712811.566411) can0 541#0000100000003788 R
(1781712811.566772) can0 12D#000000000000005F R
(1781712811.567113) can0 12D#000000000000006A R
(1781712811.567353) can0 12E#000000000000C090 R
(1781712811.584533) can0 450#0000000000002800 R
(1781712811.584778) can0 121#00A901D30480006F R
(1781712811.585014) can0 129#000000010000006E R
(1781712811.585249) can0 120#000000000000006A R
(1781712811.585484) can0 541#00001000000037BD R
(1781712811.585719) can0 12D#000000000000008B R
(1781712811.590069) can0 12D#00000000000000BE R
(1781712811.590308) can0 12E#000000000000C0A5 R
(1781712811.590540) can0 121#00A901D30480008E R
(1781712811.590775) can0 129#000000010000008F R
(1781712811.591008) can0 540#0000401000020700 R
(1781712811.591242) can0 5B0#100000000000005E R
(1781712811.604816) can0 120#000000000000008B R
(1781712811.605059) can0 541#00001000000037D7 R
(1781712811.605295) can0 12D#00000000000000D4 R
(1781712811.605531) can0 12A#10050000000A0083 R
(1781712811.605767) can0 12D#0000000000000035 R
(1781712811.615813) can0 12E#000000000000C0CF R
(1781712811.616069) can0 121#00A901D3048000BB R
(1781712811.616307) can0 129#00000001000000BA R
(1781712811.616544) can0 120#00000000000000BE R
(1781712811.616781) can0 541#0000100000003736 R
(1781712811.617018) can0 12D#000000000000005F R
(1781712811.633102) can0 450#0000000000002800 R
(1781712811.633355) can0 12D#000000000000006A R
(1781712811.633597) can0 12E#000000000000C02E R
(1781712811.633836) can0 121#00A901D3048000D1 R
(1781712811.634073) can0 129#00000001000000D0 R
(1781712811.634312) can0 120#00000000000000D4 R
(1781712811.648234) can0 541#000010000000375C R
(1781712811.648476) can0 12D#000000000000008B R
(1781712811.648712) can0 12D#00000000000000BE R
(1781712811.648948) can0 12E#000000000000C044 R
(1781712811.649185) can0 12A#10050000000A00B6 R
(1781712811.649419) can0 5A0#0000000004000051 R
(1781712811.664796) can0 121#00A901D304800030 R
(1781712811.665036) can0 129#0000000100000031 R
(1781712811.665280) can0 120#0000000000000035 R
(1781712811.665517) can0 541#0000100000003769 R
(1781712811.665751) can0 12D#00000000000000D4 R
(1781712811.665986) can0 12D#0000000000000035 R
(1781712811.674752) can0 12E#000000000000C071 R
(1781712811.674997) can0 450#0000000000002800 R
(1781712811.675246) can0 121#00A901D30480005A R
(1781712811.675543) can0 129#000000010000005B R
(1781712811.675807) can0 120#000000000000005F R
(1781712811.676056) can0 541#0000100000003788 R
(1781712811.688858) can0 12D#000000000000005F R
(1781712811.689115) can0 12D#000000000000006A R
(1781712811.689353) can0 12E#000000000000C090 R
(1781712811.689589) can0 121#00A901D30480006F R
(1781712811.689825) can0 129#000000010000006E R
(1781712811.704439) can0 540#0000401000020700 R
(1781712811.704702) can0 5B0#100000000000006B R
(1781712811.704941) can0 120#000000000000006A R
(1781712811.705176) can0 541#00001000000037BD R
(1781712811.705412) can0 12D#000000000000008B R
(1781712811.705655) can0 12A#10050000000A00DC R
(1781712811.714498) can0 12D#00000000000000BE R
(1781712811.714741) can0 12E#000000000000C0A5 R
(1781712811.714977) can0 121#00A901D30480008E R
(1781712811.715212) can0 129#000000010000008F R
(1781712811.715446) can0 120#000000000000008B R
(1781712811.715681) can0 541#00001000000037D7 R
(1781712811.730023) can0 12D#00000000000000D4 R
(1781712811.730287) can0 450#0000000000002800 R
(1781712811.730534) can0 12D#0000000000000035 R
(1781712811.730779) can0 12E#000000000000C0CF R
(1781712811.731023) can0 121#00A901D3048000BB R
(1781712811.731267) can0 129#00000001000000BA R
(1781712811.745417) can0 120#00000000000000BE R
(1781712811.745671) can0 541#0000100000003736 R
(1781712811.745916) can0 12D#000000000000005F R
(1781712811.746164) can0 12D#000000000000006A R
(1781712811.746407) can0 12E#000000000000C02E R
(1781712811.746648) can0 12A#10050000000A003D R
(1781712811.754664) can0 5A0#0000000004000064 R
(1781712811.754911) can0 121#00A901D3048000D1 R
(1781712811.755151) can0 129#00000001000000D0 R
(1781712811.755391) can0 120#00000000000000D4 R
(1781712811.755629) can0 541#000010000000375C R
(1781712811.769933) can0 12D#000000000000008B R
(1781712811.770212) can0 12D#00000000000000BE R
(1781712811.770457) can0 12E#000000000000C044 R
(1781712811.770695) can0 450#0000000000002800 R
(1781712811.770931) can0 121#00A901D304800030 R
(1781712811.771166) can0 129#0000000100000031 R
(1781712811.788393) can0 120#0000000000000035 R
(1781712811.788652) can0 541#0000100000003769 R
(1781712811.788897) can0 12D#00000000000000D4 R
(1781712811.789134) can0 12D#0000000000000035 R
(1781712811.789371) can0 12E#000000000000C071 R
(1781712811.789609) can0 121#00A901D30480005A R
(1781712811.794756) can0 129#000000010000005B R
(1781712811.795012) can0 540#0000401000020700 R
(1781712811.795250) can0 5B0#100000000000008A R
(1781712811.795490) can0 120#000000000000005F R
(1781712811.795726) can0 541#0000100000003788 R
(1781712811.795964) can0 12D#000000000000005F R
(1781712811.813213) can0 12A#10050000000A0057 R
(1781712811.813458) can0 12D#000000000000006A R
(1781712811.813698) can0 12E#000000000000C090 R
(1781712811.813935) can0 121#00A901D30480006F R
(1781712811.814173) can0 129#000000010000006E R
(1781712811.814410) can0 120#000000000000006A R
(1781712811.828523) can0 541#00001000000037BD R
(1781712811.828768) can0 12D#000000000000008B R
(1781712811.829005) can0 450#0000000000002800 R
(1781712811.829295) can0 12D#00000000000000BE R
(1781712811.829554) can0 12E#000000000000C0A5 R
(1781712811.829803) can0 121#00A901D30480008E R
(1781712811.844975) can0 129#000000010000008F R
(1781712811.845221) can0 120#000000000000008B R
(1781712811.845460) can0 541#00001000000037D7 R
(1781712811.845697) can0 12D#00000000000000D4 R
(1781712811.845934) can0 12D#0000000000000035 R
(1781712811.853100) can0 12E#000000000000C0CF R
(1781712811.853352) can0 12A#10050000000A0062 R
(1781712811.853589) can0 5A0#0000000004000085 R
(1781712811.853825) can0 121#00A901D3048000BB R
(1781712811.854063) can0 129#00000001000000BA R
(1781712811.854300) can0 120#00000000000000BE R
(1781712811.868618) can0 541#0000100000003736 R
(1781712811.868864) can0 12D#000000000000005F R
(1781712811.869101) can0 12D#000000000000006A R
(1781712811.869337) can0 12E#000000000000C02E R
(1781712811.869573) can0 450#0000000000002800 R
(1781712811.869815) can0 121#00A901D3048000D1 R
(1781712811.888234) can0 129#00000001000000D0 R
(1781712811.888483) can0 120#00000000000000D4 R
(1781712811.888728) can0 541#000010000000375C R
(1781712811.888964) can0 12D#000000000000008B R
(1781712811.889199) can0 12D#00000000000000BE R
(1781712811.889434) can0 12E#000000000000C044 R
(1781712811.894591) can0 121#00A901D304800030 R
(1781712811.894834) can0 129#0000000100000031 R
(1781712811.895072) can0 540#0000401000020700 R
(1781712811.895308) can0 5B0#10000000000000BF R
(1781712811.895542) can0 120#0000000000000035 R
(1781712811.895776) can0 541#0000100000003769 R
(1781712811.908561) can0 12D#00000000000000D4 R
(1781712811.908809) can0 12A#10050000000A0083 R
(1781712811.909046) can0 12D#0000000000000035 R
(1781712811.909281) can0 12E#000000000000C071 R
(1781712811.909516) can0 121#00A901D30480005A R
(1781712811.924676) can0 129#000000010000005B R
(1781712811.924930) can0 120#000000000000005F R
(1781712811.925169) can0 541#0000100000003788 R
(1781712811.925407) can0 12D#000000000000005F R
(1781712811.925642) can0 450#0000000000002800 R
(1781712811.925876) can0 12D#000000000000006A R
(1781712811.944562) can0 12E#000000000000C090 R
(1781712811.944816) can0 121#00A901D30480006F R
(1781712811.945052) can0 129#000000010000006E R
(1781712811.945287) can0 120#000000000000006A R
(1781712811.945524) can0 541#00001000000037BD R
(1781712811.945761) can0 12D#000000000000008B R
(1781712811.949996) can0 12D#00000000000000BE R
(1781712811.950244) can0 12E#000000000000C0A5 R
(1781712811.950482) can0 12A#10050000000A00B6 R
(1781712811.950721) can0 5A0#00000000040000B0 R
(1781712811.950956) can0 121#00A901D30480008E R
(1781712811.951193) can0 129#000000010000008F R
(1781712811.968245) can0 120#000000000000008B R
(1781712811.968486) can0 541#00001000000037D7 R
(1781712811.968721) can0 12D#00000000000000D4 R
(1781712811.968957) can0 12D#0000000000000035 R
(1781712811.969193) can0 12E#000000000000C0CF R
(1781712811.969429) can0 450#0000000000002800 R
(1781712811.984837) can0 121#00A901D3048000BB R
(1781712811.985095) can0 129#00000001000000BA R
(1781712811.985338) can0 120#00000000000000BE R
(1781712811.985578) can0 541#0000100000003736 R
(1781712811.985814) can0 12D#000000000000005F R
(1781712811.986051) can0 12D#000000000000006A R
(1781712811.990130) can0 12E#000000000000C02E R
(1781712811.990376) can0 121#00A901D3048000D1 R
(1781712811.990611) can0 129#00000001000000D0 R
(1781712811.990845) can0 540#0000401000020700 R
(1781712811.991080) can0 5B0#10000000000000D5 R
(1781712812.008192) can0 120#00000000000000D4 R
(1781712812.008462) can0 541#000010000000375C R
