(1782240595.615485) can0 12D#0000000000000000 R
(1782240595.615900) can0 12D#0000000000000000 R
(1782240595.616184) can0 12D#0000000000000000 R
(1782240595.616444) can0 12D#0000000000000000 R
(1782240595.616687) can0 12D#0000000000000000 R
(1782240595.616939) can0 12D#0000000000000000 R
(1782240595.617118) can0 12D#0000000000000000 R
(1782240595.617233) can0 12D#0000000000000000 R
(1782240595.617330) can0 12D#0000000000000000 R
(1782240595.617426) can0 12D#0000000000000000 R
(1782240595.617522) can0 12D#0000000000000000 R
(1782240595.617618) can0 12D#0000000000000000 R
(1782240595.618426) can0 12D#0000000000000000 R
(1782240595.618545) can0 12D#0000000000000000 R
(1782240595.618647) can0 12D#0000000000000000 R
(1782240595.618901) can0 12D#0000000000000000 R
(1782240595.619069) can0 12D#0000000000000000 R
(1782240595.620060) can0 12D#0000000000000000 R
(1782240595.620205) can0 12D#0000000000000000 R
(1782240595.620315) can0 12D#0000000000000000 R
(1782240595.620416) can0 12D#0000000000000000 R
(1782240595.620521) can0 12D#0000000000000035 R
(1782240595.620622) can0 12D#0000000000000035 R
(1782240595.621706) can0 12D#0000000000000035 R
(1782240595.621827) can0 12D#0000000000000035 R
(1782240595.621932) can0 12D#0000000000000035 R
(1782240595.622033) can0 12D#0000000000000035 R
(1782240595.622133) can0 12D#0000000000000035 R
(1782240595.622232) can0 12D#0000000000000035 R
(1782240595.624211) can0 12D#0000000000000035 R
(1782240595.624326) can0 12D#0000000000000035 R
(1782240595.624431) can0 12D#0000000000000035 R
(1782240595.624531) can0 12D#0000000000000035 R
(1782240595.624635) can0 12D#0000000000000035 R
(1782240595.624735) can0 12D#0000000000000035 R
(1782240595.625010) can0 12D#0000000000000035 R
(1782240595.625133) can0 12D#0000000000000035 R
(1782240595.625234) can0 12D#0000000000000035 R
(1782240595.625333) can0 12D#0000000000000035 R
(1782240595.625433) can0 12D#0000000000000035 R
(1782240595.625531) can0 12D#0000000000000035 R
(1782240595.626425) can0 12D#0000000000000035 R
(1782240595.626550) can0 12D#0000000000000035 R
(1782240595.626650) can0 12D#0000000000000035 R
(1782240595.626749) can0 12D#0000000000000035 R
(1782240595.626849) can0 12D#0000000000000035 R
(1782240595.626948) can0 12D#0000000000000035 R
(1782240595.628075) can0 12D#0000000000000035 R
(1782240595.628179) can0 12D#0000000000000035 R
(1782240595.628279) can0 12D#0000000000000035 R
(1782240595.628378) can0 12D#0000000000000035 R
(1782240595.628478) can0 12D#0000000000000035 R
(1782240595.629654) can0 12D#0000000000000035 R
(1782240595.629782) can0 12D#0000000000000035 R
(1782240595.629882) can0 12D#0000000000000035 R
(1782240595.629983) can0 12D#0000000000000035 R
(1782240595.630086) can0 12D#0000000000000035 R
(1782240595.630187) can0 12D#0000000000000035 R
(1782240595.631339) can0 12D#000000000000005F R
(1782240595.631465) can0 12D#000000000000005F R
(1782240595.631564) can0 12D#000000000000005F R
(1782240595.631664) can0 12D#000000000000005F R
(1782240595.631764) can0 12D#000000000000005F R
(1782240595.631865) can0 12D#000000000000005F R
(1782240595.633017) can0 12D#000000000000005F R
(1782240595.633140) can0 12D#000000000000005F R
(1782240595.633239) can0 12D#000000000000005F R
(1782240595.633339) can0 12D#000000000000005F R
(1782240595.633437) can0 12D#000000000000005F R
(1782240595.633538) can0 12D#000000000000005F R
(1782240595.643927) can0 12D#000000000000005F R
(1782240595.644109) can0 12E#0000000000000000 R
(1782240595.644221) can0 12D#000000000000006A R
(1782240595.644330) can0 12E#0000000000000035 R
(1782240595.644434) can0 121#0000000004840010 R
(1782240595.644550) can0 129#0000000100000004 R
(1782240595.660478) can0 540#0000000000000000 R
(1782240595.660692) can0 5B0#0000000000000000 R
(1782240595.660811) can0 120#0000000000000000 R
(1782240595.660922) can0 12D#000000000000008B R
(1782240595.661030) can0 12A#10010000000A001D R
(1782240595.683732) can0 12D#00000000000000BE R
(1782240595.683903) can0 12E#000000000000005F R
(1782240595.684114) can0 121#0000000004840025 R
(1782240595.684227) can0 129#0000000100000031 R
(1782240595.684322) can0 120#0000000000000035 R
(1782240595.684408) can0 12D#00000000000000D4 R
(1782240595.699653) can0 12D#0000000000000035 R
(1782240595.699764) can0 12E#000000000000006A R
(1782240595.699866) can0 121#00AC01D604800053 R
(1782240595.699968) can0 129#000000010000005B R
(1782240595.700069) can0 120#000000000000005F R
(1782240595.700170) can0 12D#000000000000005F R
(1782240595.704907) can0 12D#000000000000006A R
(1782240595.705012) can0 12E#000000000000008B R
(1782240595.705115) can0 12A#10010000000A0028 R
(1782240595.705215) can0 5A0#0000000000000000 R
(1782240595.705318) can0 121#00AC01D604800066 R
(1782240595.705416) can0 129#000000010000006E R
(1782240595.724866) can0 120#000000000000006A R
(1782240595.724986) can0 12D#000000000000008B R
(1782240595.725092) can0 12D#00000000000000BE R
(1782240595.725195) can0 12E#00000000000000BE R
(1782240595.725300) can0 121#00AC01D604800087 R
(1782240595.725406) can0 129#000000010000008F R
(1782240595.743633) can0 120#000000000000008B R
(1782240595.743847) can0 12D#00000000000000D4 R
(1782240595.743982) can0 12D#0000000000000035 R
(1782240595.744102) can0 12E#00000000000000D4 R
(1782240595.744225) can0 121#00AC01D6048000B2 R
(1782240595.744335) can0 129#00000001000000BA R
(1782240595.759571) can0 540#000000010001D600 R
(1782240595.759726) can0 5B0#0000000000000035 R
(1782240595.759850) can0 120#00000000000000BE R
(1782240595.759961) can0 12D#000000000000005F R
(1782240595.760072) can0 12A#10010000000A0042 R
(1782240595.779592) can0 12D#000000000000006A R
(1782240595.779853) can0 12E#0000000000000035 R
(1782240595.780092) can0 121#00AC01D6048000D8 R
(1782240595.780327) can0 129#00000001000000D0 R
(1782240595.780565) can0 120#00000000000000D4 R
(1782240595.780808) can0 12D#000000000000008B R
(1782240595.799681) can0 12D#00000000000000BE R
(1782240595.799957) can0 12E#000000000000005F R
(1782240595.800199) can0 121#00AC01D604800039 R
(1782240595.800432) can0 129#0000000100000031 R
(1782240595.800668) can0 120#0000000000000035 R
(1782240595.800905) can0 12D#00000000000000D4 R
(1782240595.804974) can0 12D#0000000000000035 R
(1782240595.805225) can0 12E#000000000000006A R
(1782240595.805464) can0 12A#10010000000A0077 R
(1782240595.805700) can0 5A0#0000000000000035 R
(1782240595.805940) can0 121#00AC01D604800053 R
(1782240595.806179) can0 129#000000010000005B R
(1782240595.825033) can0 120#000000000000005F R
(1782240595.825297) can0 12D#000000000000005F R
(1782240595.825538) can0 12D#000000000000006A R
(1782240595.825775) can0 12E#000000000000008B R
(1782240595.826011) can0 121#00AC01D604800066 R
(1782240595.826246) can0 129#000000010000006E R
(1782240595.843554) can0 120#000000000000006A R
(1782240595.843844) can0 12D#000000000000008B R
(1782240595.844096) can0 12D#00000000000000BE R
(1782240595.844339) can0 12E#00000000000000BE R
(1782240595.844583) can0 121#00AC01D604800087 R
(1782240595.849930) can0 129#000000010000008F R
(1782240595.850180) can0 540#000000010001D600 R
(1782240595.850418) can0 5B0#100000000000005E R
(1782240595.850652) can0 120#000000000000008B R
(1782240595.850895) can0 541#00011000000A6011 R
(1782240595.851132) can0 12D#00000000000000D4 R
(1782240595.866394) can0 12A#10010000000A0096 R
(1782240595.866580) can0 12D#0000000000000035 R
(1782240595.866750) can0 12E#00000000000000D4 R
(1782240595.866921) can0 121#00AC01D6048000B2 R
(1782240595.867091) can0 129#00000001000000BA R
(1782240595.867261) can0 120#00000000000000BE R
(1782240595.883442) can0 541#00011000000A6024 R
(1782240595.883820) can0 12D#000000000000005F R
(1782240595.884096) can0 450#0000000000002800 R
(1782240595.884350) can0 12D#000000000000006A R
(1782240595.884576) can0 12E#0000000000000035 R
(1782240595.884773) can0 121#00A901D2048000D5 R
(1782240595.900236) can0 129#00000001000000D0 R
(1782240595.900501) can0 120#00000000000000D4 R
(1782240595.900746) can0 541#00011000000A604E R
(1782240595.900987) can0 12D#000000000000008B R
(1782240595.901225) can0 12D#00000000000000BE R
(1782240595.901464) can0 12E#000000000000005F R
(1782240595.906535) can0 12A#10010000000A00A3 R
(1782240595.906782) can0 5A0#000000000000005F R
(1782240595.907055) can0 121#00A901D204800034 R
(1782240595.907292) can0 129#0000000100000031 R
(1782240595.907529) can0 120#0000000000000035 R
(1782240595.907765) can0 541#00011000000A616D R
(1782240595.927590) can0 12D#00000000000000D4 R
(1782240595.932378) can0 12D#0000000000000035 R
(1782240595.932540) can0 12E#000000000000006A R
(1782240595.932633) can0 450#0000000000002800 R
(1782240595.932723) can0 121#00A901D20480005E R
(1782240595.943196) can0 129#000000010000005B R
(1782240595.943330) can0 120#000000000000005F R
(1782240595.943434) can0 541#00011000000A618C R
(1782240595.943540) can0 12D#000000000000005F R
(1782240595.943641) can0 12D#000000000000006A R
(1782240595.943740) can0 12E#000000000000008B R
(1782240595.949752) can0 121#00A901D20480006B R
(1782240595.949894) can0 129#000000010000006E R
(1782240595.949997) can0 540#000000110001D600 R
(1782240595.950101) can0 5B0#100000000000006B R
(1782240595.950213) can0 120#000000000000006A R
(1782240595.950324) can0 541#00011000000A61B9 R
(1782240595.964887) can0 12D#000000000000008B R
(1782240595.965051) can0 12A#10010000000A00C9 R
(1782240595.965202) can0 12D#00000000000000BE R
(1782240595.965359) can0 12E#00000000000000BE R
(1782240595.965504) can0 121#00A901D20480008A R
(1782240595.965647) can0 129#000000010000008F R
(1782240595.983233) can0 120#000000000000008B R
(1782240595.983383) can0 541#00011000000A61D3 R
(1782240595.983486) can0 12D#00000000000000D4 R
(1782240595.983585) can0 450#0000000000002800 R
(1782240595.983685) can0 12D#0000000000000035 R
(1782240595.983793) can0 12E#00000000000000D4 R
(1782240596.000115) can0 121#00A901D2048000BF R
(1782240596.000327) can0 129#00000001000000BA R
(1782240596.000508) can0 120#00000000000000BE R
(1782240596.000683) can0 541#00011000000A6132 R
(1782240596.000880) can0 12D#000000000000005F R
(1782240596.004806) can0 12D#000000000000006A R
(1782240596.004978) can0 12E#0000000000000035 R
(1782240596.005119) can0 12A#10010000000A0028 R
(1782240596.005262) can0 5A0#000000000000006A R
(1782240596.005402) can0 121#00A901D2048000D5 R
(1782240596.005537) can0 129#00000001000000D0 R
(1782240596.025344) can0 120#00000000000000D4 R
(1782240596.025608) can0 541#00011000000A6158 R
(1782240596.025930) can0 12D#000000000000008B R
(1782240596.026087) can0 12D#00000000000000BE R
(1782240596.026231) can0 12E#000000000000005F R
(1782240596.026374) can0 450#0000000000002800 R
(1782240596.040212) can0 121#00A901D204800034 R
(1782240596.040475) can0 129#0000000100000031 R
(1782240596.040721) can0 120#0000000000000035 R
(1782240596.040964) can0 541#00011000000A616D R
(1782240596.041201) can0 12D#00000000000000D4 R
(1782240596.041435) can0 12D#0000000000000035 R
(1782240596.046473) can0 12E#000000000000006A R
(1782240596.046727) can0 121#00A901D20480005E R
(1782240596.046968) can0 129#000000010000005B R
(1782240596.047210) can0 540#000040110001D600 R
(1782240596.047452) can0 5B0#100000000000008A R
(1782240596.047620) can0 120#000000000000005F R
(1782240596.063330) can0 541#00011000000A618C R
(1782240596.063580) can0 12D#000000000000005F R
(1782240596.063818) can0 12A#10010000000A0042 R
(1782240596.064057) can0 12D#000000000000006A R
(1782240596.064280) can0 12E#000000000000008B R
(1782240596.064398) can0 121#00A901D20480006B R
(1782240596.080079) can0 129#000000010000006E R
(1782240596.080326) can0 120#000000000000006A R
(1782240596.080564) can0 541#00011000000A61B9 R
(1782240596.080800) can0 12D#000000000000008B R
(1782240596.081043) can0 450#0000000000002800 R
(1782240596.090871) can0 12D#00000000000000BE R
(1782240596.091086) can0 12E#00000000000000BE R
(1782240596.091231) can0 121#00A901D20480008A R
(1782240596.091373) can0 129#000000010000008F R
(1782240596.091520) can0 120#000000000000008B R
(1782240596.091657) can0 541#00011000000A61D3 R
(1782240596.103518) can0 12D#00000000000000D4 R
(1782240596.103770) can0 12D#0000000000000035 R
(1782240596.104010) can0 12E#00000000000000D4 R
(1782240596.104251) can0 12A#10010000000A0077 R
(1782240596.104486) can0 5A0#000000000000008B R
(1782240596.104723) can0 121#00A901D2048000BF R
(1782240596.121160) can0 129#00000001000000BA R
(1782240596.121407) can0 120#00000000000000BE R
(1782240596.121646) can0 541#00011000000A6132 R
(1782240596.121886) can0 12D#000000000000005F R
(1782240596.122123) can0 12D#000000000000006A R
(1782240596.122357) can0 12E#0000000000000035 R
(1782240596.139988) can0 450#0000000000002800 R
(1782240596.140259) can0 121#00A901D2048000D5 R
(1782240596.140501) can0 129#00000001000000D0 R
(1782240596.140737) can0 120#00000000000000D4 R
(1782240596.140972) can0 541#00011000000A6158 R
(1782240596.141210) can0 12D#000000000000008B R
(1782240596.144157) can0 12D#00000000000000BE R
(1782240596.144285) can0 12E#000000000000005F R
(1782240596.144400) can0 121#00A901D204800034 R
(1782240596.144513) can0 129#0000000100000031 R
(1782240596.144626) can0 540#000040110001D600 R
(1782240596.150226) can0 5B0#10000000000000BF R
(1782240596.150995) can0 120#0000000000000035 R
(1782240596.151229) can0 541#00011000000A616D R
(1782240596.151463) can0 12D#00000000000000D4 R
(1782240596.166473) can0 12A#10010000000A0096 R
(1782240596.166720) can0 12D#0000000000000035 R
(1782240596.166956) can0 12E#000000000000006A R
(1782240596.167196) can0 121#00A901D20480005E R
(1782240596.167432) can0 129#000000010000005B R
(1782240596.167667) can0 120#000000000000005F R
(1782240596.183276) can0 541#00011000000A618C R
(1782240596.183393) can0 12D#000000000000005F R
(1782240596.183496) can0 450#0000000000002800 R
(1782240596.183599) can0 12D#000000000000006A R
(1782240596.183699) can0 12E#000000000000008B R
(1782240596.183800) can0 121#00A901D20480006B R
(1782240596.200361) can0 129#000000010000006E R
(1782240596.200544) can0 120#000000000000006A R
(1782240596.200661) can0 541#00011000000A61B9 R
(1782240596.200765) can0 12D#000000000000008B R
(1782240596.200873) can0 12D#00000000000000BE R
(1782240596.206380) can0 12E#00000000000000BE R
(1782240596.206515) can0 12A#10010000000A00A3 R
(1782240596.206632) can0 5A0#00000000000000BE R
(1782240596.206759) can0 121#00A901D20480008A R
(1782240596.206877) can0 129#000000010000008F R
(1782240596.206987) can0 120#000000000000008B R
(1782240596.224460) can0 541#00011000000A61D3 R
(1782240596.224637) can0 12D#00000000000000D4 R
(1782240596.224865) can0 12D#0000000000000035 R
(1782240596.224978) can0 12E#00000000000000D4 R
(1782240596.225077) can0 450#0000000000002800 R
(1782240596.225177) can0 121#00A901D2048000BF R
(1782240596.243428) can0 129#00000001000000BA R
(1782240596.243641) can0 120#00000000000000BE R
(1782240596.243794) can0 541#00011000000A6132 R
(1782240596.243905) can0 12D#000000000000005F R
(1782240596.244010) can0 12D#000000000000006A R
(1782240596.244113) can0 12E#0000000000000035 R
(1782240596.250127) can0 121#00A901D2048000D5 R
(1782240596.250332) can0 129#00000001000000D0 R
(1782240596.250523) can0 540#000040110001D600 R
(1782240596.250704) can0 5B0#10000000000000D5 R
(1782240596.250876) can0 120#00000000000000D4 R
(1782240596.251051) can0 541#00011000000A6158 R
(1782240596.263544) can0 12D#000000000000008B R
(1782240596.263667) can0 12A#10010000000A00C9 R
(1782240596.263790) can0 12D#00000000000000BE R
(1782240596.263908) can0 12E#000000000000005F R
(1782240596.264022) can0 121#00A901D204800034 R
(1782240596.280122) can0 129#0000000100000031 R
(1782240596.280395) can0 120#0000000000000035 R
(1782240596.280633) can0 541#00011000000A616D R
(1782240596.280878) can0 12D#00000000000000D4 R
(1782240596.280987) can0 450#0000000000002800 R
(1782240596.281088) can0 12D#0000000000000035 R
(1782240596.300072) can0 12E#000000000000006A R
(1782240596.300344) can0 121#00A901D20480005E R
(1782240596.300583) can0 129#000000010000005B R
(1782240596.300815) can0 120#000000000000005F R
(1782240596.301047) can0 541#00011000000A618C R
(1782240596.301281) can0 12D#000000000000005F R
(1782240596.305030) can0 12D#000000000000006A R
(1782240596.305278) can0 12E#000000000000008B R
(1782240596.305512) can0 12A#10010000000A0028 R
(1782240596.305748) can0 5A0#00000000000000D4 R
(1782240596.305981) can0 121#00A901D20480006B R
(1782240596.306218) can0 129#000000010000006E R
(1782240596.325663) can0 120#000000000000006A R
(1782240596.325814) can0 541#00011000000A61B9 R
(1782240596.325921) can0 12D#000000000000008B R
(1782240596.326026) can0 12D#00000000000000BE R
(1782240596.326128) can0 12E#00000000000000BE R
(1782240596.326231) can0 450#0000000000002800 R
(1782240596.340050) can0 121#00A901D20480008A R
(1782240596.340303) can0 129#000000010000008F R
(1782240596.340542) can0 120#000000000000008B R
(1782240596.340778) can0 541#00011000000A61D3 R
(1782240596.341014) can0 12D#00000000000000D4 R
(1782240596.341251) can0 12D#0000000000000035 R
(1782240596.345156) can0 12E#00000000000000D4 R
(1782240596.345396) can0 121#00A901D2048000BF R
(1782240596.345632) can0 129#00000001000000BA R
(1782240596.345867) can0 540#000040110001D600 R
(1782240596.346106) can0 5B0#1000000000000034 R
(1782240596.363205) can0 120#00000000000000BE R
(1782240596.363464) can0 541#00011000000A6132 R
(1782240596.363701) can0 12D#000000000000005F R
(1782240596.363933) can0 12A#10010000000A0042 R
(1782240596.364165) can0 12D#000000000000006A R
(1782240596.364397) can0 12E#0000000000000035 R
(1782240596.379921) can0 121#00A901D2048000D5 R
(1782240596.380164) can0 129#00000001000000D0 R
(1782240596.380398) can0 120#00000000000000D4 R
(1782240596.380629) can0 541#00011000000A6158 R
(1782240596.380862) can0 12D#000000000000008B R
(1782240596.381095) can0 450#0000000000002800 R
(1782240596.392256) can0 12D#00000000000000BE R
(1782240596.392432) can0 12E#000000000000005F R
(1782240596.392558) can0 121#00A901D204800034 R
(1782240596.392769) can0 129#0000000100000031 R
(1782240596.392898) can0 120#0000000000000035 R
(1782240596.393014) can0 541#00011000000A616D R
(1782240596.403631) can0 12D#00000000000000D4 R
(1782240596.403880) can0 12D#0000000000000035 R
(1782240596.404115) can0 12E#000000000000006A R
(1782240596.404347) can0 12A#10010000000A0077 R
(1782240596.404580) can0 5A0#0000000000000035 R
(1782240596.404812) can0 121#00A901D20480005E R
(1782240596.420287) can0 129#000000010000005B R
(1782240596.420556) can0 120#000000000000005F R
(1782240596.420802) can0 541#00011000000A618C R
(1782240596.420978) can0 12D#000000000000005F R
(1782240596.421131) can0 12D#000000000000006A R
(1782240596.433457) can0 12E#000000000000008B R
(1782240596.433636) can0 450#0000000000002800 R
(1782240596.433745) can0 121#00A901D20480006B R
(1782240596.433850) can0 129#000000010000006E R
(1782240596.434039) can0 120#000000000000006A R
(1782240596.434212) can0 541#00011000000A61B9 R
(1782240596.443993) can0 12D#000000000000008B R
(1782240596.444140) can0 12D#00000000000000BE R
(1782240596.444253) can0 12E#00000000000000BE R
(1782240596.444363) can0 121#00A901D20480008A R
(1782240596.444466) can0 129#000000010000008F R
(1782240596.444576) can0 540#000040110001D600 R
(1782240596.460142) can0 5B0#100000000000005E R
(1782240596.460291) can0 120#000000000000008B R
(1782240596.460426) can0 541#00011000000A61D3 R
(1782240596.460579) can0 12D#00000000000000D4 R
(1782240596.460716) can0 12A#10010000000A0096 R
(1782240596.460853) can0 12D#0000000000000035 R
(1782240596.471165) can0 12E#00000000000000D4 R
(1782240596.471269) can0 121#00A901D2048000BF R
(1782240596.471366) can0 129#00000001000000BA R
(1782240596.471462) can0 120#00000000000000BE R
(1782240596.471559) can0 541#00011000000A6132 R
(1782240596.471655) can0 12D#000000000000005F R
(1782240596.485048) can0 450#0000000000002800 R
(1782240596.485207) can0 12D#000000000000006A R
(1782240596.485320) can0 12E#0000000000000035 R
(1782240596.485431) can0 121#00A901D2048000D5 R
(1782240596.485544) can0 129#00000001000000D0 R
(1782240596.485653) can0 120#00000000000000D4 R
(1782240596.500833) can0 541#00001000000A6150 R
(1782240596.500977) can0 12D#000000000000008B R
(1782240596.501104) can0 12D#00000000000000BE R
(1782240596.501219) can0 12E#000000000000005F R
(1782240596.501335) can0 12A#10010000000A00A3 R
(1782240596.519841) can0 5A0#000000000000005F R
(1782240596.520109) can0 121#00A901D204800034 R
(1782240596.520344) can0 129#0000000100000031 R
(1782240596.520575) can0 120#0000000000000035 R
(1782240596.520806) can0 541#00001000000A6165 R
(1782240596.521039) can0 12D#00000000000000D4 R
(1782240596.526759) can0 12D#0000000000000035 R
(1782240596.526897) can0 12E#000000000000006A R
(1782240596.527017) can0 450#0000000000002800 R
(1782240596.527132) can0 121#00A901D20480005E R
(1782240596.527248) can0 129#000000010000005B R
(1782240596.527363) can0 120#000000000000005F R
(1782240596.543785) can0 541#00001000000A6184 R
(1782240596.544037) can0 12D#000000000000005F R
(1782240596.544270) can0 12D#000000000000006A R
(1782240596.544504) can0 12E#000000000000008B R
(1782240596.544735) can0 121#00A901D20480006B R
(1782240596.544968) can0 129#000000010000006E R
(1782240596.560001) can0 540#000040110001D600 R
(1782240596.560243) can0 5B0#100000000000006B R
(1782240596.560477) can0 120#000000000000006A R
(1782240596.560711) can0 541#00001000000A61B1 R
(1782240596.560942) can0 12D#000000000000008B R
(1782240596.561173) can0 12A#10010000000A00C9 R
(1782240596.567539) can0 12D#00000000000000BE R
(1782240596.567776) can0 12E#00000000000000BE R
(1782240596.568008) can0 121#00A901D20480008A R
(1782240596.568239) can0 129#000000010000008F R
(1782240596.568471) can0 120#000000000000008B R
(1782240596.583421) can0 541#00001000000A61DB R
(1782240596.583668) can0 12D#00000000000000D4 R
(1782240596.583901) can0 450#0000000000002800 R
(1782240596.584134) can0 12D#0000000000000035 R
(1782240596.584365) can0 12E#00000000000000D4 R
(1782240596.584594) can0 121#00A901D2048000BF R
(1782240596.600469) can0 129#00000001000000BA R
(1782240596.600636) can0 120#00000000000000BE R
(1782240596.600773) can0 541#00001000000A613A R
(1782240596.600907) can0 12D#000000000000005F R
(1782240596.601042) can0 12D#000000000000006A R
(1782240596.601176) can0 12E#0000000000000035 R
(1782240596.610098) can0 12A#10010000000A0028 R
(1782240596.610351) can0 5A0#000000000000006A R
(1782240596.610588) can0 121#00A901D2048000D5 R
(1782240596.610822) can0 129#00000001000000D0 R
(1782240596.611054) can0 120#00000000000000D4 R
(1782240596.611286) can0 541#00001000000A6150 R
(1782240596.625498) can0 12D#000000000000008B R
(1782240596.625718) can0 12D#00000000000000BE R
(1782240596.625871) can0 12E#000000000000C044 R
(1782240596.626009) can0 450#0000000000002800 R
(1782240596.626145) can0 121#00A901D204800034 R
(1782240596.626280) can0 129#0000000100000031 R
(1782240596.643232) can0 120#0000000000000035 R
(1782240596.643465) can0 541#00001000000A6165 R
(1782240596.643705) can0 12D#00000000000000D4 R
(1782240596.643946) can0 12D#0000000000000035 R
(1782240596.644198) can0 12E#000000000000C071 R
(1782240596.644436) can0 121#00A901D20480005E R
(1782240596.650215) can0 129#000000010000005B R
(1782240596.650466) can0 540#000040110001D600 R
(1782240596.650702) can0 5B0#100000000000008A R
(1782240596.650936) can0 120#000000000000005F R
(1782240596.651170) can0 541#00001000000A6184 R
(1782240596.664913) can0 12D#000000000000005F R
(1782240596.665034) can0 12A#10010000000A0042 R
(1782240596.665123) can0 12D#000000000000006A R
(1782240596.665208) can0 12E#000000000000C090 R
(1782240596.665295) can0 121#00A901D20480006B R
(1782240596.665383) can0 129#000000010000006E R
(1782240596.683234) can0 120#000000000000006A R
(1782240596.683334) can0 541#00001000000A61B1 R
(1782240596.683424) can0 12D#000000000000008B R
(1782240596.683511) can0 450#0000000000002800 R
(1782240596.683597) can0 12D#00000000000000BE R
(1782240596.683683) can0 12E#000000000000C0A5 R
(1782240596.700191) can0 121#00A901D20480008A R
(1782240596.700308) can0 129#000000010000008F R
(1782240596.700412) can0 120#000000000000008B R
(1782240596.700517) can0 541#00001000000A61DB R
(1782240596.700621) can0 12D#00000000000000D4 R
(1782240596.700725) can0 12D#0000000000000035 R
(1782240596.707425) can0 12E#000000000000C0CF R
(1782240596.707552) can0 12A#10010000000A0077 R
(1782240596.707655) can0 5A0#0000000004000085 R
(1782240596.707758) can0 121#00A901D2048000BF R
(1782240596.707860) can0 129#00000001000000BA R
(1782240596.707962) can0 120#00000000000000BE R
(1782240596.724393) can0 541#00001000000A613A R
(1782240596.724513) can0 12D#000000000000005F R
(1782240596.724633) can0 12D#000000000000006A R
(1782240596.724747) can0 12E#000000000000C02E R
(1782240596.724849) can0 450#0000000000002800 R
(1782240596.740178) can0 121#00A901D2048000D5 R
(1782240596.740398) can0 129#00000001000000D0 R
(1782240596.740535) can0 120#00000000000000D4 R
(1782240596.740655) can0 541#00001000000A6150 R
(1782240596.740800) can0 12D#000000000000008B R
(1782240596.740925) can0 12D#00000000000000BE R
(1782240596.748513) can0 12E#000000000000C044 R
(1782240596.748715) can0 121#00A901D204800034 R
(1782240596.748902) can0 129#0000000100000031 R
(1782240596.749075) can0 540#000040110001D600 R
(1782240596.749235) can0 5B0#10000000000000BF R
(1782240596.749386) can0 120#0000000000000035 R
(1782240596.763490) can0 541#00001000000A6165 R
(1782240596.763603) can0 12D#00000000000000D4 R
(1782240596.763707) can0 12A#10010000000A0096 R
(1782240596.763809) can0 12D#0000000000000035 R
(1782240596.763910) can0 12E#000000000000C071 R
(1782240596.764012) can0 121#00A901D20480005E R
(1782240596.780197) can0 129#000000010000005B R
(1782240596.780353) can0 120#000000000000005F R
(1782240596.780473) can0 541#00001000000A6184 R
(1782240596.780591) can0 12D#000000000000005F R
(1782240596.780700) can0 450#0000000000002800 R
(1782240596.780808) can0 12D#000000000000006A R
(1782240596.792204) can0 12E#000000000000C090 R
(1782240596.792341) can0 121#00A901D20480006B R
(1782240596.792465) can0 129#000000010000006E R
(1782240596.792600) can0 120#000000000000006A R
(1782240596.792717) can0 541#00001000000A61B1 R
(1782240596.792839) can0 12D#000000000000008B R
(1782240596.803638) can0 12D#00000000000000BE R
(1782240596.803848) can0 12E#000000000000C0A5 R
(1782240596.804029) can0 12A#10010000000A00A3 R
(1782240596.804205) can0 5A0#00000000040000B0 R
(1782240596.804379) can0 121#00A901D20480008A R
(1782240596.821073) can0 129#000000010000008F R
(1782240596.821341) can0 120#000000000000008B R
(1782240596.821582) can0 541#00001000000A61DB R
(1782240596.821821) can0 12D#00000000000000D4 R
(1782240596.822061) can0 12D#0000000000000035 R
(1782240596.822298) can0 12E#000000000000C0CF R
(1782240596.839808) can0 450#0000000000002800 R
(1782240596.839974) can0 121#00A901D2048000BF R
(1782240596.840119) can0 129#00000001000000BA R
(1782240596.840254) can0 120#00000000000000BE R
(1782240596.840390) can0 541#00001000000A613A R
(1782240596.840524) can0 12D#000000000000005F R
(1782240596.845051) can0 12D#000000000000006A R
(1782240596.845195) can0 12E#000000000000C02E R
(1782240596.845330) can0 121#00A901D2048000D5 R
(1782240596.845465) can0 129#00000001000000D0 R
(1782240596.845602) can0 540#000040110001D600 R
(1782240596.845737) can0 5B0#10000000000000D5 R
(1782240596.863349) can0 120#00000000000000D4 R
(1782240596.863594) can0 541#00001000000A6150 R
(1782240596.863832) can0 12D#000000000000008B R
(1782240596.864067) can0 12A#10010000000A00C9 R
(1782240596.864306) can0 12D#00000000000000BE R
(1782240596.864543) can0 12E#000000000000C044 R
(1782240596.871309) can0 121#00A901D204800034 R
(1782240596.871547) can0 129#0000000100000031 R
(1782240596.871784) can0 120#0000000000000035 R
(1782240596.872018) can0 541#00001000000A6165 R
(1782240596.872258) can0 12D#00000000000000D4 R
(1782240596.888382) can0 450#0000000000002800 R
(1782240596.888660) can0 12D#0000000000000035 R
(1782240596.888906) can0 12E#000000000000C071 R
(1782240596.889144) can0 121#00A901D20480005E R
(1782240596.889378) can0 129#000000010000005B R
(1782240596.889615) can0 120#000000000000005F R
(1782240596.903503) can0 541#00001000000A6184 R
(1782240596.903632) can0 12D#000000000000005F R
(1782240596.903741) can0 12D#000000000000006A R
(1782240596.903845) can0 12E#000000000000C090 R
(1782240596.903948) can0 12A#10010000000A0028 R
(1782240596.904059) can0 5A0#00000000040000DA R
(1782240596.920153) can0 121#00A901D20480006B R
(1782240596.920414) can0 129#000000010000006E R
(1782240596.920653) can0 120#000000000000006A R
(1782240596.920889) can0 541#00001000000A62BE R
(1782240596.921123) can0 12D#000000000000008B R
(1782240596.921356) can0 12D#00000000000000BE R
(1782240596.933056) can0 12E#000000000000C0A5 R
(1782240596.933180) can0 450#0000000000002800 R
(1782240596.933246) can0 121#00A901D20480008A R
(1782240596.933317) can0 129#000000010000008F R
(1782240596.933377) can0 120#000000000000008B R
(1782240596.933438) can0 541#00001000000A62D4 R
(1782240596.943781) can0 12D#00000000000000D4 R
(1782240596.943845) can0 12D#0000000000000035 R
(1782240596.943904) can0 12E#000000000000C0CF R
(1782240596.943964) can0 121#00A901D2048000BF R
(1782240596.944024) can0 129#00000001000000BA R
(1782240596.944082) can0 540#000040110001D600 R
(1782240596.959915) can0 5B0#1000000000000034 R
(1782240596.959991) can0 120#00000000000000BE R
(1782240596.960057) can0 541#00001000000A6235 R
(1782240596.960123) can0 12D#000000000000005F R
(1782240596.960188) can0 12A#10010000000A0042 R
(1782240596.969961) can0 12D#000000000000006A R
(1782240596.970028) can0 12E#000000000000C02E R
(1782240596.970095) can0 121#00A901D2048000D5 R
(1782240596.970160) can0 129#00000001000000D0 R
(1782240596.970226) can0 120#00000000000000D4 R
(1782240596.970292) can0 541#00001000000A625F R
(1782240596.985014) can0 12D#000000000000008B R
(1782240596.985101) can0 450#0000000000002800 R
(1782240596.985179) can0 12D#00000000000000BE R
(1782240596.985254) can0 12E#000000000000C044 R
(1782240596.985331) can0 121#00A901D204800034 R
(1782240596.985405) can0 129#0000000100000031 R
(1782240597.000770) can0 120#0000000000000035 R
(1782240597.000867) can0 541#00001000000A626A R
(1782240597.000954) can0 12D#00000000000000D4 R
(1782240597.001040) can0 12D#0000000000000035 R
(1782240597.001126) can0 12E#000000000000C071 R
(1782240597.001212) can0 12A#10010000000A0077 R
(1782240597.019900) can0 5A0#000000000400003B R
(1782240597.019964) can0 121#00A901D20480005E R
(1782240597.020023) can0 129#000000010000005B R
(1782240597.020082) can0 120#000000000000005F R
(1782240597.020140) can0 541#00001000000A628B R
(1782240597.020199) can0 12D#000000000000005F R
(1782240597.025035) can0 12D#000000000000006A R
(1782240597.025149) can0 12E#000000000000C090 R
(1782240597.025253) can0 450#0000000000002800 R
(1782240597.025355) can0 121#00A901D20480006B R
(1782240597.025459) can0 129#000000010000006E R
(1782240597.043678) can0 120#000000000000006A R
(1782240597.043976) can0 541#00001000000A62BE R
(1782240597.044148) can0 12D#000000000000008B R
(1782240597.044312) can0 12D#00000000000000BE R
(1782240597.044426) can0 12E#000000000000C0A5 R
(1782240597.044543) can0 121#00A901D20480008A R
(1782240597.050237) can0 129#000000010000008F R
(1782240597.050381) can0 540#000040110001D600 R
(1782240597.050484) can0 5B0#100000000000005E R
(1782240597.050587) can0 120#000000000000008B R
(1782240597.050688) can0 541#00001000000A62D4 R
(1782240597.050789) can0 12D#00000000000000D4 R
(1782240597.068437) can0 12A#10010000000A0096 R
(1782240597.068656) can0 12D#0000000000000035 R
(1782240597.068869) can0 12E#000000000000C0CF R
(1782240597.069066) can0 121#00A901D2048000BF R
(1782240597.069237) can0 129#00000001000000BA R
(1782240597.069406) can0 120#00000000000000BE R
(1782240597.083580) can0 541#00001000000A6235 R
(1782240597.083845) can0 12D#000000000000005F R
(1782240597.084092) can0 450#0000000000002800 R
(1782240597.084340) can0 12D#000000000000006A R
(1782240597.084592) can0 12E#000000000000C02E R
(1782240597.084838) can0 121#00A901D2048000D5 R
(1782240597.100175) can0 129#00000001000000D0 R
(1782240597.100290) can0 120#00000000000000D4 R
(1782240597.100401) can0 541#00001000000A625F R
(1782240597.100496) can0 12D#000000000000008B R
(1782240597.100591) can0 12D#00000000000000BE R
(1782240597.100683) can0 12E#000000000000C044 R
(1782240597.108653) can0 12A#10010000000A00A3 R
(1782240597.108955) can0 5A0#0000000004000051 R
(1782240597.109203) can0 121#00A901D204800034 R
(1782240597.109445) can0 129#0000000100000031 R
(1782240597.109682) can0 120#0000000000000035 R
(1782240597.126153) can0 541#00001000000A626A R
(1782240597.126451) can0 12D#00000000000000D4 R
(1782240597.126606) can0 12D#0000000000000035 R
(1782240597.126753) can0 12E#000000000000C071 R
(1782240597.126895) can0 450#0000000000002800 R
(1782240597.127019) can0 121#00A901D20480005E R
(1782240597.143314) can0 129#000000010000005B R
(1782240597.143483) can0 120#000000000000005F R
(1782240597.143581) can0 541#00001000000A628B R
(1782240597.143675) can0 12D#000000000000005F R
(1782240597.143787) can0 12D#000000000000006A R
(1782240597.143882) can0 12E#000000000000C090 R
(1782240597.150063) can0 121#00A901D20480006B R
(1782240597.150309) can0 129#000000010000006E R
(1782240597.150547) can0 540#000040110001D600 R
(1782240597.150786) can0 5B0#100000000000006B R
(1782240597.151024) can0 120#000000000000006A R
(1782240597.151262) can0 541#00001000000A62BE R
(1782240597.165278) can0 12D#000000000000008B R
(1782240597.165516) can0 12A#10010000000A00C9 R
(1782240597.165749) can0 12D#00000000000000BE R
(1782240597.165981) can0 12E#000000000000C0A5 R
(1782240597.166214) can0 121#00A901D20480008A R
(1782240597.166446) can0 129#000000010000008F R
(1782240597.181266) can0 120#000000000000008B R
(1782240597.181459) can0 541#00001000000A62D4 R
(1782240597.181627) can0 12D#00000000000000D4 R
(1782240597.181781) can0 450#0000000000002800 R
(1782240597.181860) can0 12D#0000000000000035 R
(1782240597.199937) can0 12E#000000000000C0CF R
(1782240597.200084) can0 121#00A901D2048000BF R
(1782240597.200195) can0 129#00000001000000BA R
(1782240597.200301) can0 120#00000000000000BE R
(1782240597.200406) can0 541#00001000000A6235 R
(1782240597.200512) can0 12D#000000000000005F R
(1782240597.204992) can0 12D#000000000000006A R
(1782240597.205140) can0 12E#000000000000C02E R
(1782240597.205278) can0 12A#10010000000A0028 R
(1782240597.205411) can0 5A0#0000000004000064 R
(1782240597.205529) can0 121#00A901D2048000D5 R
(1782240597.205645) can0 129#00000001000000D0 R
(1782240597.225600) can0 120#00000000000000D4 R
(1782240597.225776) can0 541#00001000000A625F R
(1782240597.225925) can0 12D#000000000000008B R
(1782240597.226137) can0 12D#00000000000000BE R
(1782240597.226260) can0 12E#000000000000C044 R
(1782240597.226374) can0 450#0000000000002800 R
(1782240597.240154) can0 121#00A901D204800034 R
(1782240597.240315) can0 129#0000000100000031 R
(1782240597.240436) can0 120#0000000000000035 R
(1782240597.240546) can0 541#00001000000A626A R
(1782240597.240658) can0 12D#00000000000000D4 R
(1782240597.240766) can0 12D#0000000000000035 R
(1782240597.245119) can0 12E#000000000000C071 R
(1782240597.245248) can0 121#00A901D20480005E R
(1782240597.245369) can0 129#000000010000005B R
(1782240597.245488) can0 540#000040110001D600 R
(1782240597.245610) can0 5B0#100000000000008A R
(1782240597.245726) can0 120#000000000000005F R
(1782240597.263422) can0 541#00001000000A628B R
(1782240597.263555) can0 12D#000000000000005F R
(1782240597.263672) can0 12A#10010000000A0042 R
(1782240597.263789) can0 12D#000000000000006A R
(1782240597.263904) can0 12E#000000000000C090 R
(1782240597.279850) can0 121#00A901D20480006B R
(1782240597.280113) can0 129#000000010000006E R
(1782240597.280359) can0 120#000000000000006A R
(1782240597.280600) can0 541#00001000000A62BE R
(1782240597.280842) can0 12D#000000000000008B R
(1782240597.280955) can0 450#0000000000002800 R
(1782240597.293161) can0 12D#00000000000000BE R
(1782240597.293278) can0 12E#000000000000C0A5 R
(1782240597.293376) can0 121#00A901D20480008A R
(1782240597.293473) can0 129#000000010000008F R
(1782240597.293570) can0 120#000000000000008B R
(1782240597.293672) can0 541#00001000000A62D4 R
(1782240597.303634) can0 12D#00000000000000D4 R
(1782240597.303782) can0 12D#0000000000000035 R
(1782240597.303919) can0 12E#000000000000C0CF R
(1782240597.304056) can0 12A#10010000000A0077 R
(1782240597.304193) can0 5A0#0000000004000085 R
(1782240597.304330) can0 121#00A901D2048000BF R
(1782240597.321191) can0 129#00000001000000BA R
(1782240597.321455) can0 120#00000000000000BE R
(1782240597.321694) can0 541#00001000000A6235 R
(1782240597.321931) can0 12D#000000000000005F R
(1782240597.322163) can0 12D#000000000000006A R
(1782240597.322399) can0 12E#000000000000C02E R
(1782240597.330092) can0 450#0000000000002800 R
(1782240597.330198) can0 121#00A901D2048000D5 R
(1782240597.330290) can0 129#00000001000000D0 R
(1782240597.330379) can0 120#00000000000000D4 R
(1782240597.330467) can0 541#00001000000A625F R
(1782240597.343987) can0 12D#000000000000008B R
(1782240597.344099) can0 12D#00000000000000BE R
(1782240597.344192) can0 12E#000000000000C044 R
(1782240597.344284) can0 121#00A901D204800034 R
(1782240597.344370) can0 129#0000000100000031 R
(1782240597.344456) can0 540#000040110001D600 R
(1782240597.360090) can0 5B0#10000000000000BF R
(1782240597.360228) can0 120#0000000000000035 R
(1782240597.360332) can0 541#00001000000A626A R
(1782240597.360435) can0 12D#00000000000000D4 R
(1782240597.360538) can0 12A#10010000000A0096 R
(1782240597.360642) can0 12D#0000000000000035 R
(1782240597.371213) can0 12E#000000000000C071 R
(1782240597.371361) can0 121#00A901D20480005E R
(1782240597.371475) can0 129#000000010000005B R
(1782240597.371594) can0 120#000000000000005F R
(1782240597.371716) can0 541#00001000000A628B R
(1782240597.371839) can0 12D#000000000000005F R
(1782240597.388540) can0 450#0000000000002800 R
(1782240597.388860) can0 12D#000000000000006A R
(1782240597.389124) can0 12E#000000000000C090 R
(1782240597.389381) can0 121#00A901D20480006B R
(1782240597.389676) can0 129#000000010000006E R
(1782240597.394572) can0 120#000000000000006A R
(1782240597.400752) can0 541#00001000000A62BE R
(1782240597.400897) can0 12D#000000000000008B R
(1782240597.401034) can0 12D#00000000000000BE R
(1782240597.401171) can0 12E#000000000000C0A5 R
(1782240597.401308) can0 12A#10010000000A00A3 R
(1782240597.401445) can0 5A0#00000000040000B0 R
(1782240597.419971) can0 121#00A901D20480008A R
(1782240597.420218) can0 129#000000010000008F R
(1782240597.420455) can0 120#000000000000008B R
(1782240597.420691) can0 541#00001000000A62D4 R
(1782240597.420928) can0 12D#00000000000000D4 R
(1782240597.434029) can0 12D#0000000000000035 R
(1782240597.434255) can0 12E#000000000000C0CF R
(1782240597.434364) can0 450#0000000000002800 R
(1782240597.434475) can0 121#00A901D2048000BF R
(1782240597.434582) can0 129#00000001000000BA R
(1782240597.434687) can0 120#00000000000000BE R
(1782240597.443727) can0 541#00001000000A6235 R
(1782240597.443859) can0 12D#000000000000005F R
(1782240597.443963) can0 12D#000000000000006A R
(1782240597.444066) can0 12E#000000000000C02E R
(1782240597.444168) can0 121#00A901D2048000D5 R
(1782240597.444271) can0 129#00000001000000D0 R
(1782240597.459858) can0 540#000040110001D600 R
(1782240597.459971) can0 5B0#10000000000000D5 R
(1782240597.460075) can0 120#00000000000000D4 R
(1782240597.460179) can0 541#00001000000A625F R
(1782240597.460286) can0 12D#000000000000008B R
(1782240597.460388) can0 12A#10010000000A00C9 R
(1782240597.470001) can0 12D#00000000000000BE R
(1782240597.470148) can0 12E#000000000000C044 R
(1782240597.470254) can0 121#00A901D204800034 R
(1782240597.470364) can0 129#0000000100000031 R
(1782240597.470467) can0 120#0000000000000035 R
(1782240597.470573) can0 541#00001000000A626A R
(1782240597.483666) can0 12D#00000000000000D4 R
(1782240597.483830) can0 450#0000000000002800 R
(1782240597.483948) can0 12D#0000000000000035 R
(1782240597.484066) can0 12E#000000000000C071 R
(1782240597.484167) can0 121#00A901D20480005E R
(1782240597.500432) can0 129#000000010000005B R
(1782240597.500620) can0 120#000000000000005F R
(1782240597.500769) can0 541#00001000000A628B R
(1782240597.500912) can0 12D#000000000000005F R
(1782240597.501053) can0 12D#000000000000006A R
(1782240597.501195) can0 12E#000000000000C090 R
(1782240597.510032) can0 12A#10010000000A0028 R
(1782240597.510156) can0 5A0#00000000040000DA R
(1782240597.510267) can0 121#00A901D20480006B R
(1782240597.510374) can0 129#000000010000006E R
(1782240597.510478) can0 120#000000000000006A R
(1782240597.510585) can0 541#00001000000A62BE R
(1782240597.526985) can0 12D#000000000000008B R
(1782240597.527099) can0 12D#00000000000000BE R
(1782240597.527208) can0 12E#000000000000C0A5 R
(1782240597.527311) can0 450#0000000000002800 R
(1782240597.527415) can0 121#00A901D20480008A R
(1782240597.527518) can0 129#000000010000008F R
(1782240597.543668) can0 120#000000000000008B R
(1782240597.543912) can0 541#00001000000A62D4 R
(1782240597.544184) can0 12D#00000000000000D4 R
(1782240597.544418) can0 12D#0000000000000035 R
(1782240597.544655) can0 12E#000000000000C0CF R
(1782240597.544897) can0 121#00A901D2048000BF R
(1782240597.550135) can0 129#00000001000000BA R
(1782240597.550378) can0 540#000040110001D600 R
(1782240597.550614) can0 5B0#1000000000000034 R
(1782240597.550851) can0 120#00000000000000BE R
(1782240597.551085) can0 541#00001000000A6235 R
(1782240597.551320) can0 12D#000000000000005F R
(1782240597.565162) can0 12A#10010000000A0042 R
(1782240597.565399) can0 12D#000000000000006A R
(1782240597.565632) can0 12E#000000000000C02E R
(1782240597.565867) can0 121#00A901D2048000D5 R
(1782240597.566098) can0 129#00000001000000D0 R
(1782240597.583267) can0 120#00000000000000D4 R
(1782240597.583564) can0 541#00001000000A625F R
(1782240597.583893) can0 12D#000000000000008B R
(1782240597.584166) can0 450#0000000000002800 R
(1782240597.584417) can0 12D#00000000000000BE R
(1782240597.584625) can0 12E#000000000000C044 R
(1782240597.600178) can0 121#00A901D204800034 R
(1782240597.600336) can0 129#0000000100000031 R
(1782240597.600474) can0 120#0000000000000035 R
(1782240597.600611) can0 541#00001000000A626A R
(1782240597.600749) can0 12D#00000000000000D4 R
(1782240597.600884) can0 12D#0000000000000035 R
(1782240597.608445) can0 12E#000000000000C071 R
(1782240597.608702) can0 12A#10010000000A0077 R
(1782240597.608939) can0 5A0#000000000400003B R
(1782240597.609172) can0 121#00A901D20480005E R
(1782240597.609404) can0 129#000000010000005B R
(1782240597.609635) can0 120#000000000000005F R
(1782240597.626486) can0 541#00001000000A628B R
(1782240597.626653) can0 12D#000000000000005F R
(1782240597.626765) can0 12D#000000000000006A R
(1782240597.626871) can0 12E#000000000000C090 R
(1782240597.626976) can0 450#0000000000002800 R
(1782240597.627082) can0 121#00A901D20480006B R
(1782240597.640226) can0 129#000000010000006E R
(1782240597.640372) can0 120#000000000000006A R
(1782240597.640511) can0 541#00001000000A62BE R
(1782240597.640648) can0 12D#000000000000008B R
(1782240597.640789) can0 12D#00000000000000BE R
(1782240597.648379) can0 12E#000000000000C0A5 R
(1782240597.648649) can0 121#00A901D20480008A R
(1782240597.648887) can0 129#000000010000008F R
(1782240597.649123) can0 540#000040110001D600 R
(1782240597.649358) can0 5B0#100000000000005E R
(1782240597.649590) can0 120#000000000000008B R
(1782240597.663730) can0 541#00001000000A62D4 R
(1782240597.663990) can0 12D#00000000000000D4 R
(1782240597.664232) can0 12A#10050000000A0083 R
(1782240597.664475) can0 12D#0000000000000035 R
(1782240597.664712) can0 12E#000000000000C0CF R
(1782240597.664951) can0 121#00A901D2048000BF R
(1782240597.683391) can0 129#00000001000000BA R
(1782240597.686127) can0 120#00000000000000BE R
(1782240597.686189) can0 541#00001000000A6235 R
(1782240597.686252) can0 12D#000000000000005F R
(1782240597.686312) can0 450#0000000000002800 R
(1782240597.686373) can0 12D#000000000000006A R
(1782240597.699999) can0 12E#000000000000C02E R
(1782240597.700056) can0 121#00A901D2048000D5 R
(1782240597.700111) can0 129#00000001000000D0 R
(1782240597.700166) can0 120#00000000000000D4 R
(1782240597.700221) can0 541#00001000000A625F R
(1782240597.700277) can0 12D#000000000000008B R
(1782240597.703606) can0 12D#00000000000000BE R
(1782240597.703669) can0 12E#000000000000C044 R
(1782240597.703729) can0 12A#10050000000A00B6 R
(1782240597.703789) can0 5A0#0000000004000051 R
(1782240597.703848) can0 121#00A901D204800034 R
(1782240597.703908) can0 129#0000000100000031 R
(1782240597.721058) can0 120#0000000000000035 R
(1782240597.721127) can0 541#00001000000A626A R
(1782240597.721188) can0 12D#00000000000000D4 R
(1782240597.721248) can0 12D#0000000000000035 R
(1782240597.721307) can0 12E#000000000000C071 R
(1782240597.739794) can0 450#0000000000002800 R
(1782240597.739884) can0 121#00A901D20480005E R
(1782240597.739952) can0 129#000000010000005B R
(1782240597.740020) can0 120#000000000000005F R
(1782240597.740088) can0 541#00001000000A628B R
(1782240597.740154) can0 12D#000000000000005F R
(1782240597.745074) can0 12D#000000000000006A R
(1782240597.745190) can0 12E#000000000000C090 R
(1782240597.745277) can0 121#00A901D20480006B R
(1782240597.745348) can0 129#000000010000006E R
(1782240597.745416) can0 540#000040110001D600 R
(1782240597.745484) can0 5B0#100000000000006B R
(1782240597.763318) can0 120#000000000000006A R
(1782240597.763409) can0 541#00001000000A62BE R
(1782240597.763489) can0 12D#000000000000008B R
(1782240597.763564) can0 12A#10050000000A00DC R
(1782240597.763639) can0 12D#00000000000000BE R
(1782240597.763717) can0 12E#000000000000C0A5 R
(1782240597.779869) can0 121#00A901D20480008A R
(1782240597.779961) can0 129#000000010000008F R
(1782240597.780047) can0 120#000000000000008B R
(1782240597.780135) can0 541#00001000000A62D4 R
(1782240597.780222) can0 12D#00000000000000D4 R
(1782240597.780308) can0 450#0000000000002800 R
(1782240597.788439) can0 12D#0000000000000035 R
(1782240597.788530) can0 12E#000000000000C0CF R
(1782240597.788618) can0 121#00A901D2048000BF R
(1782240597.788703) can0 129#00000001000000BA R
(1782240597.788790) can0 120#00000000000000BE R
(1782240597.803320) can0 541#00001000000A6235 R
(1782240597.803431) can0 12D#000000000000005F R
(1782240597.803538) can0 12D#000000000000006A R
(1782240597.803642) can0 12E#000000000000C02E R
(1782240597.803746) can0 12A#10050000000A003D R
(1782240597.803848) can0 5A0#0000000004000064 R
(1782240597.820147) can0 121#00A901D2048000D5 R
(1782240597.820356) can0 129#00000001000000D0 R
(1782240597.820472) can0 120#00000000000000D4 R
(1782240597.820582) can0 541#00001000000A625F R
(1782240597.820695) can0 12D#000000000000008B R
(1782240597.820800) can0 12D#00000000000000BE R
(1782240597.830022) can0 12E#000000000000C044 R
(1782240597.830144) can0 450#0000000000002800 R
(1782240597.830247) can0 121#00A901D204800034 R
(1782240597.830350) can0 129#0000000100000031 R
(1782240597.830454) can0 120#0000000000000035 R
(1782240597.830556) can0 541#00001000000A626A R
(1782240597.844074) can0 12D#00000000000000D4 R
(1782240597.844256) can0 12D#0000000000000035 R
(1782240597.844427) can0 12E#000000000000C071 R
(1782240597.844608) can0 121#00A901D20480005E R
(1782240597.844778) can0 129#000000010000005B R
(1782240597.844948) can0 540#000040110001D600 R
(1782240597.860232) can0 5B0#100000000000008A R
(1782240597.860331) can0 120#000000000000005F R
(1782240597.860419) can0 541#00001000000A628B R
(1782240597.860507) can0 12D#000000000000005F R
(1782240597.860594) can0 12A#10050000000A0057 R
(1782240597.860680) can0 12D#000000000000006A R
(1782240597.870060) can0 12E#000000000000C090 R
(1782240597.870167) can0 121#00A901D20480006B R
(1782240597.870271) can0 129#000000010000006E R
(1782240597.870377) can0 120#000000000000006A R
(1782240597.870482) can0 541#00001000000A62BE R
(1782240597.885025) can0 12D#000000000000008B R
(1782240597.885167) can0 450#0000000000002800 R
(1782240597.885273) can0 12D#00000000000000BE R
(1782240597.885378) can0 12E#000000000000C0A5 R
(1782240597.885480) can0 121#00A901D20480008A R
(1782240597.885585) can0 129#000000010000008F R
(1782240597.900674) can0 120#000000000000008B R
(1782240597.900827) can0 541#00001000000A62D4 R
(1782240597.900951) can0 12D#00000000000000D4 R
(1782240597.901068) can0 12D#0000000000000035 R
(1782240597.901188) can0 12E#000000000000C0CF R
(1782240597.901307) can0 12A#10050000000A0062 R
(1782240597.919883) can0 5A0#0000000004000085 R
(1782240597.920143) can0 121#00A901D2048000BF R
(1782240597.920382) can0 129#00000001000000BA R
(1782240597.920619) can0 120#00000000000000BE R
(1782240597.920854) can0 541#00001000000A6323 R
(1782240597.921087) can0 12D#000000000000005F R
(1782240597.932652) can0 12D#000000000000006A R
(1782240597.932796) can0 12E#000000000000C02E R
(1782240597.932873) can0 450#0000000000002800 R
(1782240597.932942) can0 121#00A901D2048000D5 R
(1782240597.933011) can0 129#00000001000000D0 R
(1782240597.933077) can0 120#00000000000000D4 R
(1782240597.943610) can0 541#00001000000A6349 R
(1782240597.943689) can0 12D#000000000000008B R
(1782240597.943763) can0 12D#00000000000000BE R
(1782240597.943836) can0 12E#000000000000C044 R
(1782240597.943920) can0 121#00A901D204800034 R
(1782240597.950160) can0 129#0000000100000031 R
(1782240597.950266) can0 540#000040110001D600 R
(1782240597.950367) can0 5B0#10000000000000BF R
(1782240597.950450) can0 120#0000000000000035 R
(1782240597.950527) can0 541#00001000000A637C R
(1782240597.950601) can0 12D#00000000000000D4 R
(1782240597.968375) can0 12A#10050000000A0083 R
(1782240597.968467) can0 12D#0000000000000035 R
(1782240597.968557) can0 12E#000000000000C071 R
(1782240597.968643) can0 121#00A901D20480005E R
(1782240597.968729) can0 129#000000010000005B R
(1782240597.968825) can0 120#000000000000005F R
(1782240597.983559) can0 541#00001000000A639D R
(1782240597.983669) can0 12D#000000000000005F R
(1782240597.983758) can0 450#0000000000002800 R
(1782240597.983845) can0 12D#000000000000006A R
(1782240597.983934) can0 12E#000000000000C090 R
(1782240597.984019) can0 121#00A901D20480006B R
(1782240598.000435) can0 129#000000010000006E R
(1782240598.000543) can0 120#000000000000006A R
(1782240598.000647) can0 541#00001000000A63A8 R
(1782240598.000750) can0 12D#000000000000008B R
(1782240598.000852) can0 12D#00000000000000BE R
(1782240598.000956) can0 12E#000000000000C0A5 R
(1782240598.008454) can0 12A#10050000000A00B6 R
(1782240598.008562) can0 5A0#00000000040000B0 R
(1782240598.008665) can0 121#00A901D20480008A R
(1782240598.008770) can0 129#000000010000008F R
(1782240598.008872) can0 120#000000000000008B R
(1782240598.008976) can0 541#00001000000A63C2 R
(1782240598.026951) can0 12D#00000000000000D4 R
(1782240598.027110) can0 12D#0000000000000035 R
(1782240598.027224) can0 12E#000000000000C0CF R
(1782240598.027330) can0 450#0000000000002800 R
(1782240598.027437) can0 121#00A901D2048000BF R
(1782240598.043549) can0 129#00000001000000BA R
(1782240598.043743) can0 120#00000000000000BE R
(1782240598.043891) can0 541#00001000000A6323 R
(1782240598.044032) can0 12D#000000000000005F R
(1782240598.044170) can0 12D#000000000000006A R
(1782240598.044308) can0 12E#000000000000C02E R
(1782240598.049908) can0 121#00A901D2048000D5 R
(1782240598.050026) can0 129#00000001000000D0 R
(1782240598.050123) can0 540#000040110001D600 R
(1782240598.050220) can0 5B0#10000000000000D5 R
(1782240598.050313) can0 120#00000000000000D4 R
(1782240598.050510) can0 541#00001000000A6349 R
(1782240598.065069) can0 12D#000000000000008B R
(1782240598.065252) can0 12A#10050000000A00DC R
(1782240598.065423) can0 12D#00000000000000BE R
(1782240598.065592) can0 12E#000000000000C044 R
(1782240598.065761) can0 121#00A901D204800034 R
(1782240598.065932) can0 129#0000000100000031 R
(1782240598.083441) can0 120#0000000000000035 R
(1782240598.083699) can0 541#00001000000A637C R
(1782240598.083945) can0 12D#00000000000000D4 R
(1782240598.084186) can0 450#0000000000002800 R
(1782240598.084426) can0 12D#0000000000000035 R
(1782240598.084668) can0 12E#000000000000C071 R
(1782240598.100096) can0 121#00A901D20480005E R
(1782240598.100346) can0 129#000000010000005B R
(1782240598.100584) can0 120#000000000000005F R
(1782240598.100823) can0 541#00001000000A639D R
(1782240598.101062) can0 12D#000000000000005F R
(1782240598.105021) can0 12D#000000000000006A R
(1782240598.105278) can0 12E#000000000000C090 R
(1782240598.105512) can0 12A#10050000000A003D R
(1782240598.105747) can0 5A0#00000000040000DA R
(1782240598.105983) can0 121#00A901D20480006B R
(1782240598.106215) can0 129#000000010000006E R
(1782240598.126675) can0 120#000000000000006A R
(1782240598.126799) can0 541#00001000000A63A8 R
(1782240598.126907) can0 12D#000000000000008B R
(1782240598.127015) can0 12D#00000000000000BE R
(1782240598.127120) can0 12E#000000000000C0A5 R
(1782240598.127230) can0 450#0000000000002800 R
(1782240598.140085) can0 121#00A901D20480008A R
(1782240598.140228) can0 129#000000010000008F R
(1782240598.140335) can0 120#000000000000008B R
(1782240598.140439) can0 541#00001000000A63C2 R
(1782240598.140545) can0 12D#00000000000000D4 R
(1782240598.140651) can0 12D#0000000000000035 R
(1782240598.144389) can0 12E#000000000000C0CF R
(1782240598.144504) can0 121#00A901D2048000BF R
(1782240598.144614) can0 129#00000001000000BA R
(1782240598.144716) can0 540#000040110001D600 R
(1782240598.144819) can0 5B0#1000000000000034 R
(1782240598.160678) can0 120#00000000000000BE R
(1782240598.160802) can0 541#00001000000A6323 R
(1782240598.160920) can0 12D#000000000000005F R
(1782240598.161035) can0 12A#10050000000A0057 R
(1782240598.170013) can0 12D#000000000000006A R
(1782240598.170206) can0 12E#000000000000C02E R
(1782240598.170376) can0 121#00A901D2048000D5 R
(1782240598.170545) can0 129#00000001000000D0 R
(1782240598.170714) can0 120#00000000000000D4 R
(1782240598.170883) can0 541#00001000000A6349 R
(1782240598.185052) can0 12D#000000000000008B R
(1782240598.185166) can0 450#0000000000002800 R
(1782240598.185275) can0 12D#00000000000000BE R
(1782240598.185380) can0 12E#000000000000C044 R
(1782240598.185485) can0 121#00A901D204800034 R
(1782240598.185588) can0 129#0000000100000031 R
(1782240598.200784) can0 120#0000000000000035 R
(1782240598.200934) can0 541#00001000000A637C R
(1782240598.201032) can0 12D#00000000000000D4 R
(1782240598.201129) can0 12D#0000000000000035 R
(1782240598.201223) can0 12E#000000000000C071 R
(1782240598.201325) can0 12A#10050000000A0062 R
(1782240598.210093) can0 5A0#000000000400003B R
(1782240598.210238) can0 121#00A901D20480005E R
(1782240598.210357) can0 129#000000010000005B R
(1782240598.210475) can0 120#000000000000005F R
(1782240598.210590) can0 541#00001000000A639D R
(1782240598.225546) can0 12D#000000000000005F R
(1782240598.225756) can0 12D#000000000000006A R
(1782240598.225875) can0 12E#000000000000C090 R
(1782240598.225989) can0 450#0000000000002800 R
(1782240598.226096) can0 121#00A901D20480006B R
(1782240598.226205) can0 129#000000010000006E R
(1782240598.243637) can0 120#000000000000006A R
(1782240598.243815) can0 541#00001000000A63A8 R
(1782240598.243922) can0 12D#000000000000008B R
(1782240598.244027) can0 12D#00000000000000BE R
(1782240598.244127) can0 12E#000000000000C0A5 R
(1782240598.244224) can0 121#00A901D20480008A R
(1782240598.250208) can0 129#000000010000008F R
(1782240598.250334) can0 540#000040110001D600 R
(1782240598.250443) can0 5B0#100000000000005E R
(1782240598.250540) can0 120#000000000000008B R
(1782240598.250640) can0 541#00001000000A63C2 R
(1782240598.250741) can0 12D#00000000000000D4 R
(1782240598.268395) can0 12A#10050000000A0083 R
(1782240598.268517) can0 12D#0000000000000035 R
(1782240598.268614) can0 12E#000000000000C0CF R
(1782240598.268709) can0 121#00A901D2048000BF R
(1782240598.268803) can0 129#00000001000000BA R
(1782240598.268898) can0 120#00000000000000BE R
(1782240598.283445) can0 541#00001000000A6323 R
(1782240598.283707) can0 12D#000000000000005F R
(1782240598.283947) can0 450#0000000000002800 R
(1782240598.284190) can0 12D#000000000000006A R
(1782240598.284427) can0 12E#000000000000C02E R
(1782240598.284665) can0 121#00A901D2048000D5 R
(1782240598.300335) can0 129#00000001000000D0 R
(1782240598.300542) can0 120#00000000000000D4 R
(1782240598.300718) can0 541#00001000000A6349 R
(1782240598.300889) can0 12D#000000000000008B R
(1782240598.301070) can0 12D#00000000000000BE R
(1782240598.308374) can0 12E#000000000000C044 R
(1782240598.308651) can0 12A#10050000000A00B6 R
(1782240598.308894) can0 5A0#0000000004000051 R
(1782240598.309131) can0 121#00A901D204800034 R
(1782240598.309368) can0 129#0000000100000031 R
(1782240598.309601) can0 120#0000000000000035 R
(1782240598.326413) can0 541#00001000000A637C R
(1782240598.326517) can0 12D#00000000000000D4 R
(1782240598.326614) can0 12D#0000000000000035 R
(1782240598.326712) can0 12E#000000000000C071 R
(1782240598.326809) can0 450#0000000000002800 R
(1782240598.326904) can0 121#00A901D20480005E R
(1782240598.343345) can0 129#000000010000005B R
(1782240598.343490) can0 120#000000000000005F R
(1782240598.343625) can0 541#00001000000A639D R
(1782240598.343759) can0 12D#000000000000005F R
(1782240598.343892) can0 12D#000000000000006A R
(1782240598.344025) can0 12E#000000000000C090 R
(1782240598.350019) can0 121#00A901D20480006B R
(1782240598.350192) can0 129#000000010000006E R
(1782240598.350368) can0 540#000040110001D600 R
(1782240598.350571) can0 5B0#100000000000006B R
(1782240598.350743) can0 120#000000000000006A R
(1782240598.350913) can0 541#00001000000A63A8 R
(1782240598.363641) can0 12D#000000000000008B R
(1782240598.363750) can0 12A#10050000000A00DC R
(1782240598.363852) can0 12D#00000000000000BE R
(1782240598.363954) can0 12E#000000000000C0A5 R
(1782240598.364056) can0 121#00A901D20480008A R
(1782240598.380018) can0 129#000000010000008F R
(1782240598.380205) can0 120#000000000000008B R
(1782240598.380363) can0 541#00001000000A63C2 R
(1782240598.380512) can0 12D#00000000000000D4 R
(1782240598.380657) can0 450#0000000000002800 R
(1782240598.380801) can0 12D#0000000000000035 R
(1782240598.399963) can0 12E#000000000000C0CF R
(1782240598.400236) can0 121#00A901D2048000BF R
(1782240598.400480) can0 129#00000001000000BA R
(1782240598.400721) can0 120#00000000000000BE R
(1782240598.400961) can0 541#00001000000A6323 R
(1782240598.401197) can0 12D#000000000000005F R
(1782240598.405172) can0 12D#000000000000006A R
(1782240598.405426) can0 12E#000000000000C02E R
(1782240598.405676) can0 12A#10050000000A003D R
(1782240598.405867) can0 5A0#0000000004000064 R
(1782240598.406007) can0 121#00A901D2048000D5 R
(1782240598.406150) can0 129#00000001000000D0 R
(1782240598.425411) can0 120#00000000000000D4 R
(1782240598.433788) can0 541#00001000000A6349 R
(1782240598.433915) can0 12D#000000000000008B R
(1782240598.434022) can0 12D#00000000000000BE R
(1782240598.434176) can0 12E#000000000000C044 R
(1782240598.434310) can0 450#0000000000002800 R
(1782240598.439863) can0 121#00A901D204800034 R
(1782240598.439980) can0 129#0000000100000031 R
(1782240598.440092) can0 120#0000000000000035 R
(1782240598.440202) can0 541#00001000000A637C R
(1782240598.440311) can0 12D#00000000000000D4 R
(1782240598.440417) can0 12D#0000000000000035 R
(1782240598.445180) can0 12E#000000000000C071 R
(1782240598.445289) can0 121#00A901D20480005E R
(1782240598.445393) can0 129#000000010000005B R
(1782240598.445497) can0 540#000040110001D600 R
(1782240598.445602) can0 5B0#100000000000008A R
(1782240598.463297) can0 120#000000000000005F R
(1782240598.463459) can0 541#00001000000A639D R
(1782240598.463586) can0 12D#000000000000005F R
(1782240598.463711) can0 12A#10050000000A0057 R
(1782240598.463834) can0 12D#000000000000006A R
(1782240598.463957) can0 12E#000000000000C090 R
(1782240598.479818) can0 121#00A901D20480006B R
(1782240598.479939) can0 129#000000010000006E R
(1782240598.480044) can0 120#000000000000006A R
(1782240598.480148) can0 541#00001000000A63A8 R
(1782240598.480251) can0 12D#000000000000008B R
(1782240598.480353) can0 450#0000000000002800 R
(1782240598.491227) can0 12D#00000000000000BE R
(1782240598.491339) can0 12E#000000000000C0A5 R
(1782240598.491445) can0 121#00A901D20480008A R
(1782240598.491549) can0 129#000000010000008F R
(1782240598.491656) can0 120#000000000000008B R
(1782240598.491773) can0 541#00001000000A63C2 R
(1782240598.503715) can0 12D#00000000000000D4 R
(1782240598.503904) can0 12D#0000000000000035 R
(1782240598.504026) can0 12E#000000000000C0CF R
(1782240598.504146) can0 12A#10050000000A0062 R
(1782240598.504273) can0 5A0#0000000004000085 R
(1782240598.504391) can0 121#00A901D2048000BF R
(1782240598.520178) can0 129#00000001000000BA R
(1782240598.520393) can0 120#00000000000000BE R
(1782240598.520588) can0 541#00001000000A6323 R
(1782240598.520770) can0 12D#000000000000005F R
(1782240598.520944) can0 12D#000000000000006A R
(1782240598.529966) can0 12E#000000000000C02E R
(1782240598.530096) can0 450#0000000000002800 R
(1782240598.530200) can0 121#00A901D2048000D5 R
(1782240598.530303) can0 129#00000001000000D0 R
(1782240598.530406) can0 120#00000000000000D4 R
(1782240598.530513) can0 541#00001000000A6349 R
(1782240598.544056) can0 12D#000000000000008B R
(1782240598.544306) can0 12D#00000000000000BE R
(1782240598.544539) can0 12E#000000000000C044 R
(1782240598.544772) can0 121#00A901D204800034 R
(1782240598.545004) can0 129#0000000100000031 R
(1782240598.545237) can0 540#000040110001D600 R
(1782240598.560403) can0 5B0#10000000000000BF R
(1782240598.560502) can0 120#0000000000000035 R
(1782240598.560592) can0 541#00001000000A637C R
(1782240598.560679) can0 12D#00000000000000D4 R
(1782240598.560771) can0 12A#10050000000A0083 R
(1782240598.560859) can0 12D#0000000000000035 R
(1782240598.571197) can0 12E#000000000000C071 R
(1782240598.571305) can0 121#00A901D20480005E R
(1782240598.571407) can0 129#000000010000005B R
(1782240598.571514) can0 120#000000000000005F R
(1782240598.571616) can0 541#00001000000A639D R
(1782240598.571717) can0 12D#000000000000005F R
(1782240598.585111) can0 450#0000000000002800 R
(1782240598.585270) can0 12D#000000000000006A R
(1782240598.585390) can0 12E#000000000000C090 R
(1782240598.585503) can0 121#00A901D20480006B R
(1782240598.585622) can0 129#000000010000006E R
(1782240598.585746) can0 120#000000000000006A R
(1782240598.600781) can0 541#00001000000A63A8 R
(1782240598.600956) can0 12D#000000000000008B R
(1782240598.601112) can0 12D#00000000000000BE R
(1782240598.601264) can0 12E#000000000000C0A5 R
(1782240598.601400) can0 12A#10050000000A00B6 R
(1782240598.619759) can0 5A0#00000000040000B0 R
(1782240598.620024) can0 121#00A901D20480008A R
(1782240598.620272) can0 129#000000010000008F R
(1782240598.620512) can0 120#000000000000008B R
(1782240598.620750) can0 541#00001000000A63C2 R
(1782240598.620986) can0 12D#00000000000000D4 R
(1782240598.628375) can0 12D#0000000000000035 R
(1782240598.628491) can0 12E#000000000000C0CF R
(1782240598.628595) can0 450#0000000000002800 R
(1782240598.628698) can0 121#00A901D2048000BF R
(1782240598.628800) can0 129#00000001000000BA R
(1782240598.628905) can0 120#00000000000000BE R
(1782240598.643786) can0 541#00001000000A6323 R
(1782240598.643933) can0 12D#000000000000005F R
(1782240598.644042) can0 12D#000000000000006A R
(1782240598.644147) can0 12E#000000000000C02E R
(1782240598.644252) can0 121#00A901D2048000D5 R
(1782240598.644357) can0 129#00000001000000D0 R
(1782240598.660320) can0 540#000040110001D600 R
(1782240598.660486) can0 5B0#10000000000000D5 R
(1782240598.660602) can0 120#00000000000000D4 R
(1782240598.660710) can0 541#00001000000A6349 R
(1782240598.660823) can0 12D#000000000000008B R
(1782240598.660928) can0 12A#10050000000A00DC R
(1782240598.668443) can0 12D#00000000000000BE R
(1782240598.668562) can0 12E#000000000000C044 R
(1782240598.668676) can0 121#00A901D204800034 R
(1782240598.668790) can0 129#0000000100000031 R
(1782240598.668906) can0 120#0000000000000035 R
(1782240598.683563) can0 541#00001000000A637C R
(1782240598.683698) can0 12D#00000000000000D4 R
(1782240598.683803) can0 450#0000000000002800 R
(1782240598.683906) can0 12D#0000000000000035 R
(1782240598.684008) can0 12E#000000000000C071 R
(1782240598.684110) can0 121#00A901D20480005E R
(1782240598.700393) can0 129#000000010000005B R
(1782240598.700560) can0 120#000000000000005F R
(1782240598.700677) can0 541#00001000000A639D R
(1782240598.700790) can0 12D#000000000000005F R
(1782240598.700904) can0 12D#000000000000006A R
(1782240598.701015) can0 12E#000000000000C090 R
(1782240598.709957) can0 12A#10050000000A003D R
(1782240598.710116) can0 5A0#00000000040000DA R
(1782240598.710270) can0 121#00A901D20480006B R
(1782240598.710428) can0 129#000000010000006E R
(1782240598.710565) can0 120#000000000000006A R
(1782240598.710706) can0 541#00001000000A63A8 R
(1782240598.726306) can0 12D#000000000000008B R
(1782240598.726434) can0 12D#00000000000000BE R
(1782240598.726540) can0 12E#000000000000C0A5 R
(1782240598.726643) can0 450#0000000000002800 R
(1782240598.726748) can0 121#00A901D20480008A R
(1782240598.726851) can0 129#000000010000008F R
(1782240598.743443) can0 120#000000000000008B R
(1782240598.743616) can0 541#00001000000A63C2 R
(1782240598.743739) can0 12D#00000000000000D4 R
(1782240598.743868) can0 12D#0000000000000035 R
(1782240598.743989) can0 12E#000000000000C0CF R
(1782240598.744106) can0 121#00A901D2048000BF R
(1782240598.750033) can0 129#00000001000000BA R
(1782240598.750194) can0 540#000040110001D600 R
(1782240598.750338) can0 5B0#1000000000000034 R
(1782240598.750494) can0 120#00000000000000BE R
(1782240598.750637) can0 541#00001000000A6323 R
(1782240598.765042) can0 12D#000000000000005F R
(1782240598.765228) can0 12A#10050000000A0057 R
(1782240598.765346) can0 12D#000000000000006A R
(1782240598.765461) can0 12E#000000000000C02E R
(1782240598.765581) can0 121#00A901D2048000D5 R
(1782240598.765698) can0 129#00000001000000D0 R
(1782240598.783441) can0 120#00000000000000D4 R
(1782240598.783694) can0 541#00001000000A6349 R
(1782240598.783935) can0 12D#000000000000008B R
(1782240598.784170) can0 450#0000000000002800 R
(1782240598.784404) can0 12D#00000000000000BE R
(1782240598.784640) can0 12E#000000000000C044 R
(1782240598.800192) can0 121#00A901D204800034 R
(1782240598.800386) can0 129#0000000100000031 R
(1782240598.800563) can0 120#0000000000000035 R
(1782240598.800739) can0 541#00001000000A637C R
(1782240598.800912) can0 12D#00000000000000D4 R
(1782240598.801088) can0 12D#0000000000000035 R
(1782240598.808473) can0 12E#000000000000C071 R
(1782240598.808729) can0 12A#10050000000A0062 R
(1782240598.808965) can0 5A0#000000000400003B R
(1782240598.809197) can0 121#00A901D20480005E R
(1782240598.809431) can0 129#000000010000005B R
(1782240598.809669) can0 120#000000000000005F R
(1782240598.827291) can0 541#00001000000A639D R
(1782240598.827398) can0 12D#000000000000005F R
(1782240598.827489) can0 12D#000000000000006A R
(1782240598.827576) can0 12E#000000000000C090 R
(1782240598.827663) can0 450#0000000000002800 R
(1782240598.839983) can0 121#00A901D20480006B R
(1782240598.840128) can0 129#000000010000006E R
(1782240598.840233) can0 120#000000000000006A R
(1782240598.840338) can0 541#00001000000A63A8 R
(1782240598.840452) can0 12D#000000000000008B R
(1782240598.840556) can0 12D#00000000000000BE R
(1782240598.848366) can0 12E#000000000000C0A5 R
(1782240598.848490) can0 121#00A901D20480008A R
(1782240598.848594) can0 129#000000010000008F R
(1782240598.848700) can0 540#000040110001D600 R
(1782240598.848805) can0 5B0#100000000000005E R
(1782240598.848907) can0 120#000000000000008B R
(1782240598.863617) can0 541#00001000000A63C2 R
(1782240598.863727) can0 12D#00000000000000D4 R
(1782240598.863832) can0 12A#10050000000A0083 R
(1782240598.863936) can0 12D#0000000000000035 R
(1782240598.864041) can0 12E#000000000000C0CF R
(1782240598.864145) can0 121#00A901D2048000BF R
(1782240598.880124) can0 129#00000001000000BA R
(1782240598.880308) can0 120#00000000000000BE R
(1782240598.880452) can0 541#00001000000A6323 R
(1782240598.880614) can0 12D#000000000000005F R
(1782240598.880777) can0 450#0000000000002800 R
(1782240598.880943) can0 12D#000000000000006A R
(1782240598.893149) can0 12E#000000000000C02E R
(1782240598.893344) can0 121#00A901D2048000D5 R
(1782240598.893469) can0 129#00000001000000D0 R
(1782240598.893589) can0 120#00000000000000D4 R
(1782240598.893699) can0 541#00001000000A6349 R
(1782240598.893811) can0 12D#000000000000008B R
(1782240598.903777) can0 12D#00000000000000BE R
(1782240598.903940) can0 12E#000000000000C044 R
(1782240598.904083) can0 12A#10050000000A00B6 R
(1782240598.904222) can0 5A0#0000000004000051 R
(1782240598.904360) can0 121#00A901D204800034 R
(1782240598.921055) can0 129#0000000100000031 R
(1782240598.921321) can0 120#0000000000000035 R
(1782240598.921564) can0 541#00001000000A6474 R
(1782240598.921809) can0 12D#00000000000000D4 R
(1782240598.922047) can0 12D#0000000000000035 R
(1782240598.922281) can0 12E#000000000000C071 R
(1782240598.939809) can0 450#0000000000002800 R
(1782240598.939875) can0 121#00A901D20480005E R
(1782240598.939932) can0 129#000000010000005B R
(1782240598.939987) can0 120#000000000000005F R
(1782240598.940043) can0 541#00001000000A6495 R
(1782240598.940097) can0 12D#000000000000005F R
(1782240598.945147) can0 12D#000000000000006A R
(1782240598.945205) can0 12E#000000000000C090 R
(1782240598.945261) can0 121#00A901D20480006B R
(1782240598.945315) can0 129#000000010000006E R
(1782240598.945370) can0 540#000040110001D600 R
(1782240598.945424) can0 5B0#100000000000006B R
(1782240598.963412) can0 120#000000000000006A R
(1782240598.963480) can0 541#00001000000A64A0 R
(1782240598.963540) can0 12D#000000000000008B R
(1782240598.963600) can0 12A#10050000000A00DC R
(1782240598.963660) can0 12D#00000000000000BE R
(1782240598.963719) can0 12E#000000000000C0A5 R
(1782240598.971114) can0 121#00A901D20480008A R
(1782240598.971193) can0 129#000000010000008F R
(1782240598.971255) can0 120#000000000000008B R
(1782240598.971316) can0 541#00001000000A64CA R
(1782240598.971376) can0 12D#00000000000000D4 R
(1782240598.988351) can0 450#0000000000002800 R
(1782240598.988438) can0 12D#0000000000000035 R
(1782240598.988506) can0 12E#000000000000C0CF R
(1782240598.988572) can0 121#00A901D2048000BF R
(1782240598.988637) can0 129#00000001000000BA R
(1782240598.988703) can0 120#00000000000000BE R
(1782240599.003371) can0 541#00001000000A642B R
(1782240599.003448) can0 12D#000000000000005F R
(1782240599.003518) can0 12D#000000000000006A R
(1782240599.003585) can0 12E#000000000000C02E R
(1782240599.003651) can0 12A#10050000000A003D R
(1782240599.003718) can0 5A0#0000000004000064 R
(1782240599.020033) can0 121#00A901D2048000D5 R
(1782240599.020113) can0 129#00000001000000D0 R
(1782240599.020188) can0 120#00000000000000D4 R
(1782240599.020262) can0 541#00001000000A6441 R
(1782240599.020338) can0 12D#000000000000008B R
(1782240599.020411) can0 12D#00000000000000BE R
(1782240599.029993) can0 12E#000000000000C044 R
(1782240599.030089) can0 450#0000000000002800 R
(1782240599.030176) can0 121#00A901D204800034 R
(1782240599.030264) can0 129#0000000100000031 R
(1782240599.030350) can0 120#0000000000000035 R
(1782240599.030436) can0 541#00001000000A6474 R
(1782240599.043889) can0 12D#00000000000000D4 R
(1782240599.043979) can0 12D#0000000000000035 R
(1782240599.044067) can0 12E#000000000000C071 R
(1782240599.044154) can0 121#00A901D20480005E R
(1782240599.044240) can0 129#000000010000005B R
(1782240599.044326) can0 540#000040110001D700 R
(1782240599.059826) can0 5B0#100000000000008A R
(1782240599.059939) can0 120#000000000000005F R
(1782240599.060045) can0 541#00001000000A6495 R
(1782240599.060149) can0 12D#000000000000005F R
(1782240599.060252) can0 12A#10050000000A0057 R
(1782240599.069966) can0 12D#000000000000006A R
(1782240599.070164) can0 12E#000000000000C090 R
(1782240599.070290) can0 121#00A901D20480006B R
(1782240599.070408) can0 129#000000010000006E R
(1782240599.070521) can0 120#000000000000006A R
(1782240599.070626) can0 541#00001000000A64A0 R
(1782240599.085118) can0 12D#000000000000008B R
(1782240599.085344) can0 450#0000000000002800 R
(1782240599.085555) can0 12D#00000000000000BE R
(1782240599.085757) can0 12E#000000000000C0A5 R
(1782240599.085953) can0 121#00A901D20480008A R
(1782240599.086128) can0 129#000000010000008F R
(1782240599.100625) can0 120#000000000000008B R
(1782240599.100782) can0 541#00001000000A64CA R
(1782240599.100924) can0 12D#00000000000000D4 R
(1782240599.101060) can0 12D#0000000000000035 R
(1782240599.101197) can0 12E#000000000000C0CF R
(1782240599.101336) can0 12A#10050000000A0062 R
(1782240599.119854) can0 5A0#0000000004000085 R
(1782240599.120110) can0 121#00A901D2048000BF R
(1782240599.120345) can0 129#00000001000000BA R
(1782240599.120590) can0 120#00000000000000BE R
(1782240599.120824) can0 541#00001000000A642B R
(1782240599.121058) can0 12D#000000000000005F R
(1782240599.126762) can0 12D#000000000000006A R
(1782240599.126907) can0 12E#000000000000C02E R
(1782240599.127028) can0 450#0000000000002800 R
(1782240599.127130) can0 121#00A901D2048000D5 R
(1782240599.127232) can0 129#00000001000000D0 R
(1782240599.143563) can0 120#00000000000000D4 R
(1782240599.143825) can0 541#00001000000A6441 R
(1782240599.144063) can0 12D#000000000000008B R
(1782240599.144298) can0 12D#00000000000000BE R
(1782240599.144567) can0 12E#000000000000C044 R
(1782240599.144800) can0 121#00A901D204800034 R
(1782240599.150135) can0 129#0000000100000031 R
(1782240599.150384) can0 540#000040110001D700 R
(1782240599.150619) can0 5B0#10000000000000BF R
(1782240599.150852) can0 120#0000000000000035 R
(1782240599.151084) can0 541#00001000000A6474 R
(1782240599.151315) can0 12D#00000000000000D4 R
(1782240599.168394) can0 12A#10050000000A0083 R
(1782240599.168565) can0 12D#0000000000000035 R
(1782240599.168743) can0 12E#000000000000C071 R
(1782240599.168881) can0 121#00A901D20480005E R
(1782240599.169020) can0 129#000000010000005B R
(1782240599.169155) can0 120#000000000000005F R
(1782240599.183821) can0 541#00001000000A6495 R
(1782240599.183942) can0 12D#000000000000005F R
(1782240599.184051) can0 450#0000000000002800 R
(1782240599.184157) can0 12D#000000000000006A R
(1782240599.184282) can0 12E#000000000000C090 R
(1782240599.184385) can0 121#00A901D20480006B R
(1782240599.200204) can0 129#000000010000006E R
(1782240599.200368) can0 120#000000000000006A R
(1782240599.200490) can0 541#00001000000A64A0 R
(1782240599.200612) can0 12D#000000000000008B R
(1782240599.200727) can0 12D#00000000000000BE R
(1782240599.200833) can0 12E#000000000000C0A5 R
(1782240599.208465) can0 12A#10050000000A00B6 R
(1782240599.208651) can0 5A0#00000000040000B0 R
(1782240599.208817) can0 121#00A901D20480008A R
(1782240599.208976) can0 129#000000010000008F R
(1782240599.209113) can0 120#000000000000008B R
(1782240599.225710) can0 541#00001000000A64CA R
(1782240599.225935) can0 12D#00000000000000D4 R
(1782240599.226046) can0 12D#0000000000000035 R
(1782240599.226150) can0 12E#000000000000C0CF R
(1782240599.226249) can0 450#0000000000002800 R
(1782240599.226361) can0 121#00A901D2048000BF R
(1782240599.243387) can0 129#00000001000000BA R
(1782240599.243541) can0 120#00000000000000BE R
(1782240599.243653) can0 541#00001000000A642B R
(1782240599.243766) can0 12D#000000000000005F R
(1782240599.243865) can0 12D#000000000000006A R
(1782240599.243963) can0 12E#000000000000C02E R
(1782240599.249946) can0 121#00A901D2048000D5 R
(1782240599.250091) can0 129#00000001000000D0 R
(1782240599.250239) can0 540#000040110001D700 R
(1782240599.250389) can0 5B0#10000000000000D5 R
(1782240599.250532) can0 120#00000000000000D4 R
(1782240599.250675) can0 541#00001000000A6441 R
(1782240599.265148) can0 12D#000000000000008B R
(1782240599.265291) can0 12A#10050000000A00DC R
(1782240599.265412) can0 12D#00000000000000BE R
(1782240599.265528) can0 12E#000000000000C044 R
(1782240599.265645) can0 121#00A901D204800034 R
(1782240599.265762) can0 129#0000000100000031 R
(1782240599.280277) can0 120#0000000000000035 R
(1782240599.280590) can0 541#00001000000A6474 R
(1782240599.280845) can0 12D#00000000000000D4 R
(1782240599.281095) can0 450#0000000000002800 R
(1782240599.281343) can0 12D#0000000000000035 R
(1782240599.299852) can0 12E#000000000000C071 R
(1782240599.300031) can0 121#00A901D20480005E R
(1782240599.300177) can0 129#000000010000005B R
(1782240599.300318) can0 120#000000000000005F R
(1782240599.300460) can0 541#00001000000A6495 R
(1782240599.300594) can0 12D#000000000000005F R
(1782240599.305147) can0 12D#000000000000006A R
(1782240599.305402) can0 12E#000000000000C090 R
(1782240599.305641) can0 12A#10050000000A003D R
(1782240599.305878) can0 5A0#00000000040000DA R
(1782240599.306112) can0 121#00A901D20480006B R
(1782240599.306417) can0 129#000000010000006E R
(1782240599.326440) can0 120#000000000000006A R
(1782240599.326688) can0 541#00001000000A64A0 R
(1782240599.326972) can0 12D#000000000000008B R
(1782240599.327102) can0 12D#00000000000000BE R
(1782240599.327221) can0 12E#000000000000C0A5 R
(1782240599.327349) can0 450#0000000000002800 R
(1782240599.340025) can0 121#00A901D20480008A R
(1782240599.340208) can0 129#000000010000008F R
(1782240599.340381) can0 120#000000000000008B R
(1782240599.340554) can0 541#00001000000A64CA R
(1782240599.340724) can0 12D#00000000000000D4 R
(1782240599.340898) can0 12D#0000000000000035 R
(1782240599.345271) can0 12E#000000000000C0CF R
(1782240599.345511) can0 121#00A901D2048000BF R
(1782240599.345748) can0 129#00000001000000BA R
(1782240599.345992) can0 540#000040110001D700 R
(1782240599.346232) can0 5B0#1000000000000034 R
(1782240599.346468) can0 120#00000000000000BE R
(1782240599.363545) can0 541#00001000000A642B R
(1782240599.363787) can0 12D#000000000000005F R
(1782240599.364023) can0 12A#10050000000A0057 R
(1782240599.364254) can0 12D#000000000000006A R
(1782240599.364488) can0 12E#000000000000C02E R
(1782240599.379753) can0 121#00A901D2048000D5 R
(1782240599.380001) can0 129#00000001000000D0 R
(1782240599.380239) can0 120#00000000000000D4 R
(1782240599.380472) can0 541#00001000000A6441 R
(1782240599.380707) can0 12D#000000000000008B R
(1782240599.380941) can0 450#0000000000002800 R
(1782240599.393993) can0 12D#00000000000000BE R
(1782240599.394117) can0 12E#000000000000C044 R
(1782240599.394233) can0 121#00A901D204800034 R
(1782240599.394340) can0 129#0000000100000031 R
(1782240599.394444) can0 120#0000000000000035 R
(1782240599.394547) can0 541#00001000000A6474 R
(1782240599.403688) can0 12D#00000000000000D4 R
(1782240599.403844) can0 12D#0000000000000035 R
(1782240599.403989) can0 12E#000000000000C071 R
(1782240599.404101) can0 12A#10050000000A0062 R
(1782240599.404212) can0 5A0#000000000400003B R
(1782240599.404326) can0 121#00A901D20480005E R
(1782240599.421122) can0 129#000000010000005B R
(1782240599.421323) can0 120#000000000000005F R
(1782240599.421496) can0 541#00001000000A6495 R
(1782240599.421669) can0 12D#000000000000005F R
(1782240599.421842) can0 12D#000000000000006A R
(1782240599.422023) can0 12E#000000000000C090 R
(1782240599.434697) can0 450#0000000000002800 R
(1782240599.434802) can0 121#00A901D20480006B R
(1782240599.434895) can0 129#000000010000006E R
(1782240599.435009) can0 120#000000000000006A R
(1782240599.435152) can0 541#00001000000A64A0 R
(1782240599.444092) can0 12D#000000000000008B R
(1782240599.444223) can0 12D#00000000000000BE R
(1782240599.444327) can0 12E#000000000000C0A5 R
(1782240599.444434) can0 121#00A901D20480008A R
(1782240599.444538) can0 129#000000010000008F R
(1782240599.444651) can0 540#000040110001D700 R
(1782240599.459954) can0 5B0#100000000000005E R
(1782240599.460063) can0 120#000000000000008B R
(1782240599.460167) can0 541#00001000000A64CA R
(1782240599.460271) can0 12D#00000000000000D4 R
(1782240599.460375) can0 12A#10050000000A0083 R
(1782240599.460478) can0 12D#0000000000000035 R
(1782240599.471129) can0 12E#000000000000C0CF R
(1782240599.471317) can0 121#00A901D2048000BF R
(1782240599.471429) can0 129#00000001000000BA R
(1782240599.471533) can0 120#00000000000000BE R
(1782240599.471636) can0 541#00001000000A642B R
(1782240599.471739) can0 12D#000000000000005F R
(1782240599.488428) can0 450#0000000000002800 R
(1782240599.488574) can0 12D#000000000000006A R
(1782240599.488687) can0 12E#000000000000C02E R
(1782240599.488797) can0 121#00A901D2048000D5 R
(1782240599.488910) can0 129#00000001000000D0 R
(1782240599.489033) can0 120#00000000000000D4 R
(1782240599.500651) can0 541#00001000000A6441 R
(1782240599.500771) can0 12D#000000000000008B R
(1782240599.500877) can0 12D#00000000000000BE R
(1782240599.500980) can0 12E#000000000000C044 R
(1782240599.501084) can0 12A#10050000000A00B6 R
(1782240599.501189) can0 5A0#0000000004000051 R
(1782240599.519842) can0 121#00A901D204800034 R
(1782240599.520005) can0 129#0000000100000031 R
(1782240599.520147) can0 120#0000000000000035 R
(1782240599.520271) can0 541#00001000000A6474 R
(1782240599.520399) can0 12D#00000000000000D4 R
(1782240599.528353) can0 12D#0000000000000035 R
(1782240599.528486) can0 12E#000000000000C071 R
(1782240599.528604) can0 450#0000000000002800 R
(1782240599.528718) can0 121#00A901D20480005E R
(1782240599.528834) can0 129#000000010000005B R
(1782240599.528950) can0 120#000000000000005F R
(1782240599.543958) can0 541#00001000000A6495 R
(1782240599.544201) can0 12D#000000000000005F R
(1782240599.544435) can0 12D#000000000000006A R
(1782240599.544669) can0 12E#000000000000C090 R
(1782240599.544902) can0 121#00A901D20480006B R
(1782240599.545133) can0 129#000000010000006E R
(1782240599.560260) can0 540#000040110001D700 R
(1782240599.560480) can0 5B0#100000000000006B R
(1782240599.560608) can0 120#000000000000006A R
(1782240599.560726) can0 541#00001000000A64A0 R
(1782240599.560835) can0 12D#000000000000008B R
(1782240599.560943) can0 12A#10050000000A00DC R
(1782240599.569957) can0 12D#00000000000000BE R
(1782240599.570081) can0 12E#000000000000C0A5 R
(1782240599.570177) can0 121#00A901D20480008A R
(1782240599.570271) can0 129#000000010000008F R
(1782240599.570411) can0 120#000000000000008B R
(1782240599.570521) can0 541#00001000000A64CA R
(1782240599.583758) can0 12D#00000000000000D4 R
(1782240599.583901) can0 450#0000000000002800 R
(1782240599.584035) can0 12D#0000000000000035 R
(1782240599.584154) can0 12E#000000000000C0CF R
(1782240599.584273) can0 121#00A901D2048000BF R
(1782240599.600298) can0 129#00000001000000BA R
(1782240599.600514) can0 120#00000000000000BE R
(1782240599.600693) can0 541#00001000000A642B R
(1782240599.600866) can0 12D#000000000000005F R
(1782240599.601039) can0 12D#000000000000006A R
(1782240599.601209) can0 12E#000000000000C02E R
(1782240599.609877) can0 12A#10050000000A003D R
(1782240599.610135) can0 5A0#0000000004000064 R
(1782240599.610375) can0 121#00A901D2048000D5 R
(1782240599.610613) can0 129#00000001000000D0 R
(1782240599.610851) can0 120#00000000000000D4 R
(1782240599.611089) can0 541#00001000000A6441 R
(1782240599.626082) can0 12D#000000000000008B R
(1782240599.626279) can0 12D#00000000000000BE R
(1782240599.626402) can0 12E#000000000000C044 R
(1782240599.626519) can0 450#0000000000002800 R
(1782240599.626637) can0 121#00A901D204800034 R
(1782240599.626755) can0 129#0000000100000031 R
(1782240599.643610) can0 120#0000000000000035 R
(1782240599.643729) can0 541#00001000000A6474 R
(1782240599.643827) can0 12D#00000000000000D4 R
(1782240599.643922) can0 12D#0000000000000035 R
(1782240599.644017) can0 12E#000000000000C071 R
(1782240599.644113) can0 121#00A901D20480005E R
(1782240599.649977) can0 129#000000010000005B R
(1782240599.650230) can0 540#000040110001D700 R
(1782240599.650467) can0 5B0#100000000000008A R
(1782240599.650704) can0 120#000000000000005F R
(1782240599.650941) can0 541#00001000000A6495 R
(1782240599.651177) can0 12D#000000000000005F R
(1782240599.665173) can0 12A#10050000000A0057 R
(1782240599.665298) can0 12D#000000000000006A R
(1782240599.665410) can0 12E#000000000000C090 R
(1782240599.665516) can0 121#00A901D20480006B R
(1782240599.665622) can0 129#000000010000006E R
(1782240599.683400) can0 120#000000000000006A R
(1782240599.683525) can0 541#00001000000A64A0 R
(1782240599.683623) can0 12D#000000000000008B R
(1782240599.683712) can0 450#0000000000002800 R
(1782240599.683800) can0 12D#00000000000000BE R
(1782240599.683887) can0 12E#000000000000C0A5 R
(1782240599.700042) can0 121#00A901D20480008A R
(1782240599.700175) can0 129#000000010000008F R
(1782240599.700281) can0 120#000000000000008B R
(1782240599.700387) can0 541#00001000000A64CA R
(1782240599.700490) can0 12D#00000000000000D4 R
(1782240599.700595) can0 12D#0000000000000035 R
(1782240599.708401) can0 12E#000000000000C0CF R
(1782240599.708549) can0 12A#10050000000A0062 R
(1782240599.708655) can0 5A0#0000000004000085 R
(1782240599.708761) can0 121#00A901D2048000BF R
(1782240599.708872) can0 129#00000001000000BA R
(1782240599.708985) can0 120#00000000000000BE R
(1782240599.724770) can0 541#00001000000A642B R
(1782240599.724922) can0 12D#000000000000005F R
(1782240599.725028) can0 12D#000000000000006A R
(1782240599.725136) can0 12E#000000000000C02E R
(1782240599.725241) can0 450#0000000000002800 R
(1782240599.725347) can0 121#00A901D2048000D5 R
(1782240599.740066) can0 129#00000001000000D0 R
(1782240599.740239) can0 120#00000000000000D4 R
(1782240599.740360) can0 541#00001000000A6441 R
(1782240599.740478) can0 12D#000000000000008B R
(1782240599.740594) can0 12D#00000000000000BE R
(1782240599.748377) can0 12E#000000000000C044 R
(1782240599.748629) can0 121#00A901D204800034 R
(1782240599.748849) can0 129#0000000100000031 R
(1782240599.749065) can0 540#000040110001D700 R
(1782240599.749274) can0 5B0#10000000000000BF R
(1782240599.749456) can0 120#0000000000000035 R
(1782240599.763631) can0 541#00001000000A6474 R
(1782240599.763768) can0 12D#00000000000000D4 R
(1782240599.763887) can0 12A#10050000000A0083 R
(1782240599.763977) can0 12D#0000000000000035 R
(1782240599.764065) can0 12E#000000000000C071 R
(1782240599.764160) can0 121#00A901D20480005E R
(1782240599.779993) can0 129#000000010000005B R
(1782240599.780140) can0 120#000000000000005F R
(1782240599.780267) can0 541#00001000000A6495 R
(1782240599.780380) can0 12D#000000000000005F R
(1782240599.780483) can0 450#0000000000002800 R
(1782240599.780589) can0 12D#000000000000006A R
(1782240599.799858) can0 12E#000000000000C090 R
(1782240599.800037) can0 121#00A901D20480006B R
(1782240599.800213) can0 129#000000010000006E R
(1782240599.800380) can0 120#000000000000006A R
(1782240599.800549) can0 541#00001000000A64A0 R
(1782240599.800687) can0 12D#000000000000008B R
(1782240599.803719) can0 12D#00000000000000BE R
(1782240599.803899) can0 12E#000000000000C0A5 R
(1782240599.804072) can0 12A#10050000000A00B6 R
(1782240599.804245) can0 5A0#00000000040000B0 R
(1782240599.804415) can0 121#00A901D20480008A R
(1782240599.804589) can0 129#000000010000008F R
(1782240599.821206) can0 120#000000000000008B R
(1782240599.821449) can0 541#00001000000A64CA R
(1782240599.821684) can0 12D#00000000000000D4 R
(1782240599.821918) can0 12D#0000000000000035 R
(1782240599.822157) can0 12E#000000000000C0CF R
(1782240599.839636) can0 450#0000000000002800 R
(1782240599.839842) can0 121#00A901D2048000BF R
(1782240599.840024) can0 129#00000001000000BA R
(1782240599.840204) can0 120#00000000000000BE R
(1782240599.840377) can0 541#00001000000A642B R
(1782240599.840549) can0 12D#000000000000005F R
(1782240599.845205) can0 12D#000000000000006A R
(1782240599.845454) can0 12E#000000000000C02E R
(1782240599.845692) can0 121#00A901D2048000D5 R
(1782240599.845933) can0 129#00000001000000D0 R
(1782240599.846167) can0 540#000040110001D700 R
(1782240599.846403) can0 5B0#10000000000000D5 R
(1782240599.863408) can0 120#00000000000000D4 R
(1782240599.863531) can0 541#00001000000A6441 R
(1782240599.863644) can0 12D#000000000000008B R
(1782240599.863761) can0 12A#10050000000A00DC R
(1782240599.863875) can0 12D#00000000000000BE R
(1782240599.863992) can0 12E#000000000000C044 R
(1782240599.879850) can0 121#00A901D204800034 R
(1782240599.880089) can0 129#0000000100000031 R
(1782240599.880322) can0 120#0000000000000035 R
(1782240599.880557) can0 541#00001000000A6474 R
(1782240599.880789) can0 12D#00000000000000D4 R
(1782240599.881028) can0 450#0000000000002800 R
(1782240599.888523) can0 12D#0000000000000035 R
(1782240599.888776) can0 12E#000000000000C071 R
(1782240599.889015) can0 121#00A901D20480005E R
(1782240599.889252) can0 129#000000010000005B R
(1782240599.889493) can0 120#000000000000005F R
(1782240599.903418) can0 541#00001000000A6495 R
(1782240599.903526) can0 12D#000000000000005F R
(1782240599.903596) can0 12D#000000000000006A R
(1782240599.903666) can0 12E#000000000000C090 R
(1782240599.903734) can0 12A#10050000000A003D R
(1782240599.903804) can0 5A0#00000000040000DA R
(1782240599.919914) can0 121#00A901D20480006B R
(1782240599.920010) can0 129#000000010000006E R
(1782240599.920086) can0 120#000000000000006A R
(1782240599.920165) can0 541#00001000000A65B6 R
(1782240599.920241) can0 12D#000000000000008B R
(1782240599.920315) can0 12D#00000000000000BE R
(1782240599.929886) can0 12E#000000000000C0A5 R
(1782240599.929964) can0 450#0000000000002800 R
(1782240599.930034) can0 121#00A901D20480008A R
(1782240599.930101) can0 129#000000010000008F R
(1782240599.930168) can0 120#000000000000008B R
(1782240599.930236) can0 541#00001000000A65DC R
(1782240599.944354) can0 12D#00000000000000D4 R
(1782240599.944449) can0 12D#0000000000000035 R
(1782240599.944526) can0 12E#000000000000C0CF R
(1782240599.944600) can0 121#00A901D2048000BF R
(1782240599.944674) can0 129#00000001000000BA R
(1782240599.944749) can0 540#000040110001D700 R
(1782240599.959754) can0 5B0#1000000000000034 R
(1782240599.959851) can0 120#00000000000000BE R
(1782240599.959938) can0 541#00001000000A653D R
(1782240599.960026) can0 12D#000000000000005F R
(1782240599.960113) can0 12A#10050000000A0057 R
(1782240599.960202) can0 12D#000000000000006A R
(1782240599.969866) can0 12E#000000000000C02E R
(1782240599.969956) can0 121#00A901D2048000D5 R
(1782240599.970033) can0 129#00000001000000D0 R
(1782240599.970107) can0 120#00000000000000D4 R
(1782240599.970183) can0 541#00001000000A6557 R
(1782240599.985150) can0 12D#000000000000008B R
(1782240599.985272) can0 450#0000000000002800 R
(1782240599.985381) can0 12D#00000000000000BE R
(1782240599.985469) can0 12E#000000000000C044 R
(1782240599.985574) can0 121#00A901D204800034 R
(1782240599.985663) can0 129#0000000100000031 R
(1782240600.000539) can0 120#0000000000000035 R
(1782240600.000654) can0 541#00001000000A6562 R
(1782240600.000760) can0 12D#00000000000000D4 R
(1782240600.000863) can0 12D#0000000000000035 R
(1782240600.000967) can0 12E#000000000000C071 R
(1782240600.001072) can0 12A#10050000000A0062 R
(1782240600.019989) can0 5A0#000000000400003B R
(1782240600.020219) can0 121#00A901D20480005E R
(1782240600.020354) can0 129#000000010000005B R
(1782240600.020483) can0 120#000000000000005F R
(1782240600.020619) can0 541#00001000000A6583 R
(1782240600.020755) can0 12D#000000000000005F R
(1782240600.028423) can0 12D#000000000000006A R
(1782240600.028559) can0 12E#000000000000C090 R
(1782240600.028681) can0 450#0000000000002800 R
(1782240600.028799) can0 121#00A901D20480006B R
(1782240600.028913) can0 129#000000010000006E R
(1782240600.029030) can0 120#000000000000006A R
(1782240600.043812) can0 541#00001000000A65B6 R
(1782240600.044060) can0 12D#000000000000008B R
(1782240600.044297) can0 12D#00000000000000BE R
(1782240600.044533) can0 12E#000000000000C0A5 R
(1782240600.044766) can0 121#00A901D20480008A R
(1782240600.050091) can0 129#000000010000008F R
(1782240600.050354) can0 540#000040110001D700 R
(1782240600.050590) can0 5B0#100000000000005E R
(1782240600.050828) can0 120#000000000000008B R
(1782240600.051065) can0 541#00001000000A65DC R
(1782240600.051303) can0 12D#00000000000000D4 R
(1782240600.068398) can0 12A#10050000000A0083 R
(1782240600.068619) can0 12D#0000000000000035 R
(1782240600.068832) can0 12E#000000000000C0CF R
(1782240600.069031) can0 121#00A901D2048000BF R
(1782240600.069218) can0 129#00000001000000BA R
(1782240600.069389) can0 120#00000000000000BE R
(1782240600.083770) can0 541#00001000000A653D R
(1782240600.083930) can0 12D#000000000000005F R
(1782240600.084071) can0 450#0000000000002800 R
(1782240600.084212) can0 12D#000000000000006A R
(1782240600.084351) can0 12E#000000000000C02E R
(1782240600.084489) can0 121#00A901D2048000D5 R
(1782240600.100365) can0 129#00000001000000D0 R
(1782240600.100564) can0 120#00000000000000D4 R
(1782240600.100738) can0 541#00001000000A6557 R
(1782240600.100911) can0 12D#000000000000008B R
(1782240600.101083) can0 12D#00000000000000BE R
(1782240600.101254) can0 12E#000000000000C044 R
(1782240600.108499) can0 12A#10050000000A00B6 R
(1782240600.108749) can0 5A0#0000000004000051 R
(1782240600.108994) can0 121#00A901D204800034 R
(1782240600.109231) can0 129#0000000100000031 R
(1782240600.109462) can0 120#0000000000000035 R
(1782240600.109694) can0 541#00001000000A6562 R
(1782240600.126393) can0 12D#00000000000000D4 R
(1782240600.126544) can0 12D#0000000000000035 R
(1782240600.126681) can0 12E#000000000000C071 R
(1782240600.126815) can0 450#0000000000002800 R
(1782240600.126938) can0 121#00A901D20480005E R
(1782240600.143400) can0 129#000000010000005B R
(1782240600.143701) can0 120#000000000000005F R
(1782240600.143940) can0 541#00001000000A6583 R
(1782240600.144173) can0 12D#000000000000005F R
(1782240600.144406) can0 12D#000000000000006A R
(1782240600.144638) can0 12E#000000000000C090 R
(1782240600.145196) can0 121#00A901D20480006B R
(1782240600.145434) can0 129#000000010000006E R
(1782240600.145667) can0 540#000040110001D700 R
(1782240600.145929) can0 5B0#100000000000006B R
(1782240600.161610) can0 120#000000000000006A R
(1782240600.161865) can0 541#00001000000A65B6 R
(1782240600.162102) can0 12D#000000000000008B R
(1782240600.162220) can0 12A#10050000000A00DC R
(1782240600.162340) can0 12D#00000000000000BE R
(1782240600.171096) can0 12E#000000000000C0A5 R
(1782240600.171291) can0 121#00A901D20480008A R
(1782240600.171462) can0 129#000000010000008F R
(1782240600.171632) can0 120#000000000000008B R
(1782240600.171801) can0 541#00001000000A65DC R
(1782240600.171971) can0 12D#00000000000000D4 R
(1782240600.188410) can0 450#0000000000002800 R
(1782240600.188530) can0 12D#0000000000000035 R
(1782240600.188625) can0 12E#000000000000C0CF R
(1782240600.188720) can0 121#00A901D2048000BF R
(1782240600.188812) can0 129#00000001000000BA R
(1782240600.188905) can0 120#00000000000000BE R
(1782240600.203542) can0 541#00001000000A653D R
(1782240600.203710) can0 12D#000000000000005F R
(1782240600.203835) can0 12D#000000000000006A R
(1782240600.203970) can0 12E#000000000000C02E R
(1782240600.204092) can0 12A#10050000000A003D R
(1782240600.204210) can0 5A0#0000000004000064 R
(1782240600.220060) can0 121#00A901D2048000D5 R
(1782240600.220231) can0 129#00000001000000D0 R
(1782240600.220364) can0 120#00000000000000D4 R
(1782240600.220481) can0 541#00001000000A6557 R
(1782240600.220590) can0 12D#000000000000008B R
(1782240600.220694) can0 12D#00000000000000BE R
(1782240600.228465) can0 12E#000000000000C044 R
(1782240600.228595) can0 450#0000000000002800 R
(1782240600.228703) can0 121#00A901D204800034 R
(1782240600.228811) can0 129#0000000100000031 R
(1782240600.228917) can0 120#0000000000000035 R
(1782240600.229025) can0 541#00001000000A6562 R
(1782240600.244059) can0 12D#00000000000000D4 R
(1782240600.244262) can0 12D#0000000000000035 R
(1782240600.244410) can0 12E#000000000000C071 R
(1782240600.244554) can0 121#00A901D20480005E R
(1782240600.244693) can0 129#000000010000005B R
(1782240600.260734) can0 540#000040110001D700 R
(1782240600.260977) can0 5B0#100000000000008A R
(1782240600.261106) can0 120#000000000000005F R
(1782240600.261224) can0 541#00001000000A6583 R
(1782240600.261339) can0 12D#000000000000005F R
(1782240600.261465) can0 12A#10050000000A0057 R
(1782240600.269929) can0 12D#000000000000006A R
(1782240600.270111) can0 12E#000000000000C090 R
(1782240600.270254) can0 121#00A901D20480006B R
(1782240600.270392) can0 129#000000010000006E R
(1782240600.270528) can0 120#000000000000006A R
(1782240600.270665) can0 541#00001000000A65B6 R
(1782240600.285239) can0 12D#000000000000008B R
(1782240600.285415) can0 450#0000000000002800 R
(1782240600.285583) can0 12D#00000000000000BE R
(1782240600.285733) can0 12E#000000000000C0A5 R
(1782240600.285876) can0 121#00A901D20480008A R
(1782240600.286013) can0 129#000000010000008F R
(1782240600.300690) can0 120#000000000000008B R
(1782240600.300921) can0 541#00001000000A65DC R
(1782240600.301100) can0 12D#00000000000000D4 R
(1782240600.301274) can0 12D#0000000000000035 R
(1782240600.301449) can0 12E#000000000000C0CF R
(1782240600.301625) can0 12A#10050000000A0062 R
(1782240600.309985) can0 5A0#0000000004000085 R
(1782240600.310291) can0 121#00A901D2048000BF R
(1782240600.310545) can0 129#00000001000000BA R
(1782240600.310783) can0 120#00000000000000BE R
(1782240600.311020) can0 541#00001000000A653D R
(1782240600.327295) can0 12D#000000000000005F R
(1782240600.327441) can0 12D#000000000000006A R
(1782240600.327560) can0 12E#000000000000C02E R
(1782240600.327680) can0 450#0000000000002800 R
(1782240600.327796) can0 121#00A901D2048000D5 R
(1782240600.327917) can0 129#00000001000000D0 R
(1782240600.343726) can0 120#00000000000000D4 R
(1782240600.344022) can0 541#00001000000A6557 R
(1782240600.344270) can0 12D#000000000000008B R
(1782240600.344509) can0 12D#00000000000000BE R
(1782240600.344750) can0 12E#000000000000C044 R
(1782240600.344990) can0 121#00A901D204800034 R
(1782240600.350150) can0 129#0000000100000031 R
(1782240600.350396) can0 540#000040110001D700 R
(1782240600.350634) can0 5B0#10000000000000BF R
(1782240600.350869) can0 120#0000000000000035 R
(1782240600.351103) can0 541#00001000000A6562 R
(1782240600.351338) can0 12D#00000000000000D4 R
(1782240600.368437) can0 12A#10050000000A0083 R
(1782240600.368584) can0 12D#0000000000000035 R
(1782240600.368700) can0 12E#000000000000C071 R
(1782240600.368818) can0 121#00A901D20480005E R
(1782240600.368934) can0 129#000000010000005B R
(1782240600.369050) can0 120#000000000000005F R
(1782240600.383581) can0 541#00001000000A6583 R
(1782240600.383901) can0 12D#000000000000005F R
(1782240600.384164) can0 450#0000000000002800 R
(1782240600.384417) can0 12D#000000000000006A R
(1782240600.384668) can0 12E#000000000000C090 R
(1782240600.384980) can0 121#00A901D20480006B R
(1782240600.400344) can0 129#000000010000006E R
(1782240600.400620) can0 120#000000000000006A R
(1782240600.400872) can0 541#00001000000A65B6 R
(1782240600.401115) can0 12D#000000000000008B R
(1782240600.401351) can0 12D#00000000000000BE R
(1782240600.408399) can0 12E#000000000000C0A5 R
(1782240600.408680) can0 12A#10050000000A00B6 R
(1782240600.408931) can0 5A0#00000000040000B0 R
(1782240600.409175) can0 121#00A901D20480008A R
(1782240600.409415) can0 129#000000010000008F R
(1782240600.409654) can0 120#000000000000008B R
(1782240600.429604) can0 541#00001000000A65DC R
(1782240600.435503) can0 12D#00000000000000D4 R
(1782240600.435681) can0 12D#0000000000000035 R
(1782240600.435823) can0 12E#000000000000C0CF R
(1782240600.435959) can0 450#0000000000002800 R
(1782240600.436083) can0 121#00A901D2048000BF R
(1782240600.443541) can0 129#00000001000000BA R
(1782240600.443631) can0 120#00000000000000BE R
(1782240600.443719) can0 541#00001000000A653D R
(1782240600.443807) can0 12D#000000000000005F R
(1782240600.443894) can0 12D#000000000000006A R
(1782240600.443980) can0 12E#000000000000C02E R
(1782240600.449785) can0 121#00A901D2048000D5 R
(1782240600.449894) can0 129#00000001000000D0 R
(1782240600.449998) can0 540#000040110001D700 R
(1782240600.450102) can0 5B0#10000000000000D5 R
(1782240600.450204) can0 120#00000000000000D4 R
(1782240600.450308) can0 541#00001000000A6557 R
(1782240600.463844) can0 12D#000000000000008B R
