(1781711790.071893) can0 12D#0000000000000000 R
(1781711790.072298) can0 12D#0000000000000000 R
(1781711790.072586) can0 12D#0000000000000000 R
(1781711790.072865) can0 12D#0000000000000000 R
(1781711790.073112) can0 12D#0000000000000000 R
(1781711790.073349) can0 12D#0000000000000000 R
(1781711790.073582) can0 12D#0000000000000000 R
(1781711790.073812) can0 12D#0000000000000000 R
(1781711790.074043) can0 12D#0000000000000000 R
(1781711790.074222) can0 12D#0000000000000000 R
(1781711790.074427) can0 12D#0000000000000000 R
(1781711790.074597) can0 12D#0000000000000000 R
(1781711790.074739) can0 12D#0000000000000000 R
(1781711790.074876) can0 12D#0000000000000000 R
(1781711790.075013) can0 12D#0000000000000000 R
(1781711790.075149) can0 12D#0000000000000000 R
(1781711790.075841) can0 12D#0000000000000000 R
(1781711790.076005) can0 12D#0000000000000000 R
(1781711790.076150) can0 12D#0000000000000000 R
(1781711790.076284) can0 12D#0000000000000000 R
(1781711790.076418) can0 12D#0000000000000000 R
(1781711790.076551) can0 12D#0000000000000035 R
(1781711790.077535) can0 12D#0000000000000035 R
(1781711790.077682) can0 12D#0000000000000035 R
(1781711790.077822) can0 12D#0000000000000035 R
(1781711790.077963) can0 12D#0000000000000035 R
(1781711790.078100) can0 12D#0000000000000035 R
(1781711790.079072) can0 12D#0000000000000035 R
(1781711790.079224) can0 12D#0000000000000035 R
(1781711790.079358) can0 12D#0000000000000035 R
(1781711790.079490) can0 12D#0000000000000035 R
(1781711790.079622) can0 12D#0000000000000035 R
(1781711790.079754) can0 12D#0000000000000035 R
(1781711790.080730) can0 12D#0000000000000035 R
(1781711790.080877) can0 12D#0000000000000035 R
(1781711790.081011) can0 12D#0000000000000035 R
(1781711790.081143) can0 12D#0000000000000035 R
(1781711790.081275) can0 12D#0000000000000035 R
(1781711790.081407) can0 12D#0000000000000035 R
(1781711790.082397) can0 12D#0000000000000035 R
(1781711790.082534) can0 12D#0000000000000035 R
(1781711790.082683) can0 12D#0000000000000035 R
(1781711790.082816) can0 12D#0000000000000035 R
(1781711790.082947) can0 12D#0000000000000035 R
(1781711790.083080) can0 12D#0000000000000035 R
(1781711790.084021) can0 12D#0000000000000035 R
(1781711790.084163) can0 12D#0000000000000035 R
(1781711790.084296) can0 12D#0000000000000035 R
(1781711790.084427) can0 12D#0000000000000035 R
(1781711790.084559) can0 12D#0000000000000035 R
(1781711790.084691) can0 12D#0000000000000035 R
(1781711790.085469) can0 12D#0000000000000035 R
(1781711790.085645) can0 12D#0000000000000035 R
(1781711790.085814) can0 12D#0000000000000035 R
(1781711790.085985) can0 12D#0000000000000035 R
(1781711790.086162) can0 12D#0000000000000035 R
(1781711790.086998) can0 12D#0000000000000035 R
(1781711790.087186) can0 12D#0000000000000035 R
(1781711790.087357) can0 12D#000000000000005F R
(1781711790.087525) can0 12D#000000000000005F R
(1781711790.087693) can0 12D#000000000000005F R
(1781711790.087858) can0 12D#000000000000005F R
(1781711790.088699) can0 12D#000000000000005F R
(1781711790.088880) can0 12D#000000000000005F R
(1781711790.089047) can0 12D#000000000000005F R
(1781711790.089220) can0 12D#000000000000005F R
(1781711790.089387) can0 12D#000000000000005F R
(1781711790.089555) can0 12D#000000000000005F R
(1781711790.099671) can0 12D#000000000000005F R
(1781711790.099914) can0 12D#000000000000005F R
(1781711790.100144) can0 12D#000000000000005F R
(1781711790.100373) can0 12E#0000000000000000 R
(1781711790.100600) can0 12D#000000000000006A R
(1781711790.100830) can0 12E#0000000000000035 R
(1781711790.106238) can0 121#0000000004840010 R
(1781711790.106483) can0 129#0000000100000004 R
(1781711790.106712) can0 540#0000000000000000 R
(1781711790.106959) can0 5B0#0000000000000000 R
(1781711790.107189) can0 120#0000000000000000 R
(1781711790.107428) can0 12D#000000000000008B R
(1781711790.120460) can0 12A#10010000000A001D R
(1781711790.120705) can0 12D#00000000000000BE R
(1781711790.120940) can0 12E#000000000000005F R
(1781711790.121171) can0 121#0000000004840025 R
(1781711790.121401) can0 129#0000000100000031 R
(1781711790.121634) can0 120#0000000000000035 R
(1781711790.141670) can0 12D#00000000000000D4 R
(1781711790.141954) can0 12D#0000000000000035 R
(1781711790.142198) can0 12E#000000000000006A R
(1781711790.142434) can0 121#00AC01D604800053 R
(1781711790.142668) can0 129#000000010000005B R
(1781711790.159535) can0 120#000000000000005F R
(1781711790.159661) can0 12D#000000000000005F R
(1781711790.159779) can0 12D#000000000000006A R
(1781711790.159868) can0 12E#000000000000008B R
(1781711790.159956) can0 12A#10010000000A0028 R
(1781711790.160043) can0 5A0#0000000000000000 R
(1781711790.179458) can0 121#00AC01D604800066 R
(1781711790.179551) can0 129#000000010000006E R
(1781711790.179628) can0 120#000000000000006A R
(1781711790.179704) can0 12D#000000000000008B R
(1781711790.179779) can0 12D#00000000000000BE R
(1781711790.179853) can0 12E#00000000000000BE R
(1781711790.199500) can0 121#00AC01D604800087 R
(1781711790.199590) can0 129#000000010000008F R
(1781711790.199675) can0 120#000000000000008B R
(1781711790.199762) can0 12D#00000000000000D4 R
(1781711790.199847) can0 12D#0000000000000035 R
(1781711790.199933) can0 12E#00000000000000D4 R
(1781711790.206126) can0 121#00AC01D6048000B2 R
(1781711790.206217) can0 129#00000001000000BA R
(1781711790.206304) can0 540#0000000100010000 R
(1781711790.206391) can0 5B0#0000000000000035 R
(1781711790.206477) can0 120#00000000000000BE R
(1781711790.206565) can0 12D#000000000000005F R
(1781711790.221347) can0 12A#10010000000A0042 R
(1781711790.221451) can0 12D#000000000000006A R
(1781711790.221553) can0 12E#0000000000000035 R
(1781711790.221659) can0 121#00AC01D6048000D8 R
(1781711790.221761) can0 129#00000001000000D0 R
(1781711790.241131) can0 120#00000000000000D4 R
(1781711790.241334) can0 12D#000000000000008B R
(1781711790.241461) can0 12D#00000000000000BE R
(1781711790.241577) can0 12E#000000000000005F R
(1781711790.241692) can0 121#00AC01D604800039 R
(1781711790.241806) can0 129#0000000100000031 R
(1781711790.259541) can0 120#0000000000000035 R
(1781711790.259844) can0 12D#00000000000000D4 R
(1781711790.260086) can0 12D#0000000000000035 R
(1781711790.260325) can0 12E#000000000000006A R
(1781711790.260556) can0 12A#10010000000A0077 R
(1781711790.260786) can0 5A0#0000000000000035 R
(1781711790.279523) can0 121#00AC01D604800053 R
(1781711790.279798) can0 129#000000010000005B R
(1781711790.280038) can0 120#000000000000005F R
(1781711790.280272) can0 12D#000000000000005F R
(1781711790.280507) can0 12D#000000000000006A R
(1781711790.280741) can0 12E#000000000000008B R
(1781711790.296092) can0 121#00AC01D604800066 R
(1781711790.296246) can0 129#000000010000006E R
(1781711790.296370) can0 541#00010000000B0E64 R
(1781711790.296487) can0 120#000000000000006A R
(1781711790.296602) can0 12D#000000000000008B R
(1781711790.296718) can0 12D#00000000000000BE R
(1781711790.301174) can0 12E#00000000000000BE R
(1781711790.301326) can0 121#00AC01D604800087 R
(1781711790.301462) can0 129#000000010000008F R
(1781711790.301596) can0 540#0000000100010000 R
(1781711790.301728) can0 5B0#100000000000005E R
(1781711790.301884) can0 120#000000000000008B R
(1781711790.319569) can0 541#00011000000B0F02 R
(1781711790.319813) can0 12D#00000000000000D4 R
(1781711790.320045) can0 12A#10010000000A0096 R
(1781711790.320278) can0 12D#0000000000000035 R
(1781711790.320510) can0 12E#00000000000000D4 R
(1781711790.335944) can0 121#00AC01D6048000B2 R
(1781711790.336379) can0 129#00000001000000BA R
(1781711790.336611) can0 120#00000000000000BE R
(1781711790.336842) can0 541#00011000000B0F37 R
(1781711790.337072) can0 12D#000000000000005F R
(1781711790.337303) can0 450#0000000000002800 R
(1781711790.346019) can0 12D#000000000000006A R
(1781711790.346275) can0 12E#0000000000000035 R
(1781711790.346512) can0 121#00A601CF048000D9 R
(1781711790.346748) can0 129#00000001000000D0 R
(1781711790.346982) can0 120#00000000000000D4 R
(1781711790.347215) can0 541#00011000000B0F5D R
(1781711790.359743) can0 12D#000000000000008B R
(1781711790.359984) can0 12D#00000000000000BE R
(1781711790.360215) can0 12E#000000000000005F R
(1781711790.360447) can0 12A#10010000000A00A3 R
(1781711790.360725) can0 5A0#000000000000005F R
(1781711790.360959) can0 121#00A601CF04800038 R
(1781711790.377444) can0 129#0000000100000031 R
(1781711790.377683) can0 120#0000000000000035 R
(1781711790.377915) can0 541#00011000000B0F68 R
(1781711790.378143) can0 12D#00000000000000D4 R
(1781711790.378374) can0 12D#0000000000000035 R
(1781711790.378608) can0 12E#000000000000006A R
(1781711790.386189) can0 450#0000000000002800 R
(1781711790.386424) can0 121#00A601CF04800052 R
(1781711790.386655) can0 129#000000010000005B R
(1781711790.386883) can0 120#000000000000005F R
(1781711790.387115) can0 541#00011000000B0F89 R
(1781711790.400154) can0 12D#000000000000005F R
(1781711790.400401) can0 12D#000000000000006A R
(1781711790.400631) can0 12E#000000000000008B R
(1781711790.400860) can0 121#00A601CF04800067 R
(1781711790.401092) can0 129#000000010000006E R
(1781711790.401322) can0 540#0000001100010000 R
(1781711790.416019) can0 5B0#100000000000006B R
(1781711790.416260) can0 120#000000000000006A R
(1781711790.416489) can0 541#00011000000B0FBC R
(1781711790.416717) can0 12D#000000000000008B R
(1781711790.416945) can0 12A#10010000000A00C9 R
(1781711790.417174) can0 12D#00000000000000BE R
(1781711790.427465) can0 12E#00000000000000BE R
(1781711790.427703) can0 121#00A601CF04800086 R
(1781711790.427933) can0 129#000000010000008F R
(1781711790.428163) can0 120#000000000000008B R
(1781711790.428393) can0 541#00011000000B0FD6 R
(1781711790.428622) can0 12D#00000000000000D4 R
(1781711790.443748) can0 450#0000000000002800 R
(1781711790.443999) can0 12D#0000000000000035 R
(1781711790.444235) can0 12E#00000000000000D4 R
(1781711790.444467) can0 121#00A601CF048000B3 R
(1781711790.444697) can0 129#00000001000000BA R
(1781711790.444928) can0 120#00000000000000BE R
(1781711790.457113) can0 541#00011000000B0F37 R
(1781711790.457350) can0 12D#000000000000005F R
(1781711790.457581) can0 12D#000000000000006A R
(1781711790.457810) can0 12E#0000000000000035 R
(1781711790.458040) can0 12A#10010000000A0028 R
(1781711790.458270) can0 5A0#000000000000006A R
(1781711790.476407) can0 121#00A601CF048000D9 R
(1781711790.476656) can0 129#00000001000000D0 R
(1781711790.476886) can0 120#00000000000000D4 R
(1781711790.477115) can0 541#00011000000B0F5D R
(1781711790.477344) can0 12D#000000000000008B R
(1781711790.483635) can0 12D#00000000000000BE R
(1781711790.483880) can0 12E#000000000000005F R
(1781711790.484109) can0 450#0000000000002800 R
(1781711790.484339) can0 121#00A601CF04800038 R
(1781711790.484567) can0 129#0000000100000031 R
(1781711790.484797) can0 120#0000000000000035 R
(1781711790.499992) can0 541#00011000000B0F68 R
(1781711790.500234) can0 12D#00000000000000D4 R
(1781711790.500465) can0 12D#0000000000000035 R
(1781711790.500693) can0 12E#000000000000006A R
(1781711790.500921) can0 121#00A601CF04800052 R
(1781711790.501148) can0 129#000000010000005B R
(1781711790.516253) can0 540#0000401000010000 R
(1781711790.516497) can0 5B0#100000000000008A R
(1781711790.516729) can0 120#000000000000005F R
(1781711790.516959) can0 541#00011000000B0F89 R
(1781711790.517188) can0 12D#000000000000005F R
(1781711790.517420) can0 12A#10010000000A0042 R
(1781711790.526426) can0 12D#000000000000006A R
(1781711790.526664) can0 12E#000000000000008B R
(1781711790.526895) can0 121#00A601CF04800067 R
(1781711790.527123) can0 129#000000010000006E R
(1781711790.527352) can0 120#000000000000006A R
(1781711790.527580) can0 541#00011000000B0FBC R
(1781711790.539668) can0 12D#000000000000008B R
(1781711790.539773) can0 450#0000000000002800 R
(1781711790.539865) can0 12D#00000000000000BE R
(1781711790.539956) can0 12E#00000000000000BE R
(1781711790.540047) can0 121#00A601CF04800086 R
(1781711790.556722) can0 129#000000010000008F R
(1781711790.556979) can0 120#000000000000008B R
(1781711790.557215) can0 541#00011000000B0FD6 R
(1781711790.557445) can0 12D#00000000000000D4 R
(1781711790.557677) can0 12D#0000000000000035 R
(1781711790.557907) can0 12E#00000000000000D4 R
(1781711790.566303) can0 12A#10010000000A0077 R
(1781711790.566555) can0 5A0#000000000000008B R
(1781711790.566786) can0 121#00A601CF048000B3 R
(1781711790.567016) can0 129#00000001000000BA R
(1781711790.567243) can0 120#00000000000000BE R
(1781711790.567471) can0 541#00011000000B0F37 R
(1781711790.581240) can0 12D#000000000000005F R
(1781711790.581490) can0 12D#000000000000006A R
(1781711790.581727) can0 12E#0000000000000035 R
(1781711790.581959) can0 450#0000000000002800 R
(1781711790.582201) can0 121#00A601CF048000D9 R
(1781711790.582432) can0 129#00000001000000D0 R
(1781711790.599942) can0 120#00000000000000D4 R
(1781711790.600180) can0 541#00011000000B0F5D R
(1781711790.600415) can0 12D#000000000000008B R
(1781711790.600651) can0 12D#00000000000000BE R
(1781711790.600882) can0 12E#000000000000005F R
(1781711790.601187) can0 121#00A601CF04800038 R
(1781711790.606522) can0 129#0000000100000031 R
(1781711790.606797) can0 540#0000401000010000 R
(1781711790.607035) can0 5B0#10000000000000BF R
(1781711790.607267) can0 120#0000000000000035 R
(1781711790.607498) can0 541#00011000000B0F68 R
(1781711790.607727) can0 12D#00000000000000D4 R
(1781711790.621315) can0 12A#10010000000A0096 R
(1781711790.621470) can0 12D#0000000000000035 R
(1781711790.621593) can0 12E#000000000000006A R
(1781711790.621706) can0 121#00A601CF04800052 R
(1781711790.621819) can0 129#000000010000005B R
(1781711790.639579) can0 120#000000000000005F R
(1781711790.639873) can0 541#00011000000B0F89 R
(1781711790.640115) can0 12D#000000000000005F R
(1781711790.640350) can0 450#0000000000002800 R
(1781711790.640584) can0 12D#000000000000006A R
(1781711790.640817) can0 12E#000000000000008B R
(1781711790.656609) can0 121#00A601CF04800067 R
(1781711790.656890) can0 129#000000010000006E R
(1781711790.657126) can0 120#000000000000006A R
(1781711790.657358) can0 541#00011000000B0FBC R
(1781711790.657589) can0 12D#000000000000008B R
(1781711790.657820) can0 12D#00000000000000BE R
(1781711790.663812) can0 12E#00000000000000BE R
(1781711790.664068) can0 12A#10010000000A00A3 R
(1781711790.664307) can0 5A0#00000000000000BE R
(1781711790.664539) can0 121#00A601CF04800086 R
(1781711790.664770) can0 129#000000010000008F R
(1781711790.665018) can0 120#000000000000008B R
(1781711790.676522) can0 541#00011000000B0FD6 R
(1781711790.676777) can0 12D#00000000000000D4 R
(1781711790.677534) can0 12D#0000000000000035 R
(1781711790.686389) can0 12E#00000000000000D4 R
(1781711790.686708) can0 450#0000000000002800 R
(1781711790.686947) can0 121#00A601CF048000B3 R
(1781711790.687180) can0 129#00000001000000BA R
(1781711790.687411) can0 120#00000000000000BE R
(1781711790.687642) can0 541#00011000000B0F37 R
(1781711790.700228) can0 12D#000000000000005F R
(1781711790.700379) can0 12D#000000000000006A R
(1781711790.700487) can0 12E#0000000000000035 R
(1781711790.700591) can0 121#00A601CF048000D9 R
(1781711790.700696) can0 129#00000001000000D0 R
(1781711790.700797) can0 540#0000401000010000 R
(1781711790.716710) can0 5B0#10000000000000D5 R
(1781711790.717004) can0 120#00000000000000D4 R
(1781711790.717239) can0 541#00011000000B0F5D R
(1781711790.717471) can0 12D#000000000000008B R
(1781711790.717714) can0 12A#10010000000A00C9 R
(1781711790.717945) can0 12D#00000000000000BE R
(1781711790.726583) can0 12E#000000000000005F R
(1781711790.726852) can0 121#00A601CF04800038 R
(1781711790.727092) can0 129#0000000100000031 R
(1781711790.727323) can0 120#0000000000000035 R
(1781711790.727551) can0 541#00011000000B0F68 R
(1781711790.741155) can0 12D#00000000000000D4 R
(1781711790.741438) can0 450#0000000000002800 R
(1781711790.741672) can0 12D#0000000000000035 R
(1781711790.741914) can0 12E#000000000000006A R
(1781711790.742173) can0 121#00A601CF04800052 R
(1781711790.742401) can0 129#000000010000005B R
(1781711790.757092) can0 120#000000000000005F R
(1781711790.757384) can0 541#00011000000B0F89 R
(1781711790.757631) can0 12D#000000000000005F R
(1781711790.757870) can0 12D#000000000000006A R
(1781711790.758106) can0 12E#000000000000008B R
(1781711790.758341) can0 12A#10010000000A0028 R
(1781711790.776190) can0 5A0#00000000000000D4 R
(1781711790.776438) can0 121#00A601CF04800067 R
(1781711790.776670) can0 129#000000010000006E R
(1781711790.776955) can0 120#000000000000006A R
(1781711790.777186) can0 541#00011000000B0FBC R
(1781711790.777417) can0 12D#000000000000008B R
(1781711790.783738) can0 12D#00000000000000BE R
(1781711790.783980) can0 12E#00000000000000BE R
(1781711790.784210) can0 450#0000000000002800 R
(1781711790.784437) can0 121#00A601CF04800086 R
(1781711790.784667) can0 129#000000010000008F R
(1781711790.784896) can0 120#000000000000008B R
(1781711790.800073) can0 541#00011000000B0FD6 R
(1781711790.800309) can0 12D#00000000000000D4 R
(1781711790.800536) can0 12D#0000000000000035 R
(1781711790.800765) can0 12E#00000000000000D4 R
(1781711790.800991) can0 121#00A601CF048000B3 R
(1781711790.801219) can0 129#00000001000000BA R
(1781711790.806741) can0 540#0000401000010000 R
(1781711790.806978) can0 5B0#1000000000000034 R
(1781711790.807210) can0 120#00000000000000BE R
(1781711790.807438) can0 541#00011000000B0F37 R
(1781711790.807664) can0 12D#000000000000005F R
(1781711790.823627) can0 12A#10010000000A0042 R
(1781711790.823880) can0 12D#000000000000006A R
(1781711790.824111) can0 12E#0000000000000035 R
(1781711790.824341) can0 121#00A601CF048000D9 R
(1781711790.824571) can0 129#00000001000000D0 R
(1781711790.824802) can0 120#00000000000000D4 R
(1781711790.839704) can0 541#00011000000B0F5D R
(1781711790.839988) can0 12D#000000000000008B R
(1781711790.840224) can0 450#0000000000002800 R
(1781711790.840455) can0 12D#00000000000000BE R
(1781711790.840685) can0 12E#000000000000005F R
(1781711790.840912) can0 121#00A601CF04800038 R
(1781711790.856768) can0 129#0000000100000031 R
(1781711790.857018) can0 120#0000000000000035 R
(1781711790.857248) can0 541#00011000000B0F68 R
(1781711790.857478) can0 12D#00000000000000D4 R
(1781711790.857706) can0 12D#0000000000000035 R
(1781711790.857934) can0 12E#000000000000006A R
(1781711790.866421) can0 12A#10010000000A0077 R
(1781711790.866659) can0 5A0#0000000000000035 R
(1781711790.866890) can0 121#00A601CF04800052 R
(1781711790.867118) can0 129#000000010000005B R
(1781711790.867346) can0 120#000000000000005F R
(1781711790.867574) can0 541#00011000000B0F89 R
(1781711790.879802) can0 12D#000000000000005F R
(1781711790.879990) can0 12D#000000000000006A R
(1781711790.880158) can0 12E#000000000000008B R
(1781711790.880326) can0 450#0000000000002800 R
(1781711790.880493) can0 121#00A601CF04800067 R
(1781711790.899388) can0 129#000000010000006E R
(1781711790.899657) can0 120#000000000000006A R
(1781711790.899891) can0 541#00011000000B0FBC R
(1781711790.900121) can0 12D#000000000000008B R
(1781711790.900352) can0 12D#00000000000000BE R
(1781711790.900581) can0 12E#00000000000000BE R
(1781711790.906308) can0 121#00A601CF04800086 R
(1781711790.906559) can0 129#000000010000008F R
(1781711790.906789) can0 540#0000401000010000 R
(1781711790.907017) can0 5B0#100000000000005E R
(1781711790.907243) can0 120#000000000000008B R
(1781711790.907471) can0 541#00011000000B0FD6 R
(1781711790.921148) can0 12D#00000000000000D4 R
(1781711790.921390) can0 12A#10010000000A0096 R
(1781711790.921621) can0 12D#0000000000000035 R
(1781711790.921852) can0 12E#00000000000000D4 R
(1781711790.922085) can0 121#00A601CF048000B3 R
(1781711790.922314) can0 129#00000001000000BA R
(1781711790.939523) can0 120#00000000000000BE R
(1781711790.939760) can0 541#00011000000B0F37 R
(1781711790.939990) can0 12D#000000000000005F R
(1781711790.940218) can0 450#0000000000002800 R
(1781711790.940448) can0 12D#000000000000006A R
(1781711790.940676) can0 12E#0000000000000035 R
(1781711790.956619) can0 121#00A601CF048000D9 R
(1781711790.956854) can0 129#00000001000000D0 R
(1781711790.957082) can0 120#00000000000000D4 R
(1781711790.957312) can0 541#00001000000B0F55 R
(1781711790.957548) can0 12D#000000000000008B R
(1781711790.957776) can0 12D#00000000000000BE R
(1781711790.961394) can0 12E#000000000000005F R
(1781711790.961627) can0 12A#10010000000A00A3 R
(1781711790.961857) can0 5A0#000000000000005F R
(1781711790.962087) can0 121#00A601CF04800038 R
(1781711790.962318) can0 129#0000000100000031 R
(1781711790.979588) can0 120#0000000000000035 R
(1781711790.979906) can0 541#00001000000B0F60 R
(1781711790.980164) can0 12D#00000000000000D4 R
(1781711790.980403) can0 12D#0000000000000035 R
(1781711790.980636) can0 12E#000000000000006A R
(1781711790.980869) can0 450#0000000000002800 R
(1781711790.996410) can0 121#00A601CF04800052 R
(1781711790.996664) can0 129#000000010000005B R
(1781711790.996901) can0 120#000000000000005F R
(1781711790.997142) can0 541#00001000000B0F81 R
(1781711790.997373) can0 12D#000000000000005F R
(1781711790.997604) can0 12D#000000000000006A R
(1781711791.003733) can0 12E#000000000000008B R
(1781711791.003977) can0 121#00A601CF04800067 R
(1781711791.004207) can0 129#000000010000006E R
(1781711791.004477) can0 540#0000401000010000 R
(1781711791.004725) can0 5B0#100000000000006B R
(1781711791.005020) can0 120#000000000000006A R
(1781711791.019859) can0 541#00001000000B0FB4 R
(1781711791.020139) can0 12D#000000000000008B R
(1781711791.020382) can0 12A#10010000000A00C9 R
(1781711791.020620) can0 12D#00000000000000BE R
(1781711791.020860) can0 12E#00000000000000BE R
(1781711791.021100) can0 121#00A601CF04800086 R
(1781711791.036327) can0 129#000000010000008F R
(1781711791.036591) can0 120#000000000000008B R
(1781711791.036827) can0 541#00001000000B0FDE R
(1781711791.037063) can0 12D#00000000000000D4 R
(1781711791.037297) can0 450#0000000000002800 R
(1781711791.046243) can0 12D#0000000000000035 R
(1781711791.046499) can0 12E#00000000000000D4 R
(1781711791.046734) can0 121#00A601CF048000B3 R
(1781711791.046966) can0 129#00000001000000BA R
(1781711791.047198) can0 120#00000000000000BE R
(1781711791.047430) can0 541#00001000000B0F3F R
(1781711791.059784) can0 12D#000000000000005F R
(1781711791.060060) can0 12D#000000000000006A R
(1781711791.060303) can0 12E#0000000000000035 R
(1781711791.060536) can0 12A#10010000000A0028 R
(1781711791.060768) can0 5A0#000000000000006A R
(1781711791.060999) can0 121#00A601CF048000D9 R
(1781711791.077410) can0 129#00000001000000D0 R
(1781711791.077671) can0 120#00000000000000D4 R
(1781711791.077908) can0 541#00001000000B0F55 R
(1781711791.078141) can0 12D#000000000000008B R
(1781711791.078408) can0 12D#00000000000000BE R
(1781711791.078648) can0 12E#000000000000C044 R
(1781711791.096235) can0 450#0000000000002800 R
(1781711791.096473) can0 121#00A601CF04800038 R
(1781711791.096702) can0 129#0000000100000031 R
(1781711791.096928) can0 120#0000000000000035 R
(1781711791.097158) can0 541#00001000000B0F60 R
(1781711791.097386) can0 12D#00000000000000D4 R
(1781711791.101329) can0 12D#0000000000000035 R
(1781711791.101567) can0 12E#000000000000C071 R
(1781711791.101800) can0 121#00A601CF04800052 R
(1781711791.102032) can0 129#000000010000005B R
(1781711791.102261) can0 540#0000401000010000 R
(1781711791.102492) can0 5B0#100000000000008A R
(1781711791.116536) can0 120#000000000000005F R
(1781711791.116774) can0 541#00001000000B0F81 R
(1781711791.117004) can0 12D#000000000000005F R
(1781711791.117233) can0 12A#10010000000A0042 R
(1781711791.117476) can0 12D#000000000000006A R
(1781711791.127395) can0 12E#000000000000C090 R
(1781711791.127655) can0 121#00A601CF04800067 R
(1781711791.127887) can0 129#000000010000006E R
(1781711791.128117) can0 120#000000000000006A R
(1781711791.128347) can0 541#00001000000B0FB4 R
(1781711791.128579) can0 12D#000000000000008B R
(1781711791.143706) can0 450#0000000000002800 R
(1781711791.143963) can0 12D#00000000000000BE R
(1781711791.144197) can0 12E#000000000000C0A5 R
(1781711791.144431) can0 121#00A601CF04800086 R
(1781711791.144661) can0 129#000000010000008F R
(1781711791.144888) can0 120#000000000000008B R
(1781711791.159582) can0 541#00001000000B0FDE R
(1781711791.159741) can0 12D#00000000000000D4 R
(1781711791.159852) can0 12D#0000000000000035 R
(1781711791.159956) can0 12E#000000000000C0CF R
(1781711791.160059) can0 12A#10010000000A0077 R
(1781711791.160146) can0 5A0#0000000004000085 R
(1781711791.176432) can0 121#00A601CF048000B3 R
(1781711791.176525) can0 129#00000001000000BA R
(1781711791.176596) can0 120#00000000000000BE R
(1781711791.176664) can0 541#00001000000B0F3F R
(1781711791.176730) can0 12D#000000000000005F R
(1781711791.176804) can0 12D#000000000000006A R
(1781711791.183941) can0 12E#000000000000C02E R
(1781711791.184005) can0 450#0000000000002800 R
(1781711791.184066) can0 121#00A601CF048000D9 R
(1781711791.184125) can0 129#00000001000000D0 R
(1781711791.184184) can0 120#00000000000000D4 R
(1781711791.199979) can0 541#00001000000B0F55 R
(1781711791.200055) can0 12D#000000000000008B R
(1781711791.200106) can0 12D#00000000000000BE R
(1781711791.200158) can0 12E#000000000000C044 R
(1781711791.200209) can0 121#00A601CF04800038 R
(1781711791.200259) can0 129#0000000100000031 R
(1781711791.216134) can0 540#0000401000010000 R
(1781711791.216201) can0 5B0#10000000000000BF R
(1781711791.216254) can0 120#0000000000000035 R
(1781711791.216308) can0 541#00001000000B0F60 R
(1781711791.216362) can0 12D#00000000000000D4 R
(1781711791.216416) can0 12A#10010000000A0096 R
(1781711791.226332) can0 12D#0000000000000035 R
(1781711791.226388) can0 12E#000000000000C071 R
(1781711791.226443) can0 121#00A601CF04800052 R
(1781711791.226497) can0 129#000000010000005B R
(1781711791.226551) can0 120#000000000000005F R
(1781711791.226606) can0 541#00001000000B109B R
(1781711791.241403) can0 12D#000000000000005F R
(1781711791.241466) can0 450#0000000000002800 R
(1781711791.241526) can0 12D#000000000000006A R
(1781711791.241585) can0 12E#000000000000C090 R
(1781711791.241644) can0 121#00A601CF04800067 R
(1781711791.241703) can0 129#000000010000006E R
(1781711791.257033) can0 120#000000000000006A R
(1781711791.257101) can0 541#00001000000B10AE R
(1781711791.257167) can0 12D#000000000000008B R
(1781711791.257234) can0 12D#00000000000000BE R
(1781711791.257300) can0 12E#000000000000C0A5 R
(1781711791.257367) can0 12A#10010000000A00A3 R
(1781711791.266354) can0 5A0#00000000040000B0 R
(1781711791.266423) can0 121#00A601CF04800086 R
(1781711791.266495) can0 129#000000010000008F R
(1781711791.266560) can0 120#000000000000008B R
(1781711791.266627) can0 541#00001000000B10C4 R
(1781711791.281159) can0 12D#00000000000000D4 R
(1781711791.281255) can0 12D#0000000000000035 R
(1781711791.281329) can0 12E#000000000000C0CF R
(1781711791.281403) can0 450#0000000000002800 R
(1781711791.281476) can0 121#00A601CF048000B3 R
(1781711791.281550) can0 129#00000001000000BA R
(1781711791.299691) can0 120#00000000000000BE R
(1781711791.299780) can0 541#00001000000B1025 R
(1781711791.299867) can0 12D#000000000000005F R
(1781711791.299952) can0 12D#000000000000006A R
(1781711791.300039) can0 12E#000000000000C02E R
(1781711791.300125) can0 121#00A601CF048000D9 R
(1781711791.306579) can0 129#00000001000000D0 R
(1781711791.306669) can0 540#0000401000010000 R
(1781711791.306754) can0 5B0#10000000000000D5 R
(1781711791.306840) can0 120#00000000000000D4 R
(1781711791.306926) can0 541#00001000000B104F R
(1781711791.307012) can0 12D#000000000000008B R
(1781711791.324685) can0 12A#10010000000A00C9 R
(1781711791.324791) can0 12D#00000000000000BE R
(1781711791.324894) can0 12E#000000000000C044 R
(1781711791.324997) can0 121#00A601CF04800038 R
(1781711791.325099) can0 129#0000000100000031 R
(1781711791.325200) can0 120#0000000000000035 R
(1781711791.339678) can0 541#00001000000B107A R
(1781711791.339860) can0 12D#00000000000000D4 R
(1781711791.339986) can0 450#0000000000002800 R
(1781711791.340104) can0 12D#0000000000000035 R
(1781711791.340218) can0 12E#000000000000C071 R
(1781711791.356473) can0 121#00A601CF04800052 R
(1781711791.356824) can0 129#000000010000005B R
(1781711791.357087) can0 120#000000000000005F R
(1781711791.357322) can0 541#00001000000B109B R
(1781711791.357553) can0 12D#000000000000005F R
(1781711791.357785) can0 12D#000000000000006A R
(1781711791.364658) can0 12E#000000000000C090 R
(1781711791.364910) can0 12A#10010000000A0028 R
(1781711791.365141) can0 5A0#00000000040000DA R
(1781711791.365370) can0 121#00A601CF04800067 R
(1781711791.365599) can0 129#000000010000006E R
(1781711791.365828) can0 120#000000000000006A R
(1781711791.379737) can0 541#00001000000B10AE R
(1781711791.379992) can0 12D#000000000000008B R
(1781711791.380228) can0 12D#00000000000000BE R
(1781711791.380459) can0 12E#000000000000C0A5 R
(1781711791.380689) can0 450#0000000000002800 R
(1781711791.380919) can0 121#00A601CF04800086 R
(1781711791.399535) can0 129#000000010000008F R
(1781711791.399781) can0 120#000000000000008B R
(1781711791.400011) can0 541#00001000000B10C4 R
(1781711791.400242) can0 12D#00000000000000D4 R
(1781711791.400472) can0 12D#0000000000000035 R
(1781711791.400709) can0 12E#000000000000C0CF R
(1781711791.406416) can0 121#00A601CF048000B3 R
(1781711791.406653) can0 129#00000001000000BA R
(1781711791.406886) can0 540#0000401000010000 R
(1781711791.407115) can0 5B0#1000000000000034 R
(1781711791.407345) can0 120#00000000000000BE R
(1781711791.407586) can0 541#00001000000B1025 R
(1781711791.419856) can0 12D#000000000000005F R
(1781711791.420095) can0 12A#10010000000A0042 R
(1781711791.420325) can0 12D#000000000000006A R
(1781711791.420558) can0 12E#000000000000C02E R
(1781711791.420790) can0 121#00A601CF048000D9 R
(1781711791.436348) can0 129#00000001000000D0 R
(1781711791.436606) can0 120#00000000000000D4 R
(1781711791.436838) can0 541#00001000000B104F R
(1781711791.437070) can0 12D#000000000000008B R
(1781711791.437307) can0 450#0000000000002800 R
(1781711791.437537) can0 12D#00000000000000BE R
(1781711791.456271) can0 12E#000000000000C044 R
(1781711791.456512) can0 121#00A601CF04800038 R
(1781711791.456747) can0 129#0000000100000031 R
(1781711791.456975) can0 120#0000000000000035 R
(1781711791.457205) can0 541#00001000000B107A R
(1781711791.457433) can0 12D#00000000000000D4 R
(1781711791.461270) can0 12D#0000000000000035 R
(1781711791.461504) can0 12E#000000000000C071 R
(1781711791.461733) can0 12A#10010000000A0077 R
(1781711791.461964) can0 5A0#000000000400003B R
(1781711791.462194) can0 121#00A601CF04800052 R
(1781711791.462423) can0 129#000000010000005B R
(1781711791.479625) can0 120#000000000000005F R
(1781711791.479909) can0 541#00001000000B109B R
(1781711791.480153) can0 12D#000000000000005F R
(1781711791.480389) can0 12D#000000000000006A R
(1781711791.480622) can0 12E#000000000000C090 R
(1781711791.480850) can0 450#0000000000002800 R
(1781711791.496279) can0 121#00A601CF04800067 R
(1781711791.496522) can0 129#000000010000006E R
(1781711791.496756) can0 120#000000000000006A R
(1781711791.496990) can0 541#00001000000B10AE R
(1781711791.497220) can0 12D#000000000000008B R
(1781711791.501185) can0 12D#00000000000000BE R
(1781711791.501431) can0 12E#000000000000C0A5 R
(1781711791.501664) can0 121#00A601CF04800086 R
(1781711791.501893) can0 129#000000010000008F R
(1781711791.502124) can0 540#0000401000010000 R
(1781711791.502354) can0 5B0#100000000000005E R
(1781711791.519478) can0 120#000000000000008B R
(1781711791.519725) can0 541#00001000000B10C4 R
(1781711791.519957) can0 12D#00000000000000D4 R
(1781711791.520187) can0 12A#10010000000A0096 R
(1781711791.520415) can0 12D#0000000000000035 R
(1781711791.520644) can0 12E#000000000000C0CF R
(1781711791.536198) can0 121#00A601CF048000B3 R
(1781711791.536443) can0 129#00000001000000BA R
(1781711791.536675) can0 120#00000000000000BE R
(1781711791.536911) can0 541#00001000000B1025 R
(1781711791.537142) can0 12D#000000000000005F R
(1781711791.537372) can0 450#0000000000002800 R
(1781711791.546349) can0 12D#000000000000006A R
(1781711791.546587) can0 12E#000000000000C02E R
(1781711791.546821) can0 121#00A601CF048000D9 R
(1781711791.547052) can0 129#00000001000000D0 R
(1781711791.547282) can0 120#00000000000000D4 R
(1781711791.547510) can0 541#00001000000B104F R
(1781711791.559866) can0 12D#000000000000008B R
(1781711791.560108) can0 12D#00000000000000BE R
(1781711791.560339) can0 12E#000000000000C044 R
(1781711791.560569) can0 12A#10010000000A00A3 R
(1781711791.560801) can0 5A0#0000000004000051 R
(1781711791.561030) can0 121#00A601CF04800038 R
(1781711791.576496) can0 129#0000000100000031 R
(1781711791.576736) can0 120#0000000000000035 R
(1781711791.576965) can0 541#00001000000B107A R
(1781711791.577196) can0 12D#00000000000000D4 R
(1781711791.577425) can0 12D#0000000000000035 R
(1781711791.586248) can0 12E#000000000000C071 R
(1781711791.586499) can0 450#0000000000002800 R
(1781711791.586777) can0 121#00A601CF04800052 R
(1781711791.587009) can0 129#000000010000005B R
(1781711791.587239) can0 120#000000000000005F R
(1781711791.587470) can0 541#00001000000B109B R
(1781711791.600239) can0 12D#000000000000005F R
(1781711791.600481) can0 12D#000000000000006A R
(1781711791.600713) can0 12E#000000000000C090 R
(1781711791.600941) can0 121#00A601CF04800067 R
(1781711791.601171) can0 129#000000010000006E R
(1781711791.601400) can0 540#0000401000010000 R
(1781711791.616445) can0 5B0#100000000000006B R
(1781711791.616681) can0 120#000000000000006A R
(1781711791.616908) can0 541#00001000000B10AE R
(1781711791.617139) can0 12D#000000000000008B R
(1781711791.617368) can0 12A#10010000000A00C9 R
(1781711791.617597) can0 12D#00000000000000BE R
(1781711791.627500) can0 12E#000000000000C0A5 R
(1781711791.627739) can0 121#00A601CF04800086 R
(1781711791.627968) can0 129#000000010000008F R
(1781711791.628198) can0 120#000000000000008B R
(1781711791.628426) can0 541#00001000000B10C4 R
(1781711791.628654) can0 12D#00000000000000D4 R
(1781711791.641341) can0 450#0000000000002800 R
(1781711791.641592) can0 12D#0000000000000035 R
(1781711791.641826) can0 12E#000000000000C0CF R
(1781711791.642058) can0 121#00A601CF048000B3 R
(1781711791.642286) can0 129#00000001000000BA R
(1781711791.656927) can0 120#00000000000000BE R
(1781711791.657091) can0 541#00001000000B1025 R
(1781711791.657227) can0 12D#000000000000005F R
(1781711791.657358) can0 12D#000000000000006A R
(1781711791.657488) can0 12E#000000000000C02E R
(1781711791.657618) can0 12A#10010000000A0028 R
(1781711791.676125) can0 5A0#0000000004000064 R
(1781711791.676371) can0 121#00A601CF048000D9 R
(1781711791.676604) can0 129#00000001000000D0 R
(1781711791.676835) can0 120#00000000000000D4 R
(1781711791.677065) can0 541#00001000000B104F R
(1781711791.677295) can0 12D#000000000000008B R
(1781711791.684705) can0 12D#00000000000000BE R
(1781711791.684947) can0 12E#000000000000C044 R
(1781711791.685182) can0 450#0000000000002800 R
(1781711791.685412) can0 121#00A601CF04800038 R
(1781711791.685642) can0 129#0000000100000031 R
(1781711791.685871) can0 120#0000000000000035 R
(1781711791.700055) can0 541#00001000000B107A R
(1781711791.700362) can0 12D#00000000000000D4 R
(1781711791.700598) can0 12D#0000000000000035 R
(1781711791.700829) can0 12E#000000000000C071 R
(1781711791.701060) can0 121#00A601CF04800052 R
(1781711791.701298) can0 129#000000010000005B R
(1781711791.716211) can0 540#0000401000010100 R
(1781711791.716347) can0 5B0#100000000000008A R
(1781711791.716451) can0 120#000000000000005F R
(1781711791.716549) can0 541#00001000000B109B R
(1781711791.716646) can0 12D#000000000000005F R
(1781711791.716742) can0 12A#10010000000A0042 R
(1781711791.724784) can0 12D#000000000000006A R
(1781711791.724931) can0 12E#000000000000C090 R
(1781711791.725047) can0 121#00A601CF04800067 R
(1781711791.725160) can0 129#000000010000006E R
(1781711791.725270) can0 120#000000000000006A R
(1781711791.739944) can0 541#00001000000B10AE R
(1781711791.740203) can0 12D#000000000000008B R
(1781711791.740435) can0 450#0000000000002800 R
(1781711791.740672) can0 12D#00000000000000BE R
(1781711791.740901) can0 12E#000000000000C0A5 R
(1781711791.741133) can0 121#00A601CF04800086 R
(1781711791.756707) can0 129#000000010000008F R
(1781711791.756958) can0 120#000000000000008B R
(1781711791.757190) can0 541#00001000000B10C4 R
(1781711791.757422) can0 12D#00000000000000D4 R
(1781711791.757656) can0 12D#0000000000000035 R
(1781711791.757890) can0 12E#000000000000C0CF R
(1781711791.766375) can0 12A#10010000000A0077 R
(1781711791.766641) can0 5A0#0000000004000085 R
(1781711791.766880) can0 121#00A601CF048000B3 R
(1781711791.767122) can0 129#00000001000000BA R
(1781711791.767355) can0 120#00000000000000BE R
(1781711791.767588) can0 541#00001000000B1025 R
(1781711791.781366) can0 12D#000000000000005F R
(1781711791.781609) can0 12D#000000000000006A R
(1781711791.781838) can0 12E#000000000000C02E R
(1781711791.782068) can0 450#0000000000002800 R
(1781711791.782297) can0 121#00A601CF048000D9 R
(1781711791.782525) can0 129#00000001000000D0 R
(1781711791.799624) can0 120#00000000000000D4 R
(1781711791.799862) can0 541#00001000000B104F R
(1781711791.800091) can0 12D#000000000000008B R
(1781711791.800319) can0 12D#00000000000000BE R
(1781711791.800546) can0 12E#000000000000C044 R
(1781711791.806222) can0 121#00A601CF04800038 R
(1781711791.806474) can0 129#0000000100000031 R
(1781711791.806712) can0 540#0000401000010100 R
(1781711791.806940) can0 5B0#10000000000000BF R
(1781711791.807168) can0 120#0000000000000035 R
(1781711791.807397) can0 541#00001000000B107A R
(1781711791.821197) can0 12D#00000000000000D4 R
(1781711791.821509) can0 12A#10010000000A0096 R
(1781711791.821763) can0 12D#0000000000000035 R
(1781711791.822000) can0 12E#000000000000C071 R
(1781711791.822243) can0 121#00A601CF04800052 R
(1781711791.822480) can0 129#000000010000005B R
(1781711791.839578) can0 120#000000000000005F R
(1781711791.839839) can0 541#00001000000B109B R
(1781711791.840076) can0 12D#000000000000005F R
(1781711791.840305) can0 450#0000000000002800 R
(1781711791.840535) can0 12D#000000000000006A R
(1781711791.840774) can0 12E#000000000000C090 R
(1781711791.856574) can0 121#00A601CF04800067 R
(1781711791.856825) can0 129#000000010000006E R
(1781711791.857057) can0 120#000000000000006A R
(1781711791.857287) can0 541#00001000000B10AE R
(1781711791.857516) can0 12D#000000000000008B R
(1781711791.857747) can0 12D#00000000000000BE R
(1781711791.864784) can0 12E#000000000000C0A5 R
(1781711791.865038) can0 12A#10010000000A00A3 R
(1781711791.865274) can0 5A0#00000000040000B0 R
(1781711791.865504) can0 121#00A601CF04800086 R
(1781711791.865733) can0 129#000000010000008F R
(1781711791.865961) can0 120#000000000000008B R
(1781711791.879651) can0 541#00001000000B10C4 R
(1781711791.879912) can0 12D#00000000000000D4 R
(1781711791.880152) can0 12D#0000000000000035 R
(1781711791.880396) can0 12E#000000000000C0CF R
(1781711791.880631) can0 450#0000000000002800 R
(1781711791.896291) can0 121#00A601CF048000B3 R
(1781711791.896580) can0 129#00000001000000BA R
(1781711791.896825) can0 120#00000000000000BE R
(1781711791.897064) can0 541#00001000000B1025 R
(1781711791.897302) can0 12D#000000000000005F R
(1781711791.897533) can0 12D#000000000000006A R
(1781711791.904775) can0 12E#000000000000C02E R
(1781711791.905028) can0 121#00A601CF048000D9 R
(1781711791.905268) can0 129#00000001000000D0 R
(1781711791.905504) can0 540#0000401000010100 R
(1781711791.905740) can0 5B0#10000000000000D5 R
(1781711791.905975) can0 120#00000000000000D4 R
(1781711791.919799) can0 541#00001000000B104F R
(1781711791.920058) can0 12D#000000000000008B R
(1781711791.920301) can0 12A#10010000000A00C9 R
(1781711791.920531) can0 12D#00000000000000BE R
(1781711791.920758) can0 12E#000000000000C044 R
(1781711791.920987) can0 121#00A601CF04800038 R
(1781711791.936516) can0 129#0000000100000031 R
(1781711791.936769) can0 120#0000000000000035 R
(1781711791.937002) can0 541#00001000000B107A R
(1781711791.937232) can0 12D#00000000000000D4 R
(1781711791.937464) can0 450#0000000000002800 R
(1781711791.937702) can0 12D#0000000000000035 R
(1781711791.946398) can0 12E#000000000000C071 R
(1781711791.946642) can0 121#00A601CF04800052 R
(1781711791.946877) can0 129#000000010000005B R
(1781711791.947108) can0 120#000000000000005F R
(1781711791.947337) can0 541#00001000000B109B R
(1781711791.959729) can0 12D#000000000000005F R
(1781711791.959998) can0 12D#000000000000006A R
(1781711791.960236) can0 12E#000000000000C090 R
(1781711791.960471) can0 12A#10010000000A0028 R
(1781711791.960702) can0 5A0#00000000040000DA R
(1781711791.960932) can0 121#00A601CF04800067 R
(1781711791.977340) can0 129#000000010000006E R
(1781711791.977586) can0 120#000000000000006A R
(1781711791.977819) can0 541#00001000000B10AE R
(1781711791.978051) can0 12D#000000000000008B R
(1781711791.978280) can0 12D#00000000000000BE R
(1781711791.978511) can0 12E#000000000000C0A5 R
(1781711791.996167) can0 450#0000000000002800 R
(1781711791.996416) can0 121#00A601CF04800086 R
(1781711791.996652) can0 129#000000010000008F R
(1781711791.996885) can0 120#000000000000008B R
(1781711791.997145) can0 541#00001000000B10C4 R
(1781711791.997376) can0 12D#00000000000000D4 R
(1781711792.001559) can0 12D#0000000000000035 R
(1781711792.001805) can0 12E#000000000000C0CF R
(1781711792.002039) can0 121#00A601CF048000B3 R
(1781711792.002271) can0 129#00000001000000BA R
(1781711792.002502) can0 540#0000401000010100 R
(1781711792.002733) can0 5B0#1000000000000034 R
(1781711792.019678) can0 120#00000000000000BE R
(1781711792.019950) can0 541#00001000000B1025 R
(1781711792.020184) can0 12D#000000000000005F R
(1781711792.020416) can0 12A#10010000000A0042 R
(1781711792.020652) can0 12D#000000000000006A R
(1781711792.020889) can0 12E#000000000000C02E R
(1781711792.027600) can0 121#00A601CF048000D9 R
(1781711792.028284) can0 129#00000001000000D0 R
(1781711792.028575) can0 120#00000000000000D4 R
(1781711792.028821) can0 541#00001000000B104F R
(1781711792.029182) can0 12D#000000000000008B R
(1781711792.044639) can0 450#0000000000002800 R
(1781711792.044923) can0 12D#00000000000000BE R
(1781711792.045157) can0 12E#000000000000C044 R
(1781711792.045388) can0 121#00A601CF04800038 R
(1781711792.045620) can0 129#0000000100000031 R
(1781711792.045852) can0 120#0000000000000035 R
(1781711792.059556) can0 541#00001000000B107A R
(1781711792.059813) can0 12D#00000000000000D4 R
(1781711792.060048) can0 12D#0000000000000035 R
(1781711792.060287) can0 12E#000000000000C071 R
(1781711792.060519) can0 12A#10010000000A0077 R
(1781711792.060750) can0 5A0#000000000400003B R
(1781711792.076394) can0 121#00A601CF04800052 R
(1781711792.076638) can0 129#000000010000005B R
(1781711792.076892) can0 120#000000000000005F R
(1781711792.077184) can0 541#00001000000B109B R
(1781711792.077434) can0 12D#000000000000005F R
(1781711792.077674) can0 12D#000000000000006A R
(1781711792.086397) can0 12E#000000000000C090 R
(1781711792.086642) can0 450#0000000000002800 R
(1781711792.086875) can0 121#00A601CF04800067 R
(1781711792.087109) can0 129#000000010000006E R
(1781711792.087343) can0 120#000000000000006A R
(1781711792.087579) can0 541#00001000000B10AE R
(1781711792.100198) can0 12D#000000000000008B R
(1781711792.100436) can0 12D#00000000000000BE R
(1781711792.100668) can0 12E#000000000000C0A5 R
(1781711792.100897) can0 121#00A601CF04800086 R
(1781711792.101126) can0 129#000000010000008F R
(1781711792.116051) can0 540#0000401000010100 R
(1781711792.116303) can0 5B0#100000000000005E R
(1781711792.116535) can0 120#000000000000008B R
(1781711792.116765) can0 541#00001000000B10C4 R
(1781711792.116994) can0 12D#00000000000000D4 R
(1781711792.117225) can0 12A#10050000000A0083 R
(1781711792.126261) can0 12D#0000000000000035 R
(1781711792.126518) can0 12E#000000000000C0CF R
(1781711792.126752) can0 121#00A601CF048000B3 R
(1781711792.126984) can0 129#00000001000000BA R
(1781711792.127213) can0 120#00000000000000BE R
(1781711792.127444) can0 541#00001000000B1025 R
(1781711792.141247) can0 12D#000000000000005F R
(1781711792.141489) can0 450#0000000000002800 R
(1781711792.141720) can0 12D#000000000000006A R
(1781711792.141952) can0 12E#000000000000C02E R
(1781711792.142182) can0 121#00A601CF048000D9 R
(1781711792.142422) can0 129#00000001000000D0 R
(1781711792.157057) can0 120#00000000000000D4 R
(1781711792.157306) can0 541#00001000000B104F R
(1781711792.157541) can0 12D#000000000000008B R
(1781711792.157773) can0 12D#00000000000000BE R
(1781711792.158005) can0 12E#000000000000C044 R
(1781711792.158236) can0 12A#10050000000A00B6 R
(1781711792.176240) can0 5A0#0000000004000051 R
(1781711792.176490) can0 121#00A601CF04800038 R
(1781711792.176722) can0 129#0000000100000031 R
(1781711792.176954) can0 120#0000000000000035 R
(1781711792.177186) can0 541#00001000000B107A R
(1781711792.177441) can0 12D#00000000000000D4 R
(1781711792.181388) can0 12D#0000000000000035 R
(1781711792.181634) can0 12E#000000000000C071 R
(1781711792.181868) can0 450#0000000000002800 R
(1781711792.182097) can0 121#00A601CF04800052 R
(1781711792.182327) can0 129#000000010000005B R
(1781711792.199726) can0 120#000000000000005F R
(1781711792.199979) can0 541#00001000000B109B R
(1781711792.200212) can0 12D#000000000000005F R
(1781711792.200442) can0 12D#000000000000006A R
(1781711792.200673) can0 12E#000000000000C090 R
(1781711792.200902) can0 121#00A601CF04800067 R
(1781711792.206509) can0 129#000000010000006E R
(1781711792.206791) can0 540#0000401000010100 R
(1781711792.207032) can0 5B0#100000000000006B R
(1781711792.207234) can0 120#000000000000006A R
(1781711792.207398) can0 541#00001000000B10AE R
(1781711792.207545) can0 12D#000000000000008B R
(1781711792.224743) can0 12A#10050000000A00DC R
(1781711792.224988) can0 12D#00000000000000BE R
(1781711792.225222) can0 12E#000000000000C0A5 R
(1781711792.225450) can0 121#00A601CF04800086 R
(1781711792.225680) can0 129#000000010000008F R
(1781711792.225909) can0 120#000000000000008B R
(1781711792.239854) can0 541#00001000000B11D2 R
(1781711792.240113) can0 12D#00000000000000D4 R
(1781711792.240356) can0 450#0000000000002800 R
(1781711792.240595) can0 12D#0000000000000035 R
(1781711792.240833) can0 12E#000000000000C0CF R
(1781711792.241072) can0 121#00A601CF048000B3 R
(1781711792.256591) can0 129#00000001000000BA R
(1781711792.256835) can0 120#00000000000000BE R
(1781711792.257074) can0 541#00001000000B1133 R
(1781711792.257304) can0 12D#000000000000005F R
(1781711792.257534) can0 12D#000000000000006A R
(1781711792.264596) can0 12E#000000000000C02E R
(1781711792.264853) can0 12A#10050000000A003D R
(1781711792.265086) can0 5A0#0000000004000064 R
(1781711792.265317) can0 121#00A601CF048000D9 R
(1781711792.265547) can0 129#00000001000000D0 R
(1781711792.265777) can0 120#00000000000000D4 R
(1781711792.279764) can0 541#00001000000B1159 R
(1781711792.280018) can0 12D#000000000000008B R
(1781711792.280251) can0 12D#00000000000000BE R
(1781711792.280481) can0 12E#000000000000C044 R
(1781711792.280724) can0 450#0000000000002800 R
(1781711792.280956) can0 121#00A601CF04800038 R
(1781711792.299561) can0 129#0000000100000031 R
(1781711792.299808) can0 120#0000000000000035 R
(1781711792.300039) can0 541#00001000000B116C R
(1781711792.300270) can0 12D#00000000000000D4 R
(1781711792.300501) can0 12D#0000000000000035 R
(1781711792.300737) can0 12E#000000000000C071 R
(1781711792.306312) can0 121#00A601CF04800052 R
(1781711792.306549) can0 129#000000010000005B R
(1781711792.306779) can0 540#0000401000010100 R
(1781711792.307008) can0 5B0#100000000000008A R
(1781711792.307237) can0 120#000000000000005F R
(1781711792.307467) can0 541#00001000000B118D R
(1781711792.321335) can0 12D#000000000000005F R
(1781711792.321586) can0 12A#10050000000A0057 R
(1781711792.321821) can0 12D#000000000000006A R
(1781711792.322053) can0 12E#000000000000C090 R
(1781711792.322281) can0 121#00A601CF04800067 R
(1781711792.322512) can0 129#000000010000006E R
(1781711792.336541) can0 120#000000000000006A R
(1781711792.336786) can0 541#00001000000B11B8 R
(1781711792.337023) can0 12D#000000000000008B R
(1781711792.337259) can0 450#0000000000002800 R
(1781711792.337492) can0 12D#00000000000000BE R
(1781711792.356140) can0 12E#000000000000C0A5 R
(1781711792.356391) can0 121#00A601CF04800086 R
(1781711792.356629) can0 129#000000010000008F R
(1781711792.356860) can0 120#000000000000008B R
(1781711792.357089) can0 541#00001000000B11D2 R
(1781711792.357318) can0 12D#00000000000000D4 R
(1781711792.361289) can0 12D#0000000000000035 R
(1781711792.361526) can0 12E#000000000000C0CF R
(1781711792.361759) can0 12A#10050000000A0062 R
(1781711792.361989) can0 5A0#0000000004000085 R
(1781711792.362219) can0 121#00A601CF048000B3 R
(1781711792.362450) can0 129#00000001000000BA R
(1781711792.379565) can0 120#00000000000000BE R
(1781711792.379810) can0 541#00001000000B1133 R
(1781711792.380045) can0 12D#000000000000005F R
(1781711792.380275) can0 12D#000000000000006A R
(1781711792.380505) can0 12E#000000000000C02E R
(1781711792.380733) can0 450#0000000000002800 R
(1781711792.396422) can0 121#00A601CF048000D9 R
(1781711792.396669) can0 129#00000001000000D0 R
(1781711792.396903) can0 120#00000000000000D4 R
(1781711792.397135) can0 541#00001000000B1159 R
(1781711792.397367) can0 12D#000000000000008B R
(1781711792.397599) can0 12D#00000000000000BE R
(1781711792.401424) can0 12E#000000000000C044 R
(1781711792.401659) can0 121#00A601CF04800038 R
(1781711792.401890) can0 129#0000000100000031 R
(1781711792.402119) can0 540#0000401000010100 R
(1781711792.402349) can0 5B0#10000000000000BF R
(1781711792.419477) can0 120#0000000000000035 R
(1781711792.419733) can0 541#00001000000B116C R
(1781711792.419966) can0 12D#00000000000000D4 R
(1781711792.420197) can0 12A#10050000000A0083 R
(1781711792.420428) can0 12D#0000000000000035 R
(1781711792.420658) can0 12E#000000000000C071 R
(1781711792.436113) can0 121#00A601CF04800052 R
(1781711792.436361) can0 129#000000010000005B R
(1781711792.436592) can0 120#000000000000005F R
(1781711792.436821) can0 541#00001000000B118D R
(1781711792.437051) can0 12D#000000000000005F R
(1781711792.437282) can0 450#0000000000002800 R
(1781711792.446267) can0 12D#000000000000006A R
(1781711792.446519) can0 12E#000000000000C090 R
(1781711792.446760) can0 121#00A601CF04800067 R
(1781711792.446998) can0 129#000000010000006E R
(1781711792.447234) can0 120#000000000000006A R
(1781711792.447470) can0 541#00001000000B11B8 R
(1781711792.459868) can0 12D#000000000000008B R
(1781711792.460109) can0 12D#00000000000000BE R
(1781711792.460345) can0 12E#000000000000C0A5 R
(1781711792.460577) can0 12A#10050000000A00B6 R
(1781711792.460812) can0 5A0#00000000040000B0 R
(1781711792.461046) can0 121#00A601CF04800086 R
(1781711792.477442) can0 129#000000010000008F R
(1781711792.477687) can0 120#000000000000008B R
(1781711792.477920) can0 541#00001000000B11D2 R
(1781711792.478153) can0 12D#00000000000000D4 R
(1781711792.478385) can0 12D#0000000000000035 R
(1781711792.478617) can0 12E#000000000000C0CF R
(1781711792.486430) can0 450#0000000000002800 R
(1781711792.486692) can0 121#00A601CF048000B3 R
(1781711792.486936) can0 129#00000001000000BA R
(1781711792.487169) can0 120#00000000000000BE R
(1781711792.487400) can0 541#00001000000B1133 R
(1781711792.500432) can0 12D#000000000000005F R
(1781711792.500686) can0 12D#000000000000006A R
(1781711792.500921) can0 12E#000000000000C02E R
(1781711792.501152) can0 121#00A601CF048000D9 R
(1781711792.501383) can0 129#00000001000000D0 R
(1781711792.501614) can0 540#0000401000010100 R
(1781711792.516373) can0 5B0#10000000000000D5 R
(1781711792.516623) can0 120#00000000000000D4 R
(1781711792.516855) can0 541#00001000000B1159 R
(1781711792.517087) can0 12D#000000000000008B R
(1781711792.517316) can0 12A#10050000000A00DC R
(1781711792.517546) can0 12D#00000000000000BE R
(1781711792.527483) can0 12E#000000000000C044 R
(1781711792.527736) can0 121#00A601CF04800038 R
(1781711792.527972) can0 129#0000000100000031 R
(1781711792.528205) can0 120#0000000000000035 R
(1781711792.528437) can0 541#00001000000B116C R
(1781711792.528666) can0 12D#00000000000000D4 R
(1781711792.544753) can0 450#0000000000002800 R
(1781711792.544996) can0 12D#0000000000000035 R
(1781711792.545229) can0 12E#000000000000C071 R
(1781711792.545460) can0 121#00A601CF04800052 R
(1781711792.545690) can0 129#000000010000005B R
(1781711792.545920) can0 120#000000000000005F R
(1781711792.557085) can0 541#00001000000B118D R
(1781711792.557327) can0 12D#000000000000005F R
(1781711792.557558) can0 12D#000000000000006A R
(1781711792.557790) can0 12E#000000000000C090 R
(1781711792.558021) can0 12A#10050000000A003D R
(1781711792.576041) can0 5A0#00000000040000DA R
(1781711792.576296) can0 121#00A601CF04800067 R
(1781711792.576530) can0 129#000000010000006E R
(1781711792.576763) can0 120#000000000000006A R
(1781711792.576993) can0 541#00001000000B11B8 R
(1781711792.577225) can0 12D#000000000000008B R
(1781711792.584636) can0 12D#00000000000000BE R
(1781711792.584894) can0 12E#000000000000C0A5 R
(1781711792.585135) can0 450#0000000000002800 R
(1781711792.585367) can0 121#00A601CF04800086 R
(1781711792.585599) can0 129#000000010000008F R
(1781711792.585836) can0 120#000000000000008B R
(1781711792.600073) can0 541#00001000000B11D2 R
(1781711792.600322) can0 12D#00000000000000D4 R
(1781711792.600554) can0 12D#0000000000000035 R
(1781711792.600785) can0 12E#000000000000C0CF R
(1781711792.601016) can0 121#00A601CF048000B3 R
(1781711792.601246) can0 129#00000001000000BA R
(1781711792.616150) can0 540#0000401000010100 R
(1781711792.616401) can0 5B0#1000000000000034 R
(1781711792.616639) can0 120#00000000000000BE R
(1781711792.616870) can0 541#00001000000B1133 R
(1781711792.617102) can0 12D#000000000000005F R
(1781711792.617332) can0 12A#10050000000A0057 R
(1781711792.626382) can0 12D#000000000000006A R
(1781711792.626624) can0 12E#000000000000C02E R
(1781711792.626858) can0 121#00A601CF048000D9 R
(1781711792.627091) can0 129#00000001000000D0 R
(1781711792.627320) can0 120#00000000000000D4 R
(1781711792.627552) can0 541#00001000000B1159 R
(1781711792.639942) can0 12D#000000000000008B R
(1781711792.640181) can0 450#0000000000002800 R
(1781711792.640415) can0 12D#00000000000000BE R
(1781711792.640645) can0 12E#000000000000C044 R
(1781711792.640876) can0 121#00A601CF04800038 R
(1781711792.656662) can0 129#0000000100000031 R
(1781711792.656921) can0 120#0000000000000035 R
(1781711792.657155) can0 541#00001000000B116C R
(1781711792.657385) can0 12D#00000000000000D4 R
(1781711792.657614) can0 12D#0000000000000035 R
(1781711792.657849) can0 12E#000000000000C071 R
(1781711792.666276) can0 12A#10050000000A0062 R
(1781711792.666520) can0 5A0#000000000400003B R
(1781711792.666752) can0 121#00A601CF04800052 R
(1781711792.666984) can0 129#000000010000005B R
(1781711792.667214) can0 120#000000000000005F R
(1781711792.667445) can0 541#00001000000B118D R
(1781711792.677396) can0 12D#000000000000005F R
(1781711792.678170) can0 12D#000000000000006A R
(1781711792.678405) can0 12E#000000000000C090 R
(1781711792.696077) can0 450#0000000000002800 R
(1781711792.696364) can0 121#00A601CF04800067 R
(1781711792.696603) can0 129#000000010000006E R
(1781711792.696838) can0 120#000000000000006A R
(1781711792.697072) can0 541#00001000000B11B8 R
(1781711792.697307) can0 12D#000000000000008B R
(1781711792.701288) can0 12D#00000000000000BE R
(1781711792.701600) can0 12E#000000000000C0A5 R
(1781711792.701839) can0 121#00A601CF04800086 R
(1781711792.702071) can0 129#000000010000008F R
(1781711792.702310) can0 540#0000401000010100 R
(1781711792.702541) can0 5B0#100000000000005E R
(1781711792.719761) can0 120#000000000000008B R
(1781711792.719976) can0 541#00001000000B11D2 R
(1781711792.720124) can0 12D#00000000000000D4 R
(1781711792.720266) can0 12A#10050000000A0083 R
(1781711792.720407) can0 12D#0000000000000035 R
(1781711792.720544) can0 12E#000000000000C0CF R
(1781711792.736288) can0 121#00A601CF048000B3 R
(1781711792.736568) can0 129#00000001000000BA R
(1781711792.736811) can0 120#00000000000000BE R
(1781711792.737047) can0 541#00001000000B1133 R
(1781711792.737281) can0 12D#000000000000005F R
(1781711792.737513) can0 450#0000000000002800 R
(1781711792.744838) can0 12D#000000000000006A R
(1781711792.745118) can0 12E#000000000000C02E R
(1781711792.745365) can0 121#00A601CF048000D9 R
(1781711792.745611) can0 129#00000001000000D0 R
(1781711792.745853) can0 120#00000000000000D4 R
(1781711792.746095) can0 541#00001000000B1159 R
(1781711792.759793) can0 12D#000000000000008B R
(1781711792.760047) can0 12D#00000000000000BE R
(1781711792.760287) can0 12E#000000000000C044 R
(1781711792.760523) can0 12A#10050000000A00B6 R
(1781711792.760759) can0 5A0#0000000004000051 R
(1781711792.776360) can0 121#00A601CF04800038 R
(1781711792.776626) can0 129#0000000100000031 R
(1781711792.776865) can0 120#0000000000000035 R
(1781711792.777098) can0 541#00001000000B116C R
(1781711792.777332) can0 12D#00000000000000D4 R
(1781711792.777563) can0 12D#0000000000000035 R
(1781711792.786343) can0 12E#000000000000C071 R
(1781711792.786594) can0 450#0000000000002800 R
(1781711792.786830) can0 121#00A601CF04800052 R
(1781711792.787064) can0 129#000000010000005B R
(1781711792.787303) can0 120#000000000000005F R
(1781711792.787540) can0 541#00001000000B118D R
(1781711792.800362) can0 12D#000000000000005F R
(1781711792.800606) can0 12D#000000000000006A R
(1781711792.800838) can0 12E#000000000000C090 R
(1781711792.801071) can0 121#00A601CF04800067 R
(1781711792.801301) can0 129#000000010000006E R
(1781711792.801559) can0 540#0000401000010100 R
(1781711792.816419) can0 5B0#100000000000006B R
(1781711792.816674) can0 120#000000000000006A R
(1781711792.816912) can0 541#00001000000B11B8 R
(1781711792.817149) can0 12D#000000000000008B R
(1781711792.817381) can0 12A#10050000000A00DC R
(1781711792.817614) can0 12D#00000000000000BE R
(1781711792.826389) can0 12E#000000000000C0A5 R
(1781711792.826635) can0 121#00A601CF04800086 R
(1781711792.826870) can0 129#000000010000008F R
(1781711792.827104) can0 120#000000000000008B R
(1781711792.827338) can0 541#00001000000B11D2 R
(1781711792.841202) can0 12D#00000000000000D4 R
(1781711792.841456) can0 450#0000000000002800 R
(1781711792.841691) can0 12D#0000000000000035 R
(1781711792.841924) can0 12E#000000000000C0CF R
(1781711792.842158) can0 121#00A601CF048000B3 R
(1781711792.842393) can0 129#00000001000000BA R
(1781711792.856958) can0 120#00000000000000BE R
(1781711792.857204) can0 541#00001000000B1133 R
(1781711792.857439) can0 12D#000000000000005F R
(1781711792.857672) can0 12D#000000000000006A R
(1781711792.857904) can0 12E#000000000000C02E R
(1781711792.858135) can0 12A#10050000000A003D R
(1781711792.876118) can0 5A0#0000000004000064 R
(1781711792.876362) can0 121#00A601CF048000D9 R
(1781711792.876593) can0 129#00000001000000D0 R
(1781711792.876823) can0 120#00000000000000D4 R
(1781711792.877052) can0 541#00001000000B1159 R
(1781711792.877282) can0 12D#000000000000008B R
(1781711792.884738) can0 12D#00000000000000BE R
(1781711792.884981) can0 12E#000000000000C044 R
(1781711792.885214) can0 450#0000000000002800 R
(1781711792.885449) can0 121#00A601CF04800038 R
(1781711792.885681) can0 129#0000000100000031 R
(1781711792.885911) can0 120#0000000000000035 R
(1781711792.899927) can0 541#00001000000B116C R
(1781711792.900173) can0 12D#00000000000000D4 R
(1781711792.900406) can0 12D#0000000000000035 R
(1781711792.900639) can0 12E#000000000000C071 R
(1781711792.900869) can0 121#00A601CF04800052 R
(1781711792.901102) can0 129#000000010000005B R
(1781711792.906654) can0 540#0000401000010100 R
(1781711792.906896) can0 5B0#100000000000008A R
(1781711792.907127) can0 120#000000000000005F R
(1781711792.907356) can0 541#00001000000B118D R
(1781711792.907589) can0 12D#000000000000005F R
(1781711792.924632) can0 12A#10050000000A0057 R
(1781711792.924884) can0 12D#000000000000006A R
(1781711792.925115) can0 12E#000000000000C090 R
(1781711792.925346) can0 121#00A601CF04800067 R
(1781711792.925575) can0 129#000000010000006E R
(1781711792.925803) can0 120#000000000000006A R
(1781711792.939809) can0 541#00001000000B11B8 R
(1781711792.940051) can0 12D#000000000000008B R
(1781711792.940284) can0 450#0000000000002800 R
(1781711792.940514) can0 12D#00000000000000BE R
(1781711792.940744) can0 12E#000000000000C0A5 R
(1781711792.940973) can0 121#00A601CF04800086 R
(1781711792.956709) can0 129#000000010000008F R
(1781711792.956946) can0 120#000000000000008B R
(1781711792.957176) can0 541#00001000000B11D2 R
(1781711792.957405) can0 12D#00000000000000D4 R
(1781711792.957634) can0 12D#0000000000000035 R
(1781711792.957865) can0 12E#000000000000C0CF R
(1781711792.966316) can0 12A#10050000000A0062 R
(1781711792.966553) can0 5A0#0000000004000085 R
(1781711792.966784) can0 121#00A601CF048000B3 R
(1781711792.967015) can0 129#00000001000000BA R
(1781711792.967245) can0 120#00000000000000BE R
(1781711792.967472) can0 541#00001000000B1133 R
(1781711792.979923) can0 12D#000000000000005F R
(1781711792.980170) can0 12D#000000000000006A R
(1781711792.980400) can0 12E#000000000000C02E R
(1781711792.980629) can0 450#0000000000002800 R
(1781711792.980856) can0 121#00A601CF048000D9 R
(1781711792.999536) can0 129#00000001000000D0 R
(1781711792.999802) can0 120#00000000000000D4 R
(1781711793.000038) can0 541#00001000000B1159 R
(1781711793.000272) can0 12D#000000000000008B R
(1781711793.000505) can0 12D#00000000000000BE R
(1781711793.000736) can0 12E#000000000000C044 R
(1781711793.006257) can0 121#00A601CF04800038 R
(1781711793.006515) can0 129#0000000100000031 R
(1781711793.006749) can0 540#0000401000010100 R
(1781711793.006983) can0 5B0#10000000000000BF R
(1781711793.007216) can0 120#0000000000000035 R
(1781711793.007448) can0 541#00001000000B116C R
(1781711793.021352) can0 12D#00000000000000D4 R
(1781711793.021612) can0 12A#10050000000A0083 R
(1781711793.021849) can0 12D#0000000000000035 R
(1781711793.022083) can0 12E#000000000000C071 R
(1781711793.022314) can0 121#00A601CF04800052 R
(1781711793.022561) can0 129#000000010000005B R
(1781711793.039661) can0 120#000000000000005F R
(1781711793.039922) can0 541#00001000000B118D R
(1781711793.040155) can0 12D#000000000000005F R
(1781711793.040383) can0 450#0000000000002800 R
(1781711793.040613) can0 12D#000000000000006A R
(1781711793.040842) can0 12E#000000000000C090 R
(1781711793.056337) can0 121#00A601CF04800067 R
(1781711793.056583) can0 129#000000010000006E R
(1781711793.056817) can0 120#000000000000006A R
(1781711793.057048) can0 541#00001000000B11B8 R
(1781711793.057277) can0 12D#000000000000008B R
(1781711793.057509) can0 12D#00000000000000BE R
(1781711793.061493) can0 12E#000000000000C0A5 R
(1781711793.061727) can0 12A#10050000000A00B6 R
(1781711793.061961) can0 5A0#00000000040000B0 R
(1781711793.062201) can0 121#00A601CF04800086 R
(1781711793.062433) can0 129#000000010000008F R
(1781711793.079542) can0 120#000000000000008B R
(1781711793.079793) can0 541#00001000000B11D2 R
(1781711793.080027) can0 12D#00000000000000D4 R
(1781711793.080258) can0 12D#0000000000000035 R
(1781711793.080487) can0 12E#000000000000C0CF R
(1781711793.080718) can0 450#0000000000002800 R
(1781711793.096329) can0 121#00A601CF048000B3 R
(1781711793.096577) can0 129#00000001000000BA R
(1781711793.096812) can0 120#00000000000000BE R
(1781711793.097042) can0 541#00001000000B1133 R
(1781711793.097274) can0 12D#000000000000005F R
(1781711793.097503) can0 12D#000000000000006A R
(1781711793.104721) can0 12E#000000000000C02E R
(1781711793.104962) can0 121#00A601CF048000D9 R
(1781711793.105194) can0 129#00000001000000D0 R
(1781711793.105425) can0 540#0000401000010100 R
(1781711793.105656) can0 5B0#10000000000000D5 R
(1781711793.105895) can0 120#00000000000000D4 R
(1781711793.119946) can0 541#00001000000B1159 R
(1781711793.120205) can0 12D#000000000000008B R
(1781711793.120443) can0 12A#10050000000A00DC R
(1781711793.120677) can0 12D#00000000000000BE R
(1781711793.120909) can0 12E#000000000000C044 R
(1781711793.121139) can0 121#00A601CF04800038 R
(1781711793.136285) can0 129#0000000100000031 R
(1781711793.136547) can0 120#0000000000000035 R
(1781711793.136786) can0 541#00001000000B116C R
(1781711793.137028) can0 12D#00000000000000D4 R
(1781711793.137265) can0 450#0000000000002800 R
(1781711793.146217) can0 12D#0000000000000035 R
(1781711793.146469) can0 12E#000000000000C071 R
(1781711793.146702) can0 121#00A601CF04800052 R
(1781711793.146933) can0 129#000000010000005B R
(1781711793.147163) can0 120#000000000000005F R
(1781711793.147395) can0 541#00001000000B118D R
(1781711793.159853) can0 12D#000000000000005F R
(1781711793.160097) can0 12D#000000000000006A R
(1781711793.160327) can0 12E#000000000000C090 R
(1781711793.160565) can0 12A#10050000000A003D R
(1781711793.160796) can0 5A0#00000000040000DA R
(1781711793.161026) can0 121#00A601CF04800067 R
(1781711793.177422) can0 129#000000010000006E R
(1781711793.177669) can0 120#000000000000006A R
(1781711793.177903) can0 541#00001000000B11B8 R
(1781711793.178135) can0 12D#000000000000008B R
(1781711793.178373) can0 12D#00000000000000BE R
(1781711793.178605) can0 12E#000000000000C0A5 R
(1781711793.196164) can0 450#0000000000002800 R
(1781711793.196422) can0 121#00A601CF04800086 R
(1781711793.196658) can0 129#000000010000008F R
(1781711793.196890) can0 120#000000000000008B R
(1781711793.197119) can0 541#00001000000B11D2 R
(1781711793.197347) can0 12D#00000000000000D4 R
(1781711793.200424) can0 12D#0000000000000035 R
(1781711793.200664) can0 12E#000000000000C0CF R
(1781711793.200899) can0 121#00A601CF048000B3 R
(1781711793.201132) can0 129#00000001000000BA R
(1781711793.201365) can0 540#0000401000010100 R
(1781711793.201597) can0 5B0#1000000000000034 R
(1781711793.216523) can0 120#00000000000000BE R
(1781711793.216822) can0 541#00001000000B1133 R
(1781711793.217056) can0 12D#000000000000005F R
(1781711793.217289) can0 12A#10050000000A0057 R
(1781711793.217519) can0 12D#000000000000006A R
(1781711793.227399) can0 12E#000000000000C02E R
(1781711793.227661) can0 121#00A601CF048000D9 R
(1781711793.227892) can0 129#00000001000000D0 R
(1781711793.228122) can0 120#00000000000000D4 R
(1781711793.228352) can0 541#00001000000B1256 R
(1781711793.228583) can0 12D#000000000000008B R
(1781711793.244671) can0 450#0000000000002800 R
(1781711793.244916) can0 12D#00000000000000BE R
(1781711793.245150) can0 12E#000000000000C044 R
(1781711793.245379) can0 121#00A601CF04800038 R
(1781711793.245609) can0 129#0000000100000031 R
(1781711793.245839) can0 120#0000000000000035 R
(1781711793.259877) can0 541#00001000000B1263 R
(1781711793.260122) can0 12D#00000000000000D4 R
(1781711793.260354) can0 12D#0000000000000035 R
(1781711793.260584) can0 12E#000000000000C071 R
(1781711793.260812) can0 12A#10050000000A0062 R
(1781711793.261041) can0 5A0#000000000400003B R
(1781711793.276412) can0 121#00A601CF04800052 R
(1781711793.276653) can0 129#000000010000005B R
(1781711793.276881) can0 120#000000000000005F R
(1781711793.277110) can0 541#00001000000B1282 R
(1781711793.277338) can0 12D#000000000000005F R
(1781711793.277565) can0 12D#000000000000006A R
(1781711793.284807) can0 12E#000000000000C090 R
(1781711793.285047) can0 450#0000000000002800 R
(1781711793.285277) can0 121#00A601CF04800067 R
(1781711793.285508) can0 129#000000010000006E R
(1781711793.285738) can0 120#000000000000006A R
(1781711793.300034) can0 541#00001000000B12B7 R
(1781711793.300291) can0 12D#000000000000008B R
(1781711793.300523) can0 12D#00000000000000BE R
(1781711793.300752) can0 12E#000000000000C0A5 R
(1781711793.300980) can0 121#00A601CF04800086 R
(1781711793.301210) can0 129#000000010000008F R
(1781711793.316047) can0 540#0000401000010100 R
(1781711793.316292) can0 5B0#100000000000005E R
(1781711793.316525) can0 120#000000000000008B R
(1781711793.316755) can0 541#00001000000B12DD R
(1781711793.316986) can0 12D#00000000000000D4 R
(1781711793.317212) can0 12A#10050000000A0083 R
(1781711793.326259) can0 12D#0000000000000035 R
(1781711793.326501) can0 12E#000000000000C0CF R
(1781711793.326735) can0 121#00A601CF048000B3 R
(1781711793.326966) can0 129#00000001000000BA R
(1781711793.327198) can0 120#00000000000000BE R
(1781711793.327431) can0 541#00001000000B123C R
(1781711793.341368) can0 12D#000000000000005F R
(1781711793.341608) can0 450#0000000000002800 R
(1781711793.341839) can0 12D#000000000000006A R
(1781711793.342069) can0 12E#000000000000C02E R
(1781711793.342296) can0 121#00A601CF048000D9 R
(1781711793.342523) can0 129#00000001000000D0 R
(1781711793.356773) can0 120#00000000000000D4 R
(1781711793.357011) can0 541#00001000000B1256 R
(1781711793.357242) can0 12D#000000000000008B R
(1781711793.357471) can0 12D#00000000000000BE R
(1781711793.357701) can0 12E#000000000000C044 R
(1781711793.357931) can0 12A#10050000000A00B6 R
(1781711793.366353) can0 5A0#0000000004000051 R
(1781711793.366593) can0 121#00A601CF04800038 R
(1781711793.366830) can0 129#0000000100000031 R
(1781711793.367063) can0 120#0000000000000035 R
(1781711793.367293) can0 541#00001000000B1263 R
(1781711793.381269) can0 12D#00000000000000D4 R
(1781711793.381516) can0 12D#0000000000000035 R
(1781711793.381747) can0 12E#000000000000C071 R
(1781711793.381979) can0 450#0000000000002800 R
(1781711793.382208) can0 121#00A601CF04800052 R
(1781711793.382438) can0 129#000000010000005B R
(1781711793.399859) can0 120#000000000000005F R
(1781711793.400101) can0 541#00001000000B1282 R
(1781711793.400332) can0 12D#000000000000005F R
(1781711793.400566) can0 12D#000000000000006A R
(1781711793.400797) can0 12E#000000000000C090 R
(1781711793.401027) can0 121#00A601CF04800067 R
(1781711793.406507) can0 129#000000010000006E R
(1781711793.406748) can0 540#0000401000010100 R
(1781711793.406981) can0 5B0#100000000000006B R
(1781711793.407213) can0 120#000000000000006A R
(1781711793.407444) can0 541#00001000000B12B7 R
(1781711793.407676) can0 12D#000000000000008B R
(1781711793.424749) can0 12A#10050000000A00DC R
(1781711793.424989) can0 12D#00000000000000BE R
(1781711793.425221) can0 12E#000000000000C0A5 R
(1781711793.425450) can0 121#00A601CF04800086 R
(1781711793.425681) can0 129#000000010000008F R
(1781711793.425913) can0 120#000000000000008B R
(1781711793.439717) can0 541#00001000000B12DD R
(1781711793.439960) can0 12D#00000000000000D4 R
(1781711793.440191) can0 450#0000000000002800 R
(1781711793.440424) can0 12D#0000000000000035 R
(1781711793.440654) can0 12E#000000000000C0CF R
(1781711793.456336) can0 121#00A601CF048000B3 R
(1781711793.456585) can0 129#00000001000000BA R
(1781711793.456817) can0 120#00000000000000BE R
(1781711793.457048) can0 541#00001000000B123C R
(1781711793.457276) can0 12D#000000000000005F R
(1781711793.457505) can0 12D#000000000000006A R
(1781711793.464643) can0 12E#000000000000C02E R
(1781711793.464892) can0 12A#10050000000A003D R
(1781711793.465125) can0 5A0#0000000004000064 R
(1781711793.465356) can0 121#00A601CF048000D9 R
(1781711793.465586) can0 129#00000001000000D0 R
(1781711793.465823) can0 120#00000000000000D4 R
(1781711793.479895) can0 541#00001000000B1256 R
(1781711793.480143) can0 12D#000000000000008B R
(1781711793.480378) can0 12D#00000000000000BE R
(1781711793.480609) can0 12E#000000000000C044 R
(1781711793.480840) can0 450#0000000000002800 R
(1781711793.481069) can0 121#00A601CF04800038 R
(1781711793.499687) can0 129#0000000100000031 R
(1781711793.499938) can0 120#0000000000000035 R
(1781711793.500169) can0 541#00001000000B1263 R
(1781711793.500400) can0 12D#00000000000000D4 R
(1781711793.500629) can0 12D#0000000000000035 R
(1781711793.500857) can0 12E#000000000000C071 R
(1781711793.504759) can0 121#00A601CF04800052 R
(1781711793.505001) can0 129#000000010000005B R
(1781711793.505236) can0 540#0000401000010100 R
(1781711793.505466) can0 5B0#100000000000008A R
(1781711793.505696) can0 120#000000000000005F R
(1781711793.505923) can0 541#00001000000B1282 R
(1781711793.520009) can0 12D#000000000000005F R
(1781711793.520250) can0 12A#10050000000A0057 R
(1781711793.520488) can0 12D#000000000000006A R
(1781711793.520720) can0 12E#000000000000C090 R
(1781711793.520961) can0 121#00A601CF04800067 R
(1781711793.536306) can0 129#000000010000006E R
(1781711793.536561) can0 120#000000000000006A R
(1781711793.536792) can0 541#00001000000B12B7 R
(1781711793.537022) can0 12D#000000000000008B R
(1781711793.537252) can0 450#0000000000002800 R
(1781711793.537482) can0 12D#00000000000000BE R
(1781711793.556167) can0 12E#000000000000C0A5 R
(1781711793.556412) can0 121#00A601CF04800086 R
(1781711793.556643) can0 129#000000010000008F R
(1781711793.556872) can0 120#000000000000008B R
(1781711793.557102) can0 541#00001000000B12DD R
(1781711793.557332) can0 12D#00000000000000D4 R
(1781711793.561401) can0 12D#0000000000000035 R
(1781711793.561636) can0 12E#000000000000C0CF R
(1781711793.561865) can0 12A#10050000000A0062 R
(1781711793.562095) can0 5A0#0000000004000085 R
(1781711793.562325) can0 121#00A601CF048000B3 R
(1781711793.562559) can0 129#00000001000000BA R
(1781711793.579684) can0 120#00000000000000BE R
(1781711793.579927) can0 541#00001000000B123C R
(1781711793.580161) can0 12D#000000000000005F R
(1781711793.580395) can0 12D#000000000000006A R
(1781711793.580624) can0 12E#000000000000C02E R
(1781711793.580853) can0 450#0000000000002800 R
(1781711793.596164) can0 121#00A601CF048000D9 R
(1781711793.596407) can0 129#00000001000000D0 R
(1781711793.596641) can0 120#00000000000000D4 R
(1781711793.596872) can0 541#00001000000B1256 R
(1781711793.597102) can0 12D#000000000000008B R
(1781711793.601320) can0 12D#00000000000000BE R
(1781711793.601564) can0 12E#000000000000C044 R
(1781711793.601797) can0 121#00A601CF04800038 R
(1781711793.602025) can0 129#0000000100000031 R
(1781711793.602254) can0 540#0000401000010100 R
(1781711793.602482) can0 5B0#10000000000000BF R
(1781711793.619643) can0 120#0000000000000035 R
(1781711793.619893) can0 541#00001000000B1263 R
(1781711793.620126) can0 12D#00000000000000D4 R
(1781711793.620356) can0 12A#10050000000A0083 R
(1781711793.620613) can0 12D#0000000000000035 R
(1781711793.620845) can0 12E#000000000000C071 R
(1781711793.636148) can0 121#00A601CF04800052 R
(1781711793.636413) can0 129#000000010000005B R
(1781711793.636655) can0 120#000000000000005F R
(1781711793.636888) can0 541#00001000000B1282 R
(1781711793.637122) can0 12D#000000000000005F R
(1781711793.637353) can0 450#0000000000002800 R
(1781711793.646286) can0 12D#000000000000006A R
(1781711793.646548) can0 12E#000000000000C090 R
(1781711793.646787) can0 121#00A601CF04800067 R
(1781711793.647020) can0 129#000000010000006E R
(1781711793.647252) can0 120#000000000000006A R
(1781711793.647482) can0 541#00001000000B12B7 R
(1781711793.659775) can0 12D#000000000000008B R
(1781711793.660018) can0 12D#00000000000000BE R
(1781711793.660249) can0 12E#000000000000C0A5 R
(1781711793.660481) can0 12A#10050000000A00B6 R
(1781711793.660710) can0 5A0#00000000040000B0 R
(1781711793.660939) can0 121#00A601CF04800086 R
(1781711793.676443) can0 129#000000010000008F R
(1781711793.676690) can0 120#000000000000008B R
(1781711793.676922) can0 541#00001000000B12DD R
(1781711793.677156) can0 12D#00000000000000D4 R
(1781711793.677386) can0 12D#0000000000000035 R
(1781711793.686234) can0 12E#000000000000C0CF R
(1781711793.686490) can0 450#0000000000002800 R
(1781711793.686730) can0 121#00A601CF048000B3 R
(1781711793.686966) can0 129#00000001000000BA R
(1781711793.687202) can0 120#00000000000000BE R
(1781711793.687438) can0 541#00001000000B123C R
(1781711793.700377) can0 12D#000000000000005F R
(1781711793.700636) can0 12D#000000000000006A R
(1781711793.700870) can0 12E#000000000000C02E R
(1781711793.701102) can0 121#00A601CF048000D9 R
(1781711793.701332) can0 129#00000001000000D0 R
(1781711793.701625) can0 540#0000401000010200 R
(1781711793.716331) can0 5B0#10000000000000D5 R
(1781711793.716475) can0 120#00000000000000D4 R
(1781711793.716586) can0 541#00001000000B1256 R
(1781711793.716691) can0 12D#000000000000008B R
(1781711793.716794) can0 12A#10050000000A00DC R
(1781711793.716898) can0 12D#00000000000000BE R
(1781711793.727579) can0 12E#000000000000C044 R
(1781711793.727773) can0 121#00A601CF04800038 R
(1781711793.727943) can0 129#0000000100000031 R
(1781711793.728093) can0 120#0000000000000035 R
(1781711793.728220) can0 541#00001000000B1263 R
(1781711793.728336) can0 12D#00000000000000D4 R
(1781711793.741535) can0 450#0000000000002800 R
(1781711793.741819) can0 12D#0000000000000035 R
(1781711793.742060) can0 12E#000000000000C071 R
(1781711793.742295) can0 121#00A601CF04800052 R
(1781711793.742530) can0 129#000000010000005B R
(1781711793.756838) can0 120#000000000000005F R
(1781711793.757116) can0 541#00001000000B1282 R
(1781711793.757358) can0 12D#000000000000005F R
(1781711793.757591) can0 12D#000000000000006A R
(1781711793.757824) can0 12E#000000000000C090 R
(1781711793.758055) can0 12A#10050000000A003D R
(1781711793.776089) can0 5A0#00000000040000DA R
(1781711793.776358) can0 121#00A601CF04800067 R
(1781711793.776595) can0 129#000000010000006E R
(1781711793.776830) can0 120#000000000000006A R
(1781711793.777065) can0 541#00001000000B12B7 R
(1781711793.777303) can0 12D#000000000000008B R
(1781711793.784708) can0 12D#00000000000000BE R
(1781711793.784956) can0 12E#000000000000C0A5 R
(1781711793.785190) can0 450#0000000000002800 R
(1781711793.785421) can0 121#00A601CF04800086 R
(1781711793.785652) can0 129#000000010000008F R
(1781711793.785882) can0 120#000000000000008B R
(1781711793.800173) can0 541#00001000000B12DD R
(1781711793.800413) can0 12D#00000000000000D4 R
(1781711793.800642) can0 12D#0000000000000035 R
(1781711793.800873) can0 12E#000000000000C0CF R
(1781711793.801101) can0 121#00A601CF048000B3 R
(1781711793.801340) can0 129#00000001000000BA R
(1781711793.806550) can0 540#0000401000010200 R
(1781711793.806792) can0 5B0#1000000000000034 R
(1781711793.807025) can0 120#00000000000000BE R
(1781711793.807256) can0 541#00001000000B123C R
(1781711793.807488) can0 12D#000000000000005F R
(1781711793.807718) can0 12A#10050000000A0057 R
(1781711793.824827) can0 12D#000000000000006A R
(1781711793.825068) can0 12E#000000000000C02E R
(1781711793.825301) can0 121#00A601CF048000D9 R
(1781711793.825532) can0 129#00000001000000D0 R
(1781711793.825763) can0 120#00000000000000D4 R
(1781711793.839827) can0 541#00001000000B1256 R
(1781711793.840081) can0 12D#000000000000008B R
(1781711793.840315) can0 450#0000000000002800 R
(1781711793.840548) can0 12D#00000000000000BE R
(1781711793.840783) can0 12E#000000000000C044 R
(1781711793.841014) can0 121#00A601CF04800038 R
(1781711793.856627) can0 129#0000000100000031 R
(1781711793.856872) can0 120#0000000000000035 R
(1781711793.857103) can0 541#00001000000B1263 R
(1781711793.857333) can0 12D#00000000000000D4 R
(1781711793.857563) can0 12D#0000000000000035 R
(1781711793.857791) can0 12E#000000000000C071 R
(1781711793.866247) can0 12A#10050000000A0062 R
(1781711793.866482) can0 5A0#000000000400003B R
(1781711793.866712) can0 121#00A601CF04800052 R
(1781711793.866938) can0 129#000000010000005B R
(1781711793.867167) can0 120#000000000000005F R
(1781711793.867394) can0 541#00001000000B1282 R
(1781711793.881444) can0 12D#000000000000005F R
(1781711793.881696) can0 12D#000000000000006A R
(1781711793.881938) can0 12E#000000000000C090 R
(1781711793.882171) can0 450#0000000000002800 R
(1781711793.882404) can0 121#00A601CF04800067 R
(1781711793.882634) can0 129#000000010000006E R
(1781711793.899755) can0 120#000000000000006A R
(1781711793.900003) can0 541#00001000000B12B7 R
(1781711793.900235) can0 12D#000000000000008B R
(1781711793.900466) can0 12D#00000000000000BE R
(1781711793.900696) can0 12E#000000000000C0A5 R
(1781711793.906163) can0 121#00A601CF04800086 R
(1781711793.906417) can0 129#000000010000008F R
(1781711793.906650) can0 540#0000401000010200 R
(1781711793.906881) can0 5B0#100000000000005E R
(1781711793.907111) can0 120#000000000000008B R
(1781711793.907345) can0 541#00001000000B12DD R
(1781711793.921336) can0 12D#00000000000000D4 R
(1781711793.921628) can0 12A#10050000000A0083 R
(1781711793.921871) can0 12D#0000000000000035 R
(1781711793.922112) can0 12E#000000000000C0CF R
(1781711793.922348) can0 121#00A601CF048000B3 R
(1781711793.922592) can0 129#00000001000000BA R
(1781711793.939643) can0 120#00000000000000BE R
(1781711793.939889) can0 541#00001000000B123C R
(1781711793.940121) can0 12D#000000000000005F R
(1781711793.940353) can0 450#0000000000002800 R
(1781711793.940585) can0 12D#000000000000006A R
(1781711793.940815) can0 12E#000000000000C02E R
(1781711793.956465) can0 121#00A601CF048000D9 R
(1781711793.956704) can0 129#00000001000000D0 R
(1781711793.956937) can0 120#00000000000000D4 R
(1781711793.957167) can0 541#00001000000B1256 R
(1781711793.957398) can0 12D#000000000000008B R
(1781711793.957630) can0 12D#00000000000000BE R
(1781711793.961480) can0 12E#000000000000C044 R
(1781711793.961722) can0 12A#10050000000A00B6 R
(1781711793.961956) can0 5A0#0000000004000051 R
(1781711793.962191) can0 121#00A601CF04800038 R
(1781711793.962422) can0 129#0000000100000031 R
(1781711793.962665) can0 120#0000000000000035 R
(1781711793.979817) can0 541#00001000000B1263 R
(1781711793.980072) can0 12D#00000000000000D4 R
(1781711793.980305) can0 12D#0000000000000035 R
(1781711793.980536) can0 12E#000000000000C071 R
(1781711793.980766) can0 450#0000000000002800 R
(1781711793.996236) can0 121#00A601CF04800052 R
(1781711793.996498) can0 129#000000010000005B R
(1781711793.996742) can0 120#000000000000005F R
(1781711793.996977) can0 541#00001000000B1282 R
(1781711793.997213) can0 12D#000000000000005F R
(1781711793.997448) can0 12D#000000000000006A R
(1781711794.004722) can0 12E#000000000000C090 R
(1781711794.004971) can0 121#00A601CF04800067 R
(1781711794.005259) can0 129#000000010000006E R
(1781711794.005540) can0 540#0000401000010200 R
(1781711794.005829) can0 5B0#100000000000006B R
(1781711794.006077) can0 120#000000000000006A R
(1781711794.020135) can0 541#00001000000B12B7 R
(1781711794.020386) can0 12D#000000000000008B R
(1781711794.020629) can0 12A#10050000000A00DC R
(1781711794.020866) can0 12D#00000000000000BE R
(1781711794.021101) can0 12E#000000000000C0A5 R
(1781711794.021336) can0 121#00A601CF04800086 R
(1781711794.036394) can0 129#000000010000008F R
(1781711794.036642) can0 120#000000000000008B R
(1781711794.036876) can0 541#00001000000B12DD R
(1781711794.037112) can0 12D#00000000000000D4 R
(1781711794.037346) can0 450#0000000000002800 R
(1781711794.037578) can0 12D#0000000000000035 R
(1781711794.046362) can0 12E#000000000000C0CF R
(1781711794.046646) can0 121#00A601CF048000B3 R
(1781711794.046887) can0 129#00000001000000BA R
(1781711794.047121) can0 120#00000000000000BE R
(1781711794.047354) can0 541#00001000000B123C R
(1781711794.059906) can0 12D#000000000000005F R
(1781711794.060158) can0 12D#000000000000006A R
(1781711794.060397) can0 12E#000000000000C02E R
(1781711794.060629) can0 12A#10050000000A003D R
(1781711794.060860) can0 5A0#0000000004000064 R
(1781711794.061090) can0 121#00A601CF048000D9 R
(1781711794.077367) can0 129#00000001000000D0 R
(1781711794.077624) can0 120#00000000000000D4 R
(1781711794.077860) can0 541#00001000000B1256 R
(1781711794.078091) can0 12D#000000000000008B R
(1781711794.078323) can0 12D#00000000000000BE R
(1781711794.078558) can0 12E#000000000000C044 R
(1781711794.096006) can0 450#0000000000002800 R
(1781711794.096250) can0 121#00A601CF04800038 R
(1781711794.096483) can0 129#0000000100000031 R
(1781711794.096712) can0 120#0000000000000035 R
(1781711794.096943) can0 541#00001000000B1263 R
(1781711794.097172) can0 12D#00000000000000D4 R
(1781711794.101488) can0 12D#0000000000000035 R
(1781711794.101730) can0 12E#000000000000C071 R
(1781711794.101961) can0 121#00A601CF04800052 R
(1781711794.102191) can0 129#000000010000005B R
(1781711794.102423) can0 540#0000401000010200 R
(1781711794.102653) can0 5B0#100000000000008A R
(1781711794.116339) can0 120#000000000000005F R
(1781711794.116578) can0 541#00001000000B1282 R
(1781711794.116810) can0 12D#000000000000005F R
(1781711794.117041) can0 12A#10050000000A0057 R
(1781711794.117271) can0 12D#000000000000006A R
(1781711794.117500) can0 12E#000000000000C090 R
(1781711794.127584) can0 121#00A601CF04800067 R
(1781711794.127825) can0 129#000000010000006E R
(1781711794.128059) can0 120#000000000000006A R
(1781711794.128290) can0 541#00001000000B12B7 R
(1781711794.128522) can0 12D#000000000000008B R
(1781711794.144624) can0 450#0000000000002800 R
(1781711794.144873) can0 12D#00000000000000BE R
(1781711794.145106) can0 12E#000000000000C0A5 R
(1781711794.145338) can0 121#00A601CF04800086 R
(1781711794.145571) can0 129#000000010000008F R
(1781711794.145805) can0 120#000000000000008B R
(1781711794.159681) can0 541#00001000000B12DD R
(1781711794.159929) can0 12D#00000000000000D4 R
(1781711794.160162) can0 12D#0000000000000035 R
(1781711794.160394) can0 12E#000000000000C0CF R
(1781711794.160622) can0 12A#10050000000A0062 R
(1781711794.160853) can0 5A0#0000000004000085 R
(1781711794.176314) can0 121#00A601CF048000B3 R
(1781711794.176563) can0 129#00000001000000BA R
(1781711794.176797) can0 120#00000000000000BE R
(1781711794.177029) can0 541#00001000000B123C R
(1781711794.177260) can0 12D#000000000000005F R
(1781711794.177489) can0 12D#000000000000006A R
(1781711794.186275) can0 12E#000000000000C02E R
(1781711794.186527) can0 450#0000000000002800 R
(1781711794.186759) can0 121#00A601CF048000D9 R
(1781711794.186990) can0 129#00000001000000D0 R
(1781711794.187187) can0 120#00000000000000D4 R
(1781711794.187323) can0 541#00001000000B1256 R
(1781711794.200268) can0 12D#000000000000008B R
(1781711794.200510) can0 12D#00000000000000BE R
(1781711794.200741) can0 12E#000000000000C044 R
(1781711794.200970) can0 121#00A601CF04800038 R
(1781711794.201200) can0 129#0000000100000031 R
(1781711794.216000) can0 540#0000401000010200 R
(1781711794.216266) can0 5B0#10000000000000BF R
(1781711794.216506) can0 120#0000000000000035 R
(1781711794.216738) can0 541#00001000000B1263 R
(1781711794.216968) can0 12D#00000000000000D4 R
(1781711794.217196) can0 12A#10050000000A0083 R
(1781711794.226162) can0 12D#0000000000000035 R
(1781711794.226412) can0 12E#000000000000C071 R
(1781711794.226646) can0 121#00A601CF04800052 R
(1781711794.226876) can0 129#000000010000005B R
(1781711794.227107) can0 120#000000000000005F R
(1781711794.227337) can0 541#00001000000B1394 R
(1781711794.241385) can0 12D#000000000000005F R
(1781711794.241626) can0 450#0000000000002800 R
(1781711794.241857) can0 12D#000000000000006A R
(1781711794.242087) can0 12E#000000000000C090 R
(1781711794.242316) can0 121#00A601CF04800067 R
(1781711794.242544) can0 129#000000010000006E R
(1781711794.256887) can0 120#000000000000006A R
(1781711794.257126) can0 541#00001000000B13A1 R
(1781711794.257356) can0 12D#000000000000008B R
(1781711794.257585) can0 12D#00000000000000BE R
(1781711794.257813) can0 12E#000000000000C0A5 R
(1781711794.258042) can0 12A#10050000000A00B6 R
(1781711794.266253) can0 5A0#00000000040000B0 R
(1781711794.266494) can0 121#00A601CF04800086 R
(1781711794.266725) can0 129#000000010000008F R
(1781711794.266955) can0 120#000000000000008B R
(1781711794.267183) can0 541#00001000000B13CB R
(1781711794.267413) can0 12D#00000000000000D4 R
(1781711794.281730) can0 12D#0000000000000035 R
(1781711794.281970) can0 12E#000000000000C0CF R
(1781711794.282202) can0 450#0000000000002800 R
(1781711794.282431) can0 121#00A601CF048000B3 R
(1781711794.282668) can0 129#00000001000000BA R
(1781711794.299847) can0 120#00000000000000BE R
(1781711794.300102) can0 541#00001000000B132A R
(1781711794.300334) can0 12D#000000000000005F R
(1781711794.300563) can0 12D#000000000000006A R
(1781711794.300793) can0 12E#000000000000C02E R
(1781711794.301023) can0 121#00A601CF048000D9 R
(1781711794.306408) can0 129#00000001000000D0 R
(1781711794.306651) can0 540#0000401000010200 R
(1781711794.306885) can0 5B0#10000000000000D5 R
(1781711794.307116) can0 120#00000000000000D4 R
(1781711794.307344) can0 541#00001000000B1340 R
(1781711794.307574) can0 12D#000000000000008B R
(1781711794.324718) can0 12A#10050000000A00DC R
(1781711794.324959) can0 12D#00000000000000BE R
(1781711794.325189) can0 12E#000000000000C044 R
(1781711794.325420) can0 121#00A601CF04800038 R
(1781711794.325651) can0 129#0000000100000031 R
(1781711794.325880) can0 120#0000000000000035 R
(1781711794.339967) can0 541#00001000000B1375 R
(1781711794.340209) can0 12D#00000000000000D4 R
(1781711794.340438) can0 450#0000000000002800 R
(1781711794.340669) can0 12D#0000000000000035 R
(1781711794.340898) can0 12E#000000000000C071 R
(1781711794.341126) can0 121#00A601CF04800052 R
(1781711794.356509) can0 129#000000010000005B R
(1781711794.356746) can0 120#000000000000005F R
(1781711794.356974) can0 541#00001000000B1394 R
(1781711794.357204) can0 12D#000000000000005F R
(1781711794.357441) can0 12D#000000000000006A R
(1781711794.364614) can0 12E#000000000000C090 R
(1781711794.364873) can0 12A#10050000000A003D R
(1781711794.365107) can0 5A0#00000000040000DA R
(1781711794.365338) can0 121#00A601CF04800067 R
(1781711794.365568) can0 129#000000010000006E R
(1781711794.365797) can0 120#000000000000006A R
(1781711794.379936) can0 541#00001000000B13A1 R
(1781711794.380184) can0 12D#000000000000008B R
(1781711794.380412) can0 12D#00000000000000BE R
(1781711794.380639) can0 12E#000000000000C0A5 R
(1781711794.380873) can0 450#0000000000002800 R
(1781711794.381103) can0 121#00A601CF04800086 R
(1781711794.399869) can0 129#000000010000008F R
(1781711794.400112) can0 120#000000000000008B R
(1781711794.400343) can0 541#00001000000B13CB R
(1781711794.400573) can0 12D#00000000000000D4 R
(1781711794.400801) can0 12D#0000000000000035 R
(1781711794.401030) can0 12E#000000000000C0CF R
(1781711794.406199) can0 121#00A601CF048000B3 R
(1781711794.406433) can0 129#00000001000000BA R
(1781711794.406663) can0 540#0000401000010200 R
(1781711794.406892) can0 5B0#1000000000000034 R
(1781711794.407122) can0 120#00000000000000BE R
(1781711794.407352) can0 541#00001000000B132A R
(1781711794.420061) can0 12D#000000000000005F R
(1781711794.420299) can0 12A#10050000000A0057 R
(1781711794.420529) can0 12D#000000000000006A R
(1781711794.420768) can0 12E#000000000000C02E R
(1781711794.421126) can0 121#00A601CF048000D9 R
(1781711794.421416) can0 129#00000001000000D0 R
(1781711794.436491) can0 120#00000000000000D4 R
(1781711794.436729) can0 541#00001000000B1340 R
(1781711794.436989) can0 12D#000000000000008B R
(1781711794.437220) can0 450#0000000000002800 R
(1781711794.437451) can0 12D#00000000000000BE R
(1781711794.456056) can0 12E#000000000000C044 R
(1781711794.456306) can0 121#00A601CF04800038 R
(1781711794.456538) can0 129#0000000100000031 R
(1781711794.456768) can0 120#0000000000000035 R
(1781711794.456998) can0 541#00001000000B1375 R
(1781711794.457227) can0 12D#00000000000000D4 R
(1781711794.461430) can0 12D#0000000000000035 R
(1781711794.461664) can0 12E#000000000000C071 R
(1781711794.461896) can0 12A#10050000000A0062 R
(1781711794.462126) can0 5A0#000000000400003B R
(1781711794.462357) can0 121#00A601CF04800052 R
(1781711794.462586) can0 129#000000010000005B R
(1781711794.479680) can0 120#000000000000005F R
(1781711794.479925) can0 541#00001000000B1394 R
(1781711794.480158) can0 12D#000000000000005F R
(1781711794.480389) can0 12D#000000000000006A R
(1781711794.480620) can0 12E#000000000000C090 R
(1781711794.480849) can0 450#0000000000002800 R
(1781711794.496340) can0 121#00A601CF04800067 R
(1781711794.496588) can0 129#000000010000006E R
(1781711794.496826) can0 120#000000000000006A R
(1781711794.497058) can0 541#00001000000B13A1 R
(1781711794.497291) can0 12D#000000000000008B R
(1781711794.497522) can0 12D#00000000000000BE R
(1781711794.501547) can0 12E#000000000000C0A5 R
(1781711794.501784) can0 121#00A601CF04800086 R
(1781711794.502013) can0 129#000000010000008F R
(1781711794.502243) can0 540#0000401000010200 R
(1781711794.502470) can0 5B0#100000000000005E R
(1781711794.519615) can0 120#000000000000008B R
(1781711794.519880) can0 541#00001000000B13CB R
(1781711794.520115) can0 12D#00000000000000D4 R
(1781711794.520348) can0 12A#10050000000A0083 R
(1781711794.520577) can0 12D#0000000000000035 R
(1781711794.520806) can0 12E#000000000000C0CF R
(1781711794.536005) can0 121#00A601CF048000B3 R
(1781711794.536248) can0 129#00000001000000BA R
(1781711794.536480) can0 120#00000000000000BE R
(1781711794.536711) can0 541#00001000000B132A R
(1781711794.536941) can0 12D#000000000000005F R
(1781711794.537172) can0 450#0000000000002800 R
(1781711794.546173) can0 12D#000000000000006A R
(1781711794.546419) can0 12E#000000000000C02E R
(1781711794.546651) can0 121#00A601CF048000D9 R
(1781711794.546884) can0 129#00000001000000D0 R
(1781711794.547111) can0 120#00000000000000D4 R
(1781711794.547340) can0 541#00001000000B1340 R
(1781711794.560029) can0 12D#000000000000008B R
(1781711794.560262) can0 12D#00000000000000BE R
(1781711794.560493) can0 12E#000000000000C044 R
(1781711794.560723) can0 12A#10050000000A00B6 R
(1781711794.560953) can0 5A0#0000000004000051 R
(1781711794.561181) can0 121#00A601CF04800038 R
(1781711794.576336) can0 129#0000000100000031 R
(1781711794.576573) can0 120#0000000000000035 R
(1781711794.576800) can0 541#00001000000B1375 R
(1781711794.577028) can0 12D#00000000000000D4 R
(1781711794.577253) can0 12D#0000000000000035 R
(1781711794.577481) can0 12E#000000000000C071 R
(1781711794.586348) can0 450#0000000000002800 R
(1781711794.586584) can0 121#00A601CF04800052 R
(1781711794.586813) can0 129#000000010000005B R
(1781711794.587044) can0 120#000000000000005F R
(1781711794.587271) can0 541#00001000000B1394 R
(1781711794.600364) can0 12D#000000000000005F R
(1781711794.600614) can0 12D#000000000000006A R
(1781711794.600843) can0 12E#000000000000C090 R
(1781711794.601070) can0 121#00A601CF04800067 R
(1781711794.601298) can0 129#000000010000006E R
(1781711794.601526) can0 540#0000401000010200 R
(1781711794.616209) can0 5B0#100000000000006B R
(1781711794.616450) can0 120#000000000000006A R
(1781711794.616682) can0 541#00001000000B13A1 R
(1781711794.616912) can0 12D#000000000000008B R
(1781711794.617147) can0 12A#10050000000A00DC R
(1781711794.617377) can0 12D#00000000000000BE R
(1781711794.627474) can0 12E#000000000000C0A5 R
(1781711794.627711) can0 121#00A601CF04800086 R
(1781711794.627941) can0 129#000000010000008F R
(1781711794.628171) can0 120#000000000000008B R
(1781711794.628402) can0 541#00001000000B13CB R
(1781711794.628632) can0 12D#00000000000000D4 R
(1781711794.644773) can0 450#0000000000002800 R
(1781711794.645020) can0 12D#0000000000000035 R
(1781711794.645255) can0 12E#000000000000C0CF R
(1781711794.645487) can0 121#00A601CF048000B3 R
(1781711794.645719) can0 129#00000001000000BA R
(1781711794.645950) can0 120#00000000000000BE R
(1781711794.656972) can0 541#00001000000B132A R
(1781711794.657219) can0 12D#000000000000005F R
(1781711794.657456) can0 12D#000000000000006A R
(1781711794.657686) can0 12E#000000000000C02E R
(1781711794.657915) can0 12A#10050000000A003D R
(1781711794.674524) can0 5A0#0000000004000064 R
(1781711794.674659) can0 121#00A601CF048000D9 R
(1781711794.674752) can0 129#00000001000000D0 R
(1781711794.674841) can0 120#00000000000000D4 R
(1781711794.674928) can0 541#00001000000B1340 R
(1781711794.675015) can0 12D#000000000000008B R
(1781711794.680089) can0 12D#00000000000000BE R
(1781711794.680183) can0 12E#000000000000C044 R
(1781711794.680265) can0 450#0000000000002800 R
(1781711794.680344) can0 121#00A601CF04800038 R
(1781711794.696256) can0 129#0000000100000031 R
(1781711794.696334) can0 120#0000000000000035 R
(1781711794.696394) can0 541#00001000000B1375 R
(1781711794.696459) can0 12D#00000000000000D4 R
(1781711794.696518) can0 12D#0000000000000035 R
(1781711794.704587) can0 12E#000000000000C071 R
(1781711794.704679) can0 121#00A601CF04800052 R
(1781711794.704735) can0 129#000000010000005B R
(1781711794.704789) can0 540#0000401000010200 R
(1781711794.704843) can0 5B0#100000000000008A R
(1781711794.704896) can0 120#000000000000005F R
(1781711794.719899) can0 541#00001000000B1394 R
(1781711794.719974) can0 12D#000000000000005F R
(1781711794.720027) can0 12A#10050000000A0057 R
(1781711794.720079) can0 12D#000000000000006A R
(1781711794.720140) can0 12E#000000000000C090 R
(1781711794.720195) can0 121#00A601CF04800067 R
(1781711794.736206) can0 129#000000010000006E R
(1781711794.736277) can0 120#000000000000006A R
(1781711794.736336) can0 541#00001000000B13A1 R
(1781711794.736391) can0 12D#000000000000008B R
(1781711794.736456) can0 450#0000000000002800 R
(1781711794.736511) can0 12D#00000000000000BE R
(1781711794.756098) can0 12E#000000000000C0A5 R
(1781711794.756174) can0 121#00A601CF04800086 R
(1781711794.756234) can0 129#000000010000008F R
(1781711794.756293) can0 120#000000000000008B R
(1781711794.756353) can0 541#00001000000B13CB R
(1781711794.756413) can0 12D#00000000000000D4 R
(1781711794.761437) can0 12D#0000000000000035 R
(1781711794.761498) can0 12E#000000000000C0CF R
(1781711794.761560) can0 12A#10050000000A0062 R
(1781711794.761620) can0 5A0#0000000004000085 R
(1781711794.761680) can0 121#00A601CF048000B3 R
(1781711794.761739) can0 129#00000001000000BA R
(1781711794.777331) can0 120#00000000000000BE R
(1781711794.777410) can0 541#00001000000B132A R
(1781711794.777475) can0 12D#000000000000005F R
(1781711794.777542) can0 12D#000000000000006A R
(1781711794.777608) can0 12E#000000000000C02E R
(1781711794.796042) can0 450#0000000000002800 R
(1781711794.796136) can0 121#00A601CF048000D9 R
(1781711794.796211) can0 129#00000001000000D0 R
(1781711794.796289) can0 120#00000000000000D4 R
(1781711794.796365) can0 541#00001000000B1340 R
(1781711794.796440) can0 12D#000000000000008B R
(1781711794.801431) can0 12D#00000000000000BE R
(1781711794.801509) can0 12E#000000000000C044 R
(1781711794.801583) can0 121#00A601CF04800038 R
(1781711794.801658) can0 129#0000000100000031 R
(1781711794.801733) can0 540#0000401000010200 R
(1781711794.801808) can0 5B0#10000000000000BF R
(1781711794.819617) can0 120#0000000000000035 R
(1781711794.819714) can0 541#00001000000B1375 R
(1781711794.819802) can0 12D#00000000000000D4 R
(1781711794.819889) can0 12A#10050000000A0083 R
(1781711794.819976) can0 12D#0000000000000035 R
(1781711794.820064) can0 12E#000000000000C071 R
(1781711794.836103) can0 121#00A601CF04800052 R
(1781711794.836251) can0 129#000000010000005B R
(1781711794.836372) can0 120#000000000000005F R
(1781711794.836479) can0 541#00001000000B1394 R
(1781711794.836585) can0 12D#000000000000005F R
(1781711794.836690) can0 450#0000000000002800 R
(1781711794.844780) can0 12D#000000000000006A R
(1781711794.845003) can0 12E#000000000000C090 R
(1781711794.845120) can0 121#00A601CF04800067 R
(1781711794.845229) can0 129#000000010000006E R
(1781711794.845335) can0 120#000000000000006A R
(1781711794.859653) can0 541#00001000000B13A1 R
(1781711794.859826) can0 12D#000000000000008B R
(1781711794.859965) can0 12D#00000000000000BE R
(1781711794.860097) can0 12E#000000000000C0A5 R
(1781711794.860229) can0 12A#10050000000A00B6 R
(1781711794.860363) can0 5A0#00000000040000B0 R
(1781711794.876250) can0 121#00A601CF04800086 R
(1781711794.876521) can0 129#000000010000008F R
(1781711794.876760) can0 120#000000000000008B R
(1781711794.876994) can0 541#00001000000B13CB R
(1781711794.877226) can0 12D#00000000000000D4 R
(1781711794.877458) can0 12D#0000000000000035 R
(1781711794.886156) can0 12E#000000000000C0CF R
(1781711794.886425) can0 450#0000000000002800 R
(1781711794.886670) can0 121#00A601CF048000B3 R
(1781711794.886947) can0 129#00000001000000BA R
(1781711794.887190) can0 120#00000000000000BE R
(1781711794.887423) can0 541#00001000000B132A R
(1781711794.900483) can0 12D#000000000000005F R
(1781711794.900730) can0 12D#000000000000006A R
(1781711794.900964) can0 12E#000000000000C02E R
(1781711794.901197) can0 121#00A601CF048000D9 R
(1781711794.901426) can0 129#00000001000000D0 R
(1781711794.901654) can0 540#0000401000010200 R
(1781711794.916393) can0 5B0#10000000000000D5 R
(1781711794.916643) can0 120#00000000000000D4 R
(1781711794.916877) can0 541#00001000000B1340 R
