(1783697275.746297) can0 12D#0000000000000035 R
(1783697275.746567) can0 12E#000000000000C071 R
(1783697275.747568) can0 541#000000000001C25F R
(1783697275.753218) can0 450#0000000000002800 R
(1783697275.756468) can0 12D#000000000000005F R
(1783697275.756757) can0 12A#10050000000A0057 R
(1783697275.766316) can0 12D#000000000000006A R
(1783697275.766639) can0 12E#000000000000C090 R
(1783697275.767587) can0 541#000000000001C26A R
(1783697275.776416) can0 12D#000000000000008B R
(1783697275.786344) can0 12D#00000000000000BE R
(1783697275.786676) can0 12E#000000000000C0A5 R
(1783697275.787588) can0 541#000000000001C28B R
(1783697275.796446) can0 12D#00000000000000D4 R
(1783697275.803301) can0 450#0000000000002800 R
(1783697275.806475) can0 12D#0000000000000035 R
(1783697275.806802) can0 12E#000000000000C0CF R
(1783697275.806892) can0 12A#10050000000A0062 R
(1783697275.807111) can0 5A0#0000000004000085 R
(1783697275.807743) can0 541#000000000001C2BE R
(1783697275.816398) can0 12D#000000000000005F R
(1783697275.826312) can0 12D#000000000000006A R
(1783697275.826640) can0 12E#000000000000C02E R
(1783697275.827590) can0 541#000000000001C2D4 R
(1783697275.836429) can0 12D#000000000000008B R
(1783697275.846350) can0 12D#00000000000000BE R
(1783697275.846677) can0 12E#000000000000C044 R
(1783697275.847575) can0 541#000000000001C235 R
(1783697275.853213) can0 450#0000000000002800 R
(1783697275.856421) can0 12D#00000000000000D4 R
(1783697275.856675) can0 12A#10050000000A0083 R
(1783697275.866333) can0 12D#0000000000000035 R
(1783697275.866609) can0 12E#000000000000C071 R
(1783697275.867811) can0 541#000000000001C25F R
(1783697275.876415) can0 12D#000000000000005F R
(1783697275.886313) can0 12D#000000000000006A R
(1783697275.886586) can0 12E#000000000000C090 R
(1783697275.887591) can0 541#000000000001C26A R
(1783697275.896401) can0 12D#000000000000008B R
(1783697275.903269) can0 450#0000000000002800 R
(1783697275.906496) can0 12D#00000000000000BE R
(1783697275.906798) can0 12E#000000000000C0A5 R
(1783697275.906886) can0 12A#10050000000A00B6 R
(1783697275.907143) can0 5A0#00000000040000B0 R
(1783697275.907754) can0 541#000000000001C28B R
(1783697275.916439) can0 12D#00000000000000D4 R
(1783697275.926322) can0 12D#0000000000000035 R
(1783697275.926598) can0 12E#000000000000C0CF R
(1783697275.927828) can0 541#000000000001C2BE R
(1783697275.936411) can0 12D#000000000000005F R
(1783697275.946287) can0 12D#000000000000006A R
(1783697275.946616) can0 12E#000000000000C02E R
(1783697275.947829) can0 541#000000000001C2D4 R
(1783697275.953220) can0 450#0000000000002800 R
(1783697275.956426) can0 12D#000000000000008B R
(1783697275.956725) can0 12A#10050000000A00DC R
(1783697275.966304) can0 12D#00000000000000BE R
(1783697275.966600) can0 12E#000000000000C044 R
(1783697275.967580) can0 541#000000000001C235 R
(1783697275.976396) can0 12D#00000000000000D4 R
(1783697275.986334) can0 12D#0000000000000035 R
(1783697275.986610) can0 12E#000000000000C071 R
(1783697275.987602) can0 541#000000000001C25F R
(1783697275.996438) can0 12D#000000000000005F R
(1783697276.003266) can0 450#0000000000002800 R
(1783697276.006452) can0 12D#000000000000006A R
(1783697276.006759) can0 12E#000000000000C090 R
(1783697276.006862) can0 12A#10050000000A003D R
(1783697276.007134) can0 5A0#00000000040000DA R
(1783697276.007817) can0 541#000000000001C26A R
(1783697276.016382) can0 12D#000000000000008B R
(1783697276.026319) can0 12D#00000000000000BE R
(1783697276.026589) can0 12E#000000000000C0A5 R
(1783697276.027828) can0 541#000000000001C28B R
(1783697276.036398) can0 12D#00000000000000D4 R
(1783697276.046327) can0 12D#0000000000000035 R
(1783697276.046600) can0 12E#000000000000C0CF R
(1783697276.047598) can0 541#000000000001C2BE R
(1783697276.053221) can0 450#0000000000002800 R
(1783697276.056427) can0 12D#000000000000005F R
(1783697276.056730) can0 12A#10050000000A0057 R
(1783697276.066334) can0 12D#000000000000006A R
(1783697276.066611) can0 12E#000000000000C02E R
(1783697276.067580) can0 541#000000000001C2D4 R
(1783697276.076418) can0 12D#000000000000008B R
(1783697276.086287) can0 12D#00000000000000BE R
(1783697276.086549) can0 12E#000000000000C044 R
(1783697276.087838) can0 541#000000000001C235 R
(1783697276.096444) can0 12D#00000000000000D4 R
(1783697276.103275) can0 450#0000000000002800 R
(1783697276.106407) can0 12D#0000000000000035 R
(1783697276.106709) can0 12E#000000000000C071 R
(1783697276.106811) can0 12A#10050000000A0062 R
(1783697276.107133) can0 5A0#000000000400003B R
(1783697276.109196) can0 541#000000000001C25F R
(1783697276.116440) can0 12D#000000000000005F R
(1783697276.126331) can0 12D#000000000000006A R
(1783697276.126607) can0 12E#000000000000C090 R
(1783697276.127570) can0 541#000000000001C26A R
(1783697276.136601) can0 12D#000000000000008B R
(1783697276.146336) can0 12D#00000000000000BE R
(1783697276.146609) can0 12E#000000000000C0A5 R
(1783697276.147597) can0 541#000000000001C28B R
(1783697276.153238) can0 450#0000000000002800 R
(1783697276.156442) can0 12D#00000000000000D4 R
(1783697276.156701) can0 12A#10050000000A0083 R
(1783697276.166317) can0 12D#0000000000000035 R
(1783697276.166599) can0 12E#000000000000C0CF R
(1783697276.167593) can0 541#000000000001C2BE R
(1783697276.176372) can0 12D#000000000000005F R
(1783697276.186332) can0 12D#000000000000006A R
(1783697276.186604) can0 12E#000000000000C02E R
(1783697276.187843) can0 541#000000000001C2D4 R
(1783697276.196433) can0 12D#000000000000008B R
(1783697276.203281) can0 450#0000000000002800 R
(1783697276.206474) can0 12D#00000000000000BE R
(1783697276.206732) can0 12E#000000000000C044 R
(1783697276.206907) can0 12A#10050000000A00B6 R
(1783697276.207161) can0 5A0#0000000004000051 R
(1783697276.207695) can0 541#000000000001C235 R
(1783697276.216553) can0 12D#00000000000000D4 R
(1783697276.226285) can0 12D#0000000000000035 R
(1783697276.226557) can0 12E#000000000000C071 R
(1783697276.227808) can0 541#000000000001C25F R
(1783697276.236397) can0 12D#000000000000005F R
(1783697276.246300) can0 12D#000000000000006A R
(1783697276.246574) can0 12E#000000000000C090 R
(1783697276.247595) can0 541#000000000001C26A R
(1783697276.253219) can0 450#0000000000002800 R
(1783697276.256419) can0 12D#000000000000008B R
(1783697276.256704) can0 12A#10050000000A00DC R
(1783697276.266323) can0 12D#00000000000000BE R
(1783697276.266647) can0 12E#000000000000C0A5 R
(1783697276.267592) can0 541#000000000001C28B R
(1783697276.276436) can0 12D#00000000000000D4 R
(1783697276.286307) can0 12D#0000000000000035 R
(1783697276.286579) can0 12E#000000000000C0CF R
(1783697276.287827) can0 541#000000000001C2BE R
(1783697276.296406) can0 12D#000000000000005F R
(1783697276.303284) can0 450#0000000000002800 R
(1783697276.306431) can0 12D#000000000000006A R
(1783697276.306677) can0 12E#000000000000C02E R
(1783697276.306826) can0 12A#10050000000A003D R
(1783697276.307116) can0 5A0#0000000004000064 R
(1783697276.307701) can0 541#000000000001C2D4 R
(1783697276.316398) can0 12D#000000000000008B R
(1783697276.326306) can0 12D#00000000000000BE R
(1783697276.326739) can0 12E#000000000000C044 R
(1783697276.328580) can0 541#000000000001C235 R
(1783697276.336412) can0 12D#00000000000000D4 R
(1783697276.346330) can0 12D#0000000000000035 R
(1783697276.346610) can0 12E#000000000000C071 R
(1783697276.347845) can0 541#000000000001C25F R
(1783697276.353232) can0 450#0000000000002800 R
(1783697276.356437) can0 12D#000000000000005F R
(1783697276.356695) can0 12A#10050000000A0057 R
(1783697276.366274) can0 12D#000000000000006A R
(1783697276.366599) can0 12E#000000000000C090 R
(1783697276.367872) can0 541#000000000001C26A R
(1783697276.376574) can0 12D#000000000000008B R
(1783697276.386318) can0 12D#00000000000000BE R
(1783697276.386643) can0 12E#000000000000C0A5 R
(1783697276.387856) can0 541#000000000001C28B R
(1783697276.396416) can0 12D#00000000000000D4 R
(1783697276.403291) can0 450#0000000000002800 R
(1783697276.406432) can0 12D#0000000000000035 R
(1783697276.406691) can0 12E#000000000000C0CF R
(1783697276.406841) can0 12A#10050000000A0062 R
(1783697276.407070) can0 5A0#0000000004000085 R
(1783697276.407652) can0 541#000000000001C2BE R
(1783697276.416415) can0 12D#000000000000005F R
(1783697276.426309) can0 12D#000000000000006A R
(1783697276.426643) can0 12E#000000000000C02E R
(1783697276.427617) can0 541#000000000001C2D4 R
(1783697276.436369) can0 12D#000000000000008B R
(1783697276.446277) can0 12D#00000000000000BE R
(1783697276.446613) can0 12E#000000000000C044 R
(1783697276.447859) can0 541#000000000001C235 R
(1783697276.453236) can0 450#0000000000002800 R
(1783697276.456377) can0 12D#00000000000000D4 R
(1783697276.456634) can0 12A#10050000000A0083 R
(1783697276.466327) can0 12D#0000000000000035 R
(1783697276.466610) can0 12E#000000000000C071 R
(1783697276.467843) can0 541#000000000001C25F R
(1783697276.476417) can0 12D#000000000000005F R
(1783697276.486295) can0 12D#000000000000006A R
(1783697276.486572) can0 12E#000000000000C090 R
(1783697276.487878) can0 541#000000000001C26A R
(1783697276.496414) can0 12D#000000000000008B R
(1783697276.503296) can0 450#0000000000002800 R
(1783697276.506428) can0 12D#00000000000000BE R
(1783697276.506682) can0 12E#000000000000C0A5 R
(1783697276.506835) can0 12A#10050000000A00B6 R
(1783697276.507125) can0 5A0#00000000040000B0 R
(1783697276.507641) can0 541#000000000001C28B R
(1783697276.516388) can0 12D#00000000000000D4 R
(1783697276.526214) can0 12D#0000000000000035 R
(1783697276.526409) can0 12E#000000000000C0CF R
(1783697276.527586) can0 541#000000000001C2BE R
(1783697276.536400) can0 12D#000000000000005F R
(1783697276.546891) can0 12D#000000000000006A R
(1783697276.547249) can0 12E#000000000000C02E R
(1783697276.547602) can0 541#000000000001C2D4 R
(1783697276.553237) can0 450#0000000000002800 R
(1783697276.556425) can0 12D#000000000000008B R
(1783697276.558070) can0 12A#10050000000A00DC R
(1783697276.566305) can0 12D#00000000000000BE R
(1783697276.566577) can0 12E#000000000000C044 R
(1783697276.567881) can0 541#000000000001C235 R
(1783697276.576368) can0 12D#00000000000000D4 R
(1783697276.586284) can0 12D#0000000000000035 R
(1783697276.586548) can0 12E#000000000000C071 R
(1783697276.587721) can0 541#000000000001C25F R
(1783697276.596371) can0 12D#000000000000005F R
(1783697276.603293) can0 450#0000000000002800 R
(1783697276.606369) can0 12D#000000000000006A R
(1783697276.606610) can0 12E#000000000000C090 R
(1783697276.606828) can0 12A#10050000000A003D R
(1783697276.607114) can0 5A0#00000000040000DA R
(1783697276.607638) can0 541#000000000001C37C R
(1783697276.616393) can0 12D#000000000000008B R
(1783697276.626323) can0 12D#00000000000000BE R
(1783697276.626588) can0 12E#000000000000C0A5 R
(1783697276.629148) can0 541#000000000001C39D R
(1783697276.636411) can0 12D#00000000000000D4 R
(1783697276.646289) can0 12D#0000000000000035 R
(1783697276.647208) can0 12E#000000000000C0CF R
(1783697276.647595) can0 541#000000000001C3A8 R
(1783697276.653236) can0 450#0000000000002800 R
(1783697276.656439) can0 12D#000000000000005F R
(1783697276.656940) can0 12A#10050000000A0057 R
(1783697276.666287) can0 12D#000000000000006A R
(1783697276.666548) can0 12E#000000000000C02E R
(1783697276.667851) can0 541#000000000001C3C2 R
(1783697276.676401) can0 12D#000000000000008B R
(1783697276.686302) can0 12D#00000000000000BE R
(1783697276.686587) can0 12E#000000000000C044 R
(1783697276.688440) can0 541#000000000001C323 R
(1783697276.696406) can0 12D#00000000000000D4 R
(1783697276.703300) can0 450#0000000000002800 R
(1783697276.706442) can0 12D#0000000000000035 R
(1783697276.706743) can0 12E#000000000000C071 R
(1783697276.706847) can0 12A#10050000000A0062 R
(1783697276.707146) can0 5A0#000000000400003B R
(1783697276.707647) can0 541#000000000001C349 R
(1783697276.716391) can0 12D#000000000000005F R
(1783697276.726269) can0 12D#000000000000006A R
(1783697276.726537) can0 12E#000000000000C090 R
(1783697276.727853) can0 541#000000000001C37C R
(1783697276.736352) can0 12D#000000000000008B R
(1783697276.746301) can0 12D#00000000000000BE R
(1783697276.746566) can0 12E#000000000000C0A5 R
(1783697276.748745) can0 541#000000000001C39D R
(1783697276.753254) can0 450#0000000000002800 R
(1783697276.756459) can0 12D#00000000000000D4 R
(1783697276.756892) can0 12A#10050000000A0083 R
(1783697276.766301) can0 12D#0000000000000035 R
(1783697276.766581) can0 12E#000000000000C0CF R
(1783697276.767861) can0 541#000000000001C3A8 R
(1783697276.776379) can0 12D#000000000000005F R
(1783697276.786272) can0 12D#000000000000006A R
(1783697276.786731) can0 12E#000000000000C02E R
(1783697276.788719) can0 541#000000000001C3C2 R
(1783697276.796360) can0 12D#000000000000008B R
(1783697276.803295) can0 450#0000000000002800 R
(1783697276.806442) can0 12D#00000000000000BE R
(1783697276.806945) can0 12E#000000000000C044 R
(1783697276.807097) can0 12A#10050000000A00B6 R
(1783697276.807270) can0 5A0#0000000004000051 R
(1783697276.807725) can0 541#000000000001C323 R
(1783697276.816407) can0 12D#00000000000000D4 R
(1783697276.826317) can0 12D#0000000000000035 R
(1783697276.826585) can0 12E#000000000000C071 R
(1783697276.827868) can0 541#000000000001C349 R
(1783697276.836393) can0 12D#000000000000005F R
(1783697276.846293) can0 12D#000000000000006A R
(1783697276.846579) can0 12E#000000000000C090 R
(1783697276.847885) can0 541#000000000001C37C R
(1783697276.853250) can0 450#0000000000002800 R
(1783697276.856422) can0 12D#000000000000008B R
(1783697276.856913) can0 12A#10050000000A00DC R
(1783697276.866294) can0 12D#00000000000000BE R
(1783697276.866571) can0 12E#000000000000C0A5 R
(1783697276.867853) can0 541#000000000001C39D R
(1783697276.876362) can0 12D#00000000000000D4 R
(1783697276.886308) can0 12D#0000000000000035 R
(1783697276.886578) can0 12E#000000000000C0CF R
(1783697276.887974) can0 541#000000000001C3A8 R
(1783697276.896414) can0 12D#000000000000005F R
(1783697276.903294) can0 450#0000000000002800 R
(1783697276.906430) can0 12D#000000000000006A R
(1783697276.906739) can0 12E#000000000000C02E R
(1783697276.906841) can0 12A#10050000000A003D R
(1783697276.907083) can0 5A0#0000000004000064 R
(1783697276.907697) can0 541#000000000001C3C2 R
(1783697276.916386) can0 12D#000000000000008B R
(1783697276.926298) can0 12D#00000000000000BE R
(1783697276.926568) can0 12E#000000000000C044 R
(1783697276.927629) can0 541#000000000001C323 R
(1783697276.936361) can0 12D#00000000000000D4 R
(1783697276.946256) can0 12D#0000000000000035 R
(1783697276.946527) can0 12E#000000000000C071 R
(1783697276.947609) can0 541#000000000001C349 R
(1783697276.953259) can0 450#0000000000002800 R
(1783697276.956440) can0 12D#000000000000005F R
(1783697276.956774) can0 12A#10050000000A0057 R
(1783697276.966297) can0 12D#000000000000006A R
(1783697276.966576) can0 12E#000000000000C090 R
(1783697276.967875) can0 541#000000000001C37C R
(1783697276.976399) can0 12D#000000000000008B R
(1783697276.986297) can0 12D#00000000000000BE R
(1783697276.986566) can0 12E#000000000000C0A5 R
(1783697276.987858) can0 541#000000000001C39D R
(1783697276.996361) can0 12D#00000000000000D4 R
(1783697277.003842) can0 450#0000000000002800 R
(1783697277.006397) can0 12D#0000000000000035 R
(1783697277.006631) can0 12E#000000000000C0CF R
(1783697277.006822) can0 12A#10050000000A0062 R
(1783697277.007100) can0 5A0#0000000004000085 R
(1783697277.007709) can0 541#000000000001C3A8 R
(1783697277.016373) can0 12D#000000000000005F R
(1783697277.026295) can0 12D#000000000000006A R
(1783697277.026562) can0 12E#000000000000C02E R
(1783697277.027844) can0 541#000000000001C3C2 R
(1783697277.036376) can0 12D#000000000000008B R
(1783697277.046303) can0 12D#00000000000000BE R
(1783697277.046575) can0 12E#000000000000C044 R
(1783697277.047839) can0 541#000000000001C323 R
(1783697277.053240) can0 450#0000000000002800 R
(1783697277.056901) can0 12D#00000000000000D4 R
(1783697277.057202) can0 12A#10050000000A0083 R
(1783697277.066287) can0 12D#0000000000000035 R
(1783697277.066732) can0 12E#000000000000C071 R
(1783697277.068726) can0 541#000000000001C349 R
(1783697277.076360) can0 12D#000000000000005F R
(1783697277.086726) can0 12D#000000000000006A R
(1783697277.086979) can0 12E#000000000000C090 R
(1783697277.087582) can0 541#000000000001C37C R
(1783697277.096718) can0 12D#000000000000008B R
(1783697277.103310) can0 450#0000000000002800 R
(1783697277.106418) can0 12D#00000000000000BE R
(1783697277.106667) can0 12E#000000000000C0A5 R
(1783697277.106855) can0 12A#10050000000A00B6 R
(1783697277.107083) can0 5A0#00000000040000B0 R
(1783697277.107659) can0 541#000000000001C39D R
(1783697277.116390) can0 12D#00000000000000D4 R
(1783697277.126283) can0 12D#0000000000000035 R
(1783697277.126568) can0 12E#000000000000C0CF R
(1783697277.127857) can0 541#000000000001C3A8 R
(1783697277.136945) can0 12D#000000000000005F R
(1783697277.146276) can0 12D#000000000000006A R
(1783697277.146550) can0 12E#000000000000C02E R
(1783697277.147848) can0 541#000000000001C3C2 R
(1783697277.153255) can0 450#0000000000002800 R
(1783697277.156319) can0 12D#000000000000008B R
(1783697277.156527) can0 12A#10050000000A00DC R
(1783697277.166303) can0 12D#00000000000000BE R
(1783697277.166626) can0 12E#000000000000C044 R
(1783697277.167884) can0 541#000000000001C323 R
(1783697277.176391) can0 12D#00000000000000D4 R
(1783697277.186301) can0 12D#0000000000000035 R
(1783697277.186626) can0 12E#000000000000C071 R
(1783697277.187905) can0 541#000000000001C349 R
(1783697277.196379) can0 12D#000000000000005F R
(1783697277.203313) can0 450#0000000000002800 R
(1783697277.206395) can0 12D#000000000000006A R
(1783697277.206644) can0 12E#000000000000C090 R
(1783697277.207067) can0 12A#10050000000A003D R
(1783697277.207384) can0 5A0#00000000040000DA R
(1783697277.207684) can0 541#000000000001C37C R
(1783697277.216376) can0 12D#000000000000008B R
(1783697277.226282) can0 12D#00000000000000BE R
(1783697277.226606) can0 12E#000000000000C0A5 R
(1783697277.227886) can0 541#000000000001C39D R
(1783697277.236378) can0 12D#00000000000000D4 R
(1783697277.246279) can0 12D#0000000000000035 R
(1783697277.246550) can0 12E#000000000000C0CF R
(1783697277.247831) can0 541#000000000001C3A8 R
(1783697277.253270) can0 450#0000000000002800 R
(1783697277.256394) can0 12D#000000000000005F R
(1783697277.256655) can0 12A#10050000000A0057 R
(1783697277.266286) can0 12D#000000000000006A R
(1783697277.266560) can0 12E#000000000000C02E R
(1783697277.267592) can0 541#000000000001C3C2 R
(1783697277.276284) can0 12D#000000000000008B R
(1783697277.286198) can0 12D#00000000000000BE R
(1783697277.286392) can0 12E#000000000000C044 R
(1783697277.287570) can0 541#000000000001C323 R
(1783697277.296331) can0 12D#00000000000000D4 R
(1783697277.303509) can0 450#0000000000002800 R
(1783697277.306397) can0 12D#0000000000000035 R
(1783697277.306634) can0 12E#000000000000C071 R
(1783697277.306799) can0 12A#10050000000A0062 R
(1783697277.307166) can0 5A0#000000000400003B R
(1783697277.307656) can0 541#000000000001C349 R
(1783697277.316426) can0 12D#000000000000005F R
(1783697277.327240) can0 12D#000000000000006A R
(1783697277.327690) can0 12E#000000000000C090 R
(1783697277.327796) can0 541#000000000001C37C R
(1783697277.336377) can0 12D#000000000000008B R
(1783697277.346249) can0 12D#00000000000000BE R
(1783697277.346568) can0 12E#000000000000C0A5 R
(1783697277.347837) can0 541#000000000001C39D R
(1783697277.353263) can0 450#0000000000002800 R
(1783697277.356334) can0 12D#00000000000000D4 R
(1783697277.356585) can0 12A#10050000000A0083 R
(1783697277.366273) can0 12D#0000000000000035 R
(1783697277.366548) can0 12E#000000000000C0CF R
(1783697277.367714) can0 541#000000000001C3A8 R
(1783697277.376383) can0 12D#000000000000005F R
(1783697277.386269) can0 12D#000000000000006A R
(1783697277.386542) can0 12E#000000000000C02E R
(1783697277.387648) can0 541#000000000001C3C2 R
(1783697277.396395) can0 12D#000000000000008B R
(1783697277.403620) can0 450#0000000000002800 R
(1783697277.406442) can0 12D#00000000000000BE R
(1783697277.408136) can0 12E#000000000000C044 R
(1783697277.408273) can0 12A#10050000000A00B6 R
(1783697277.408371) can0 5A0#0000000004000051 R
(1783697277.408601) can0 541#000000000001C323 R
(1783697277.416356) can0 12D#00000000000000D4 R
(1783697277.426248) can0 12D#0000000000000035 R
(1783697277.426514) can0 12E#000000000000C071 R
(1783697277.427842) can0 541#000000000001C349 R
(1783697277.436369) can0 12D#000000000000005F R
(1783697277.446282) can0 12D#000000000000006A R
(1783697277.446607) can0 12E#000000000000C090 R
(1783697277.447603) can0 541#000000000001C37C R
(1783697277.453265) can0 450#0000000000002800 R
(1783697277.456382) can0 12D#000000000000008B R
(1783697277.456709) can0 12A#10050000000A00DC R
(1783697277.466284) can0 12D#00000000000000BE R
(1783697277.466563) can0 12E#000000000000C0A5 R
(1783697277.469005) can0 541#000000000001C39D R
(1783697277.476365) can0 12D#00000000000000D4 R
(1783697277.486270) can0 12D#0000000000000035 R
(1783697277.486541) can0 12E#000000000000C0CF R
(1783697277.487840) can0 541#000000000001C3A8 R
(1783697277.496361) can0 12D#000000000000005F R
(1783697277.503335) can0 450#0000000000002800 R
(1783697277.506324) can0 12D#000000000000006A R
(1783697277.506563) can0 12E#000000000000C02E R
(1783697277.506772) can0 12A#10050000000A003D R
(1783697277.507055) can0 5A0#0000000004000064 R
(1783697277.507673) can0 541#000000000001C3C2 R
(1783697277.516383) can0 12D#000000000000008B R
(1783697277.526303) can0 12D#00000000000000BE R
(1783697277.526575) can0 12E#000000000000C044 R
(1783697277.527627) can0 541#000000000001C323 R
(1783697277.536373) can0 12D#00000000000000D4 R
(1783697277.546261) can0 12D#0000000000000035 R
(1783697277.546540) can0 12E#000000000000C071 R
(1783697277.548488) can0 541#000000000001C349 R
(1783697277.553418) can0 450#0000000000002800 R
(1783697277.557178) can0 12D#000000000000005F R
(1783697277.557543) can0 12A#10050000000A0057 R
(1783697277.566269) can0 12D#000000000000006A R
(1783697277.566541) can0 12E#000000000000C090 R
(1783697277.567875) can0 541#000000000001C37C R
(1783697277.576350) can0 12D#000000000000008B R
(1783697277.586269) can0 12D#00000000000000BE R
(1783697277.586544) can0 12E#000000000000C0A5 R
(1783697277.587874) can0 541#000000000001C39D R
(1783697277.596400) can0 12D#00000000000000D4 R
(1783697277.603310) can0 450#0000000000002800 R
(1783697277.606438) can0 12D#0000000000000035 R
(1783697277.606830) can0 12E#000000000000C0CF R
(1783697277.607049) can0 12A#10050000000A0062 R
(1783697277.607155) can0 5A0#0000000004000085 R
(1783697277.607786) can0 541#000000000001C4A0 R
(1783697277.616415) can0 12D#000000000000005F R
(1783697277.626242) can0 12D#000000000000006A R
(1783697277.626512) can0 12E#000000000000C02E R
(1783697277.627664) can0 541#000000000001C4CA R
(1783697277.636323) can0 12D#000000000000008B R
(1783697277.646278) can0 12D#00000000000000BE R
(1783697277.646563) can0 12E#000000000000C044 R
(1783697277.647844) can0 541#000000000001C42B R
(1783697277.653276) can0 450#0000000000002800 R
(1783697277.656401) can0 12D#00000000000000D4 R
(1783697277.656760) can0 12A#10050000000A0083 R
(1783697277.666276) can0 12D#0000000000000035 R
(1783697277.666549) can0 12E#000000000000C071 R
(1783697277.667888) can0 541#000000000001C441 R
(1783697277.676387) can0 12D#000000000000005F R
(1783697277.686272) can0 12D#000000000000006A R
(1783697277.686549) can0 12E#000000000000C090 R
(1783697277.687877) can0 541#000000000001C474 R
(1783697277.696412) can0 12D#000000000000008B R
(1783697277.703535) can0 450#0000000000002800 R
(1783697277.706392) can0 12D#00000000000000BE R
(1783697277.706775) can0 12E#000000000000C0A5 R
(1783697277.706947) can0 12A#10050000000A00B6 R
(1783697277.707060) can0 5A0#00000000040000B0 R
(1783697277.707977) can0 541#000000000001C495 R
(1783697277.716528) can0 12D#00000000000000D4 R
(1783697277.726332) can0 12D#0000000000000035 R
(1783697277.726663) can0 12E#000000000000C0CF R
(1783697277.727614) can0 541#000000000001C4A0 R
(1783697277.736381) can0 12D#000000000000005F R
(1783697277.746253) can0 12D#000000000000006A R
(1783697277.746519) can0 12E#000000000000C02E R
(1783697277.747868) can0 541#000000000001C4CA R
(1783697277.753280) can0 450#0000000000002800 R
(1783697277.756318) can0 12D#000000000000008B R
(1783697277.756519) can0 12A#10050000000A00DC R
(1783697277.766253) can0 12D#00000000000000BE R
(1783697277.766591) can0 12E#000000000000C044 R
(1783697277.767627) can0 541#000000000001C42B R
(1783697277.776847) can0 12D#00000000000000D4 R
(1783697277.786231) can0 12D#0000000000000035 R
(1783697277.786556) can0 12E#000000000000C071 R
(1783697277.787645) can0 541#000000000001C441 R
(1783697277.796395) can0 12D#000000000000005F R
(1783697277.803316) can0 450#0000000000002800 R
(1783697277.806396) can0 12D#000000000000006A R
(1783697277.806637) can0 12E#000000000000C090 R
(1783697277.806797) can0 12A#10050000000A003D R
(1783697277.807052) can0 5A0#00000000040000DA R
(1783697277.807740) can0 541#000000000001C474 R
(1783697277.816362) can0 12D#000000000000008B R
(1783697277.826286) can0 12D#00000000000000BE R
(1783697277.826606) can0 12E#000000000000C0A5 R
(1783697277.827619) can0 541#000000000001C495 R
(1783697277.836377) can0 12D#00000000000000D4 R
(1783697277.846252) can0 12D#0000000000000035 R
(1783697277.846523) can0 12E#000000000000C0CF R
(1783697277.847604) can0 541#000000000001C4A0 R
(1783697277.853455) can0 450#0000000000002800 R
(1783697277.856347) can0 12D#000000000000005F R
(1783697277.856603) can0 12A#10050000000A0057 R
(1783697277.866279) can0 12D#000000000000006A R
(1783697277.866549) can0 12E#000000000000C02E R
(1783697277.867878) can0 541#000000000001C4CA R
(1783697277.876383) can0 12D#000000000000008B R
(1783697277.886275) can0 12D#00000000000000BE R
(1783697277.886594) can0 12E#000000000000C044 R
(1783697277.887612) can0 541#000000000001C42B R
(1783697277.896333) can0 12D#00000000000000D4 R
(1783697277.903328) can0 450#0000000000002800 R
(1783697277.906347) can0 12D#0000000000000035 R
(1783697277.906526) can0 12E#000000000000C071 R
(1783697277.906789) can0 12A#10050000000A0062 R
(1783697277.907065) can0 5A0#000000000400003B R
(1783697277.907675) can0 541#000000000001C441 R
(1783697277.916376) can0 12D#000000000000005F R
(1783697277.926250) can0 12D#000000000000006A R
(1783697277.926574) can0 12E#000000000000C090 R
(1783697277.927893) can0 541#000000000001C474 R
(1783697277.936347) can0 12D#000000000000008B R
(1783697277.946286) can0 12D#00000000000000BE R
(1783697277.946612) can0 12E#000000000000C0A5 R
(1783697277.947620) can0 541#000000000001C495 R
(1783697277.953284) can0 450#0000000000002800 R
(1783697277.956388) can0 12D#00000000000000D4 R
(1783697277.956650) can0 12A#10050000000A0083 R
(1783697277.966256) can0 12D#0000000000000035 R
(1783697277.966526) can0 12E#000000000000C0CF R
(1783697277.967700) can0 541#000000000001C4A0 R
(1783697277.976324) can0 12D#000000000000005F R
(1783697277.986232) can0 12D#000000000000006A R
(1783697277.986501) can0 12E#000000000000C02E R
(1783697277.987850) can0 541#000000000001C4CA R
(1783697277.996352) can0 12D#000000000000008B R
(1783697278.003344) can0 450#0000000000002800 R
(1783697278.006396) can0 12D#00000000000000BE R
(1783697278.006628) can0 12E#000000000000C044 R
(1783697278.006990) can0 12A#10050000000A00B6 R
(1783697278.007248) can0 5A0#0000000004000051 R
(1783697278.009266) can0 541#000000000001C42B R
(1783697278.017271) can0 12D#00000000000000D4 R
(1783697278.026276) can0 12D#0000000000000035 R
(1783697278.026546) can0 12E#000000000000C071 R
(1783697278.027871) can0 541#000000000001C441 R
(1783697278.036372) can0 12D#000000000000005F R
(1783697278.046243) can0 12D#000000000000006A R
(1783697278.046574) can0 12E#000000000000C090 R
(1783697278.047858) can0 541#000000000001C474 R
(1783697278.053287) can0 450#0000000000002800 R
(1783697278.056351) can0 12D#000000000000008B R
(1783697278.056814) can0 12A#10050000000A00DC R
(1783697278.066253) can0 12D#00000000000000BE R
(1783697278.066519) can0 12E#000000000000C0A5 R
(1783697278.067880) can0 541#000000000001C495 R
(1783697278.076363) can0 12D#00000000000000D4 R
(1783697278.086269) can0 12D#0000000000000035 R
(1783697278.086537) can0 12E#000000000000C0CF R
(1783697278.087704) can0 541#000000000001C4A0 R
(1783697278.096353) can0 12D#000000000000005F R
(1783697278.103327) can0 450#0000000000002800 R
(1783697278.106417) can0 12D#000000000000006A R
(1783697278.106815) can0 12E#000000000000C02E R
(1783697278.106939) can0 12A#10050000000A003D R
(1783697278.107035) can0 5A0#0000000004000064 R
(1783697278.107712) can0 541#000000000001C4CA R
(1783697278.116372) can0 12D#000000000000008B R
(1783697278.126233) can0 12D#00000000000000BE R
(1783697278.126496) can0 12E#000000000000C044 R
(1783697278.127856) can0 541#000000000001C42B R
(1783697278.136316) can0 12D#00000000000000D4 R
(1783697278.146243) can0 12D#0000000000000035 R
(1783697278.146510) can0 12E#000000000000C071 R
(1783697278.147693) can0 541#000000000001C441 R
(1783697278.153290) can0 450#0000000000002800 R
(1783697278.156402) can0 12D#000000000000005F R
(1783697278.156665) can0 12A#10050000000A0057 R
(1783697278.166270) can0 12D#000000000000006A R
(1783697278.166549) can0 12E#000000000000C090 R
(1783697278.167893) can0 541#000000000001C474 R
(1783697278.176336) can0 12D#000000000000008B R
(1783697278.186258) can0 12D#00000000000000BE R
(1783697278.186524) can0 12E#000000000000C0A5 R
(1783697278.187886) can0 541#000000000001C495 R
(1783697278.196350) can0 12D#00000000000000D4 R
(1783697278.203337) can0 450#0000000000002800 R
(1783697278.206364) can0 12D#0000000000000035 R
(1783697278.206620) can0 12E#000000000000C0CF R
(1783697278.206810) can0 12A#10050000000A0062 R
(1783697278.207048) can0 5A0#0000000004000085 R
(1783697278.207698) can0 541#000000000001C4A0 R
(1783697278.216369) can0 12D#000000000000005F R
(1783697278.226267) can0 12D#000000000000006A R
(1783697278.226542) can0 12E#000000000000C02E R
(1783697278.227887) can0 541#000000000001C4CA R
(1783697278.236367) can0 12D#000000000000008B R
(1783697278.246268) can0 12D#00000000000000BE R
(1783697278.246533) can0 12E#000000000000C044 R
(1783697278.247876) can0 541#000000000001C42B R
(1783697278.253285) can0 450#0000000000002800 R
(1783697278.256329) can0 12D#00000000000000D4 R
(1783697278.256591) can0 12A#10050000000A0083 R
(1783697278.266228) can0 12D#0000000000000035 R
(1783697278.266500) can0 12E#000000000000C071 R
(1783697278.267685) can0 541#000000000001C441 R
(1783697278.276344) can0 12D#000000000000005F R
(1783697278.286272) can0 12D#000000000000006A R
(1783697278.287266) can0 12E#000000000000C090 R
(1783697278.287597) can0 541#000000000001C474 R
(1783697278.296343) can0 12D#000000000000008B R
(1783697278.303342) can0 450#0000000000002800 R
(1783697278.306369) can0 12D#00000000000000BE R
(1783697278.306614) can0 12E#000000000000C0A5 R
(1783697278.306806) can0 12A#10050000000A00B6 R
(1783697278.307086) can0 5A0#00000000040000B0 R
(1783697278.307770) can0 541#000000000001C495 R
(1783697278.316342) can0 12D#00000000000000D4 R
(1783697278.326214) can0 12D#0000000000000035 R
(1783697278.326475) can0 12E#000000000000C0CF R
(1783697278.327692) can0 541#000000000001C4A0 R
(1783697278.336336) can0 12D#000000000000005F R
(1783697278.346244) can0 12D#000000000000006A R
(1783697278.346519) can0 12E#000000000000C02E R
(1783697278.347881) can0 541#000000000001C4CA R
(1783697278.353291) can0 450#0000000000002800 R
(1783697278.356364) can0 12D#000000000000008B R
(1783697278.356612) can0 12A#10050000000A00DC R
(1783697278.366259) can0 12D#00000000000000BE R
(1783697278.366579) can0 12E#000000000000C044 R
(1783697278.367886) can0 541#000000000001C42B R
(1783697278.376873) can0 12D#00000000000000D4 R
(1783697278.386264) can0 12D#0000000000000035 R
(1783697278.386586) can0 12E#000000000000C071 R
(1783697278.389028) can0 541#000000000001C441 R
(1783697278.396337) can0 12D#000000000000005F R
(1783697278.403347) can0 450#0000000000002800 R
(1783697278.406342) can0 12D#000000000000006A R
(1783697278.406588) can0 12E#000000000000C090 R
(1783697278.406754) can0 12A#10050000000A003D R
(1783697278.407010) can0 5A0#00000000040000DA R
(1783697278.407734) can0 541#000000000001C474 R
(1783697278.416339) can0 12D#000000000000008B R
(1783697278.426273) can0 12D#00000000000000BE R
(1783697278.426538) can0 12E#000000000000C0A5 R
(1783697278.427886) can0 541#000000000001C495 R
(1783697278.436357) can0 12D#00000000000000D4 R
(1783697278.446237) can0 12D#0000000000000035 R
(1783697278.446519) can0 12E#000000000000C0CF R
(1783697278.447894) can0 541#000000000001C4A0 R
(1783697278.453286) can0 450#0000000000002800 R
(1783697278.456375) can0 12D#000000000000005F R
(1783697278.456636) can0 12A#10050000000A0057 R
(1783697278.466236) can0 12D#000000000000006A R
(1783697278.466549) can0 12E#000000000000C02E R
(1783697278.467896) can0 541#000000000001C4CA R
(1783697278.476320) can0 12D#000000000000008B R
(1783697278.486222) can0 12D#00000000000000BE R
(1783697278.486555) can0 12E#000000000000C044 R
(1783697278.487905) can0 541#000000000001C42B R
(1783697278.496330) can0 12D#00000000000000D4 R
(1783697278.503344) can0 450#0000000000002800 R
(1783697278.506422) can0 12D#0000000000000035 R
(1783697278.506709) can0 12E#000000000000C071 R
(1783697278.506797) can0 12A#10050000000A0062 R
(1783697278.507063) can0 5A0#000000000400003B R
(1783697278.507692) can0 541#000000000001C441 R
(1783697278.516650) can0 12D#000000000000005F R
(1783697278.526234) can0 12D#000000000000006A R
(1783697278.526708) can0 12E#000000000000C090 R
(1783697278.529092) can0 541#000000000001C474 R
(1783697278.536314) can0 12D#000000000000008B R
(1783697278.546244) can0 12D#00000000000000BE R
(1783697278.546562) can0 12E#000000000000C0A5 R
(1783697278.547878) can0 541#000000000001C495 R
(1783697278.553293) can0 450#0000000000002800 R
(1783697278.556372) can0 12D#00000000000000D4 R
(1783697278.556728) can0 12A#10050000000A0083 R
(1783697278.566243) can0 12D#0000000000000035 R
(1783697278.566501) can0 12E#000000000000C0CF R
(1783697278.567695) can0 541#000000000001C4A0 R
(1783697278.576348) can0 12D#000000000000005F R
(1783697278.586257) can0 12D#000000000000006A R
(1783697278.586514) can0 12E#000000000000C02E R
(1783697278.587874) can0 541#000000000001C4CA R
(1783697278.596337) can0 12D#000000000000008B R
(1783697278.603333) can0 450#0000000000002800 R
(1783697278.606333) can0 12D#00000000000000BE R
(1783697278.606703) can0 12E#000000000000C044 R
(1783697278.606789) can0 12A#10050000000A00B6 R
(1783697278.606983) can0 5A0#0000000004000051 R
(1783697278.607724) can0 541#000000000001C53D R
(1783697278.616323) can0 12D#00000000000000D4 R
(1783697278.626243) can0 12D#0000000000000035 R
(1783697278.626666) can0 12E#000000000000C071 R
(1783697278.627677) can0 541#000000000001C557 R
(1783697278.636339) can0 12D#000000000000005F R
(1783697278.646235) can0 12D#000000000000006A R
(1783697278.646558) can0 12E#000000000000C090 R
(1783697278.647904) can0 541#000000000001C562 R
(1783697278.653305) can0 450#0000000000002800 R
(1783697278.656343) can0 12D#000000000000008B R
(1783697278.656669) can0 12A#10050000000A00DC R
(1783697278.666268) can0 12D#00000000000000BE R
(1783697278.666530) can0 12E#000000000000C0A5 R
(1783697278.667929) can0 541#000000000001C583 R
(1783697278.676328) can0 12D#00000000000000D4 R
(1783697278.686223) can0 12D#0000000000000035 R
(1783697278.686483) can0 12E#000000000000C0CF R
(1783697278.687699) can0 541#000000000001C5B6 R
(1783697278.696333) can0 12D#000000000000005F R
(1783697278.703356) can0 450#0000000000002800 R
(1783697278.706462) can0 12D#000000000000006A R
(1783697278.706778) can0 12E#000000000000C02E R
(1783697278.706867) can0 12A#10050000000A003D R
(1783697278.707033) can0 5A0#0000000004000064 R
(1783697278.707695) can0 541#000000000001C5DC R
(1783697278.716348) can0 12D#000000000000008B R
(1783697278.726236) can0 12D#00000000000000BE R
(1783697278.726520) can0 12E#000000000000C044 R
(1783697278.727689) can0 541#000000000001C53D R
(1783697278.736332) can0 12D#00000000000000D4 R
(1783697278.746228) can0 12D#0000000000000035 R
(1783697278.746501) can0 12E#000000000000C071 R
(1783697278.747889) can0 541#000000000001C557 R
(1783697278.753305) can0 450#0000000000002800 R
(1783697278.756343) can0 12D#000000000000005F R
(1783697278.756610) can0 12A#10050000000A0057 R
(1783697278.766209) can0 12D#000000000000006A R
(1783697278.766484) can0 12E#000000000000C090 R
(1783697278.767695) can0 541#000000000001C562 R
(1783697278.776325) can0 12D#000000000000008B R
(1783697278.786263) can0 12D#00000000000000BE R
(1783697278.786530) can0 12E#000000000000C0A5 R
(1783697278.787933) can0 541#000000000001C583 R
(1783697278.796344) can0 12D#00000000000000D4 R
(1783697278.803349) can0 450#0000000000002800 R
(1783697278.806361) can0 12D#0000000000000035 R
(1783697278.806683) can0 12E#000000000000C0CF R
(1783697278.806767) can0 12A#10050000000A0062 R
(1783697278.807016) can0 5A0#0000000004000085 R
(1783697278.807754) can0 541#000000000001C5B6 R
(1783697278.816316) can0 12D#000000000000005F R
(1783697278.826214) can0 12D#000000000000006A R
(1783697278.826539) can0 12E#000000000000C02E R
(1783697278.827910) can0 541#000000000001C5DC R
(1783697278.836294) can0 12D#000000000000008B R
(1783697278.846255) can0 12D#00000000000000BE R
(1783697278.846569) can0 12E#000000000000C044 R
(1783697278.847906) can0 541#000000000001C53D R
(1783697278.853306) can0 450#0000000000002800 R
(1783697278.856389) can0 12D#00000000000000D4 R
(1783697278.856833) can0 12A#10050000000A0083 R
(1783697278.866256) can0 12D#0000000000000035 R
(1783697278.866527) can0 12E#000000000000C071 R
(1783697278.867710) can0 541#000000000001C557 R
(1783697278.876326) can0 12D#000000000000005F R
(1783697278.886226) can0 12D#000000000000006A R
(1783697278.886496) can0 12E#000000000000C090 R
(1783697278.887902) can0 541#000000000001C562 R
(1783697278.896326) can0 12D#000000000000008B R
(1783697278.903352) can0 450#0000000000002800 R
(1783697278.906356) can0 12D#00000000000000BE R
(1783697278.906667) can0 12E#000000000000C0A5 R
(1783697278.906767) can0 12A#10050000000A00B6 R
(1783697278.907017) can0 5A0#00000000040000B0 R
(1783697278.907850) can0 541#000000000001C583 R
(1783697278.916335) can0 12D#00000000000000D4 R
(1783697278.926251) can0 12D#0000000000000035 R
(1783697278.926538) can0 12E#000000000000C0CF R
(1783697278.927897) can0 541#000000000001C5B6 R
(1783697278.936353) can0 12D#000000000000005F R
(1783697278.946240) can0 12D#000000000000006A R
(1783697278.946509) can0 12E#000000000000C02E R
(1783697278.947900) can0 541#000000000001C5DC R
(1783697278.953309) can0 450#0000000000002800 R
(1783697278.956311) can0 12D#000000000000008B R
(1783697278.956634) can0 12A#10050000000A00DC R
(1783697278.966232) can0 12D#00000000000000BE R
(1783697278.966505) can0 12E#000000000000C044 R
(1783697278.967692) can0 541#000000000001C53D R
(1783697278.976307) can0 12D#00000000000000D4 R
(1783697278.986215) can0 12D#0000000000000035 R
(1783697278.986542) can0 12E#000000000000C071 R
(1783697278.987730) can0 541#000000000001C557 R
(1783697278.996335) can0 12D#000000000000005F R
(1783697279.003368) can0 450#0000000000002800 R
(1783697279.006420) can0 12D#000000000000006A R
(1783697279.006847) can0 12E#000000000000C090 R
(1783697279.006936) can0 12A#10050000000A003D R
(1783697279.007027) can0 5A0#00000000040000DA R
(1783697279.007761) can0 541#000000000001C562 R
(1783697279.016338) can0 12D#000000000000008B R
(1783697279.026215) can0 12D#00000000000000BE R
(1783697279.026485) can0 12E#000000000000C0A5 R
(1783697279.027722) can0 541#000000000001C583 R
(1783697279.036299) can0 12D#00000000000000D4 R
(1783697279.046220) can0 12D#0000000000000035 R
(1783697279.046493) can0 12E#000000000000C0CF R
(1783697279.047915) can0 541#000000000001C5B6 R
(1783697279.053314) can0 450#0000000000002800 R
(1783697279.056360) can0 12D#000000000000005F R
(1783697279.056615) can0 12A#10050000000A0057 R
(1783697279.066248) can0 12D#000000000000006A R
(1783697279.066520) can0 12E#000000000000C02E R
(1783697279.067723) can0 541#000000000001C5DC R
(1783697279.076314) can0 12D#000000000000008B R
(1783697279.086250) can0 12D#00000000000000BE R
(1783697279.086528) can0 12E#000000000000C044 R
(1783697279.087917) can0 541#000000000001C53D R
(1783697279.096294) can0 12D#00000000000000D4 R
(1783697279.103376) can0 450#0000000000002800 R
(1783697279.107004) can0 12D#0000000000000035 R
(1783697279.107341) can0 12E#000000000000C071 R
(1783697279.107513) can0 12A#10050000000A0062 R
(1783697279.107617) can0 5A0#000000000400003B R
(1783697279.107743) can0 541#000000000001C557 R
(1783697279.116307) can0 12D#000000000000005F R
(1783697279.126243) can0 12D#000000000000006A R
(1783697279.126516) can0 12E#000000000000C090 R
(1783697279.127721) can0 541#000000000001C562 R
(1783697279.136750) can0 12D#000000000000008B R
(1783697279.146421) can0 12D#00000000000000BE R
(1783697279.146683) can0 12E#000000000000C0A5 R
(1783697279.147950) can0 541#000000000001C583 R
(1783697279.153317) can0 450#0000000000002800 R
(1783697279.156330) can0 12D#00000000000000D4 R
(1783697279.156586) can0 12A#10050000000A0083 R
(1783697279.166195) can0 12D#0000000000000035 R
(1783697279.166519) can0 12E#000000000000C0CF R
(1783697279.167657) can0 541#000000000001C5B6 R
(1783697279.176319) can0 12D#000000000000005F R
(1783697279.186233) can0 12D#000000000000006A R
(1783697279.186489) can0 12E#000000000000C02E R
(1783697279.187713) can0 541#000000000001C5DC R
(1783697279.196320) can0 12D#000000000000008B R
(1783697279.203355) can0 450#0000000000002800 R
(1783697279.207547) can0 12D#00000000000000BE R
(1783697279.207897) can0 12E#000000000000C044 R
(1783697279.207990) can0 12A#10050000000A00B6 R
(1783697279.208172) can0 5A0#0000000004000051 R
(1783697279.208293) can0 541#000000000001C53D R
(1783697279.216336) can0 12D#00000000000000D4 R
(1783697279.226230) can0 12D#0000000000000035 R
(1783697279.226513) can0 12E#000000000000C071 R
(1783697279.227925) can0 541#000000000001C557 R
(1783697279.236298) can0 12D#000000000000005F R
(1783697279.246216) can0 12D#000000000000006A R
(1783697279.246481) can0 12E#000000000000C090 R
(1783697279.249127) can0 541#000000000001C562 R
(1783697279.253321) can0 450#0000000000002800 R
(1783697279.256323) can0 12D#000000000000008B R
(1783697279.256697) can0 12A#10050000000A00DC R
(1783697279.266257) can0 12D#00000000000000BE R
(1783697279.266588) can0 12E#000000000000C0A5 R
(1783697279.267914) can0 541#000000000001C583 R
(1783697279.276318) can0 12D#00000000000000D4 R
(1783697279.286220) can0 12D#0000000000000035 R
(1783697279.286548) can0 12E#000000000000C0CF R
(1783697279.287932) can0 541#000000000001C5B6 R
(1783697279.296327) can0 12D#000000000000005F R
(1783697279.303367) can0 450#0000000000002800 R
(1783697279.306337) can0 12D#000000000000006A R
(1783697279.306583) can0 12E#000000000000C02E R
(1783697279.306763) can0 12A#10050000000A003D R
(1783697279.307001) can0 5A0#0000000004000064 R
(1783697279.307728) can0 541#000000000001C5DC R
(1783697279.316313) can0 12D#000000000000008B R
(1783697279.326203) can0 12D#00000000000000BE R
(1783697279.326516) can0 12E#000000000000C044 R
(1783697279.327936) can0 541#000000000001C53D R
(1783697279.336293) can0 12D#00000000000000D4 R
(1783697279.346211) can0 12D#0000000000000035 R
(1783697279.346479) can0 12E#000000000000C071 R
(1783697279.347708) can0 541#000000000001C557 R
(1783697279.353322) can0 450#0000000000002800 R
(1783697279.356576) can0 12D#000000000000005F R
(1783697279.356957) can0 12A#10050000000A0057 R
(1783697279.366242) can0 12D#000000000000006A R
(1783697279.366506) can0 12E#000000000000C090 R
(1783697279.367720) can0 541#000000000001C562 R
(1783697279.376302) can0 12D#000000000000008B R
(1783697279.386196) can0 12D#00000000000000BE R
(1783697279.386523) can0 12E#000000000000C0A5 R
(1783697279.387956) can0 541#000000000001C583 R
(1783697279.396315) can0 12D#00000000000000D4 R
(1783697279.403375) can0 450#0000000000002800 R
(1783697279.406358) can0 12D#0000000000000035 R
(1783697279.406621) can0 12E#000000000000C0CF R
(1783697279.406770) can0 12A#10050000000A0062 R
(1783697279.407045) can0 5A0#0000000004000085 R
(1783697279.407747) can0 541#000000000001C5B6 R
(1783697279.416343) can0 12D#000000000000005F R
(1783697279.426212) can0 12D#000000000000006A R
(1783697279.426547) can0 12E#000000000000C02E R
(1783697279.427926) can0 541#000000000001C5DC R
(1783697279.436318) can0 12D#000000000000008B R
(1783697279.446214) can0 12D#00000000000000BE R
(1783697279.446542) can0 12E#000000000000C044 R
(1783697279.447872) can0 541#000000000001C53D R
(1783697279.453317) can0 450#0000000000002800 R
(1783697279.456375) can0 12D#00000000000000D4 R
(1783697279.456705) can0 12A#10050000000A0083 R
(1783697279.466191) can0 12D#0000000000000035 R
(1783697279.466461) can0 12E#000000000000C071 R
(1783697279.467952) can0 541#000000000001C557 R
(1783697279.476325) can0 12D#000000000000005F R
(1783697279.486231) can0 12D#000000000000006A R
(1783697279.486499) can0 12E#000000000000C090 R
(1783697279.487724) can0 541#000000000001C562 R
(1783697279.496315) can0 12D#000000000000008B R
(1783697279.503385) can0 450#0000000000002800 R
(1783697279.506371) can0 12D#00000000000000BE R
(1783697279.506848) can0 12E#000000000000C0A5 R
(1783697279.507005) can0 12A#10050000000A00B6 R
(1783697279.507108) can0 5A0#00000000040000B0 R
(1783697279.507741) can0 541#000000000001C583 R
(1783697279.516299) can0 12D#00000000000000D4 R
(1783697279.526213) can0 12D#0000000000000035 R
(1783697279.526482) can0 12E#000000000000C0CF R
(1783697279.527720) can0 541#000000000001C5B6 R
(1783697279.536301) can0 12D#000000000000005F R
(1783697279.546209) can0 12D#000000000000006A R
(1783697279.546470) can0 12E#000000000000C02E R
(1783697279.547968) can0 541#000000000001C5DC R
(1783697279.553319) can0 450#0000000000002800 R
(1783697279.556368) can0 12D#000000000000008B R
(1783697279.556759) can0 12A#10050000000A00DC R
(1783697279.566244) can0 12D#00000000000000BE R
(1783697279.566524) can0 12E#000000000000C044 R
(1783697279.567939) can0 541#000000000001C53D R
(1783697279.576310) can0 12D#00000000000000D4 R
(1783697279.586180) can0 12D#0000000000000035 R
(1783697279.586441) can0 12E#000000000000C071 R
(1783697279.587747) can0 541#000000000001C557 R
(1783697279.596312) can0 12D#000000000000005F R
(1783697279.603397) can0 450#0000000000002800 R
(1783697279.606350) can0 12D#000000000000006A R
(1783697279.606765) can0 12E#000000000000C090 R
(1783697279.606904) can0 12A#10050000000A003D R
(1783697279.607011) can0 5A0#00000000040000DA R
(1783697279.609555) can0 541#000000000001C66D R
(1783697279.616317) can0 12D#000000000000008B R
(1783697279.626219) can0 12D#00000000000000BE R
(1783697279.626489) can0 12E#000000000000C0A5 R
(1783697279.627719) can0 541#000000000001C68C R
(1783697279.636324) can0 12D#00000000000000D4 R
(1783697279.646214) can0 12D#0000000000000035 R
(1783697279.646480) can0 12E#000000000000C0CF R
(1783697279.647936) can0 541#000000000001C6B9 R
(1783697279.653327) can0 450#0000000000002800 R
(1783697279.656757) can0 12D#000000000000005F R
(1783697279.657005) can0 12A#10050000000A0057 R
(1783697279.666185) can0 12D#000000000000006A R
(1783697279.666452) can0 12E#000000000000C02E R
(1783697279.667743) can0 541#000000000001C6D3 R
(1783697279.676275) can0 12D#000000000000008B R
(1783697279.686231) can0 12D#00000000000000BE R
(1783697279.686503) can0 12E#000000000000C044 R
(1783697279.687747) can0 541#000000000001C632 R
(1783697279.696320) can0 12D#00000000000000D4 R
(1783697279.703379) can0 450#0000000000002800 R
(1783697279.706329) can0 12D#0000000000000035 R
(1783697279.706581) can0 12E#000000000000C071 R
(1783697279.706776) can0 12A#10050000000A0062 R
(1783697279.707018) can0 5A0#000000000400003B R
(1783697279.707759) can0 541#000000000001C658 R
(1783697279.716333) can0 12D#000000000000005F R
(1783697279.726191) can0 12D#000000000000006A R
(1783697279.726468) can0 12E#000000000000C090 R
(1783697279.727752) can0 541#000000000001C66D R
(1783697279.736292) can0 12D#000000000000008B R
(1783697279.746181) can0 12D#00000000000000BE R
(1783697279.746446) can0 12E#000000000000C0A5 R
(1783697279.747748) can0 541#000000000001C68C R
(1783697279.753334) can0 450#0000000000002800 R
(1783697279.756446) can0 12D#00000000000000D4 R
(1783697279.756831) can0 12A#10050000000A0083 R
(1783697279.766232) can0 12D#0000000000000035 R
(1783697279.766528) can0 12E#000000000000C0CF R
(1783697279.767937) can0 541#000000000001C6B9 R
(1783697279.776312) can0 12D#000000000000005F R
(1783697279.786200) can0 12D#000000000000006A R
(1783697279.786474) can0 12E#000000000000C02E R
(1783697279.787755) can0 541#000000000001C6D3 R
(1783697279.796272) can0 12D#000000000000008B R
(1783697279.803380) can0 450#0000000000002800 R
(1783697279.806355) can0 12D#00000000000000BE R
(1783697279.806629) can0 12E#000000000000C044 R
(1783697279.806825) can0 12A#10050000000A00B6 R
(1783697279.806990) can0 5A0#0000000004000051 R
(1783697279.807895) can0 541#000000000001C632 R
(1783697279.816283) can0 12D#00000000000000D4 R
(1783697279.826195) can0 12D#0000000000000035 R
(1783697279.826466) can0 12E#000000000000C071 R
(1783697279.827751) can0 541#000000000001C658 R
(1783697279.836307) can0 12D#000000000000005F R
(1783697279.846196) can0 12D#000000000000006A R
(1783697279.846464) can0 12E#000000000000C090 R
(1783697279.847746) can0 541#000000000001C66D R
(1783697279.853335) can0 450#0000000000002800 R
(1783697279.856346) can0 12D#000000000000008B R
(1783697279.856734) can0 12A#10050000000A00DC R
(1783697279.866203) can0 12D#00000000000000BE R
(1783697279.866791) can0 12E#000000000000C0A5 R
(1783697279.867698) can0 541#000000000001C68C R
(1783697279.876293) can0 12D#00000000000000D4 R
(1783697279.886187) can0 12D#0000000000000035 R
(1783697279.886497) can0 12E#000000000000C0CF R
(1783697279.887959) can0 541#000000000001C6B9 R
(1783697279.896295) can0 12D#000000000000005F R
(1783697279.903390) can0 450#0000000000002800 R
(1783697279.906381) can0 12D#000000000000006A R
(1783697279.906763) can0 12E#000000000000C02E R
(1783697279.906884) can0 12A#10050000000A003D R
(1783697279.907096) can0 5A0#0000000004000064 R
(1783697279.907826) can0 541#000000000001C6D3 R
(1783697279.916322) can0 12D#000000000000008B R
(1783697279.926210) can0 12D#00000000000000BE R
(1783697279.926566) can0 12E#000000000000C044 R
(1783697279.928440) can0 541#000000000001C632 R
(1783697279.936258) can0 12D#00000000000000D4 R
(1783697279.946194) can0 12D#0000000000000035 R
(1783697279.946451) can0 12E#000000000000C071 R
(1783697279.947759) can0 541#000000000001C658 R
(1783697279.953328) can0 450#0000000000002800 R
(1783697279.956318) can0 12D#000000000000005F R
(1783697279.956574) can0 12A#10050000000A0057 R
(1783697279.966206) can0 12D#000000000000006A R
(1783697279.966487) can0 12E#000000000000C090 R
(1783697279.967969) can0 541#000000000001C66D R
(1783697279.976299) can0 12D#000000000000008B R
(1783697279.986223) can0 12D#00000000000000BE R
(1783697279.986546) can0 12E#000000000000C0A5 R
(1783697279.987938) can0 541#000000000001C68C R
(1783697279.996311) can0 12D#00000000000000D4 R
(1783697280.003381) can0 450#0000000000002800 R
(1783697280.006311) can0 12D#0000000000000035 R
(1783697280.006722) can0 12E#000000000000C0CF R
(1783697280.006823) can0 12A#10050000000A0062 R
(1783697280.006952) can0 5A0#0000000004000085 R
(1783697280.007765) can0 541#000000000001C6B9 R
(1783697280.016287) can0 12D#000000000000005F R
(1783697280.026163) can0 12D#000000000000006A R
(1783697280.026488) can0 12E#000000000000C02E R
(1783697280.029141) can0 541#000000000001C6D3 R
(1783697280.036313) can0 12D#000000000000008B R
(1783697280.046225) can0 12D#00000000000000BE R
(1783697280.047231) can0 12E#000000000000C044 R
(1783697280.047656) can0 541#000000000001C632 R
(1783697280.053336) can0 450#0000000000002800 R
(1783697280.056329) can0 12D#00000000000000D4 R
(1783697280.056826) can0 12A#10050000000A0083 R
(1783697280.066224) can0 12D#0000000000000035 R
(1783697280.066509) can0 12E#000000000000C071 R
(1783697280.067945) can0 541#000000000001C658 R
(1783697280.076296) can0 12D#000000000000005F R
(1783697280.086194) can0 12D#000000000000006A R
(1783697280.086462) can0 12E#000000000000C090 R
(1783697280.087944) can0 541#000000000001C66D R
(1783697280.096252) can0 12D#000000000000008B R
(1783697280.103401) can0 450#0000000000002800 R
(1783697280.106356) can0 12D#00000000000000BE R
(1783697280.106790) can0 12E#000000000000C0A5 R
(1783697280.106927) can0 12A#10050000000A00B6 R
(1783697280.107014) can0 5A0#00000000040000B0 R
(1783697280.107772) can0 541#000000000001C68C R
(1783697280.116319) can0 12D#00000000000000D4 R
(1783697280.126800) can0 12D#0000000000000035 R
(1783697280.127065) can0 12E#000000000000C0CF R
(1783697280.127660) can0 541#000000000001C6B9 R
(1783697280.136283) can0 12D#000000000000005F R
(1783697280.146191) can0 12D#000000000000006A R
(1783697280.146458) can0 12E#000000000000C02E R
(1783697280.147949) can0 541#000000000001C6D3 R
(1783697280.153337) can0 450#0000000000002800 R
(1783697280.156291) can0 12D#000000000000008B R
(1783697280.156606) can0 12A#10050000000A00DC R
(1783697280.166179) can0 12D#00000000000000BE R
(1783697280.166455) can0 12E#000000000000C044 R
(1783697280.167767) can0 541#000000000001C632 R
(1783697280.176275) can0 12D#00000000000000D4 R
(1783697280.186197) can0 12D#0000000000000035 R
(1783697280.186479) can0 12E#000000000000C071 R
(1783697280.187762) can0 541#000000000001C658 R
(1783697280.196323) can0 12D#000000000000005F R
(1783697280.203392) can0 450#0000000000002800 R
(1783697280.206323) can0 12D#000000000000006A R
(1783697280.206631) can0 12E#000000000000C090 R
(1783697280.206724) can0 12A#10050000000A003D R
(1783697280.207019) can0 5A0#00000000040000DA R
(1783697280.207771) can0 541#000000000001C66D R
(1783697280.216261) can0 12D#000000000000008B R
(1783697280.226198) can0 12D#00000000000000BE R
(1783697280.226479) can0 12E#000000000000C0A5 R
(1783697280.227749) can0 541#000000000001C68C R
(1783697280.236286) can0 12D#00000000000000D4 R
(1783697280.246198) can0 12D#0000000000000035 R
(1783697280.246480) can0 12E#000000000000C0CF R
(1783697280.247673) can0 541#000000000001C6B9 R
(1783697280.253326) can0 450#0000000000002800 R
(1783697280.256335) can0 12D#000000000000005F R
(1783697280.256765) can0 12A#10050000000A0057 R
(1783697280.266202) can0 12D#000000000000006A R
(1783697280.266524) can0 12E#000000000000C02E R
(1783697280.267934) can0 541#000000000001C6D3 R
(1783697280.276296) can0 12D#000000000000008B R
(1783697280.286186) can0 12D#00000000000000BE R
(1783697280.286454) can0 12E#000000000000C044 R
(1783697280.287773) can0 541#000000000001C632 R
(1783697280.296261) can0 12D#00000000000000D4 R
(1783697280.303421) can0 450#0000000000002800 R
(1783697280.306311) can0 12D#0000000000000035 R
(1783697280.306712) can0 12E#000000000000C071 R
(1783697280.306952) can0 12A#10050000000A0062 R
(1783697280.307113) can0 5A0#000000000400003B R
(1783697280.307914) can0 541#000000000001C658 R
(1783697280.316489) can0 12D#000000000000005F R
(1783697280.326211) can0 12D#000000000000006A R
(1783697280.326481) can0 12E#000000000000C090 R
(1783697280.327770) can0 541#000000000001C66D R
(1783697280.336303) can0 12D#000000000000008B R
(1783697280.346188) can0 12D#00000000000000BE R
(1783697280.346458) can0 12E#000000000000C0A5 R
(1783697280.347754) can0 541#000000000001C68C R
(1783697280.353345) can0 450#0000000000002800 R
(1783697280.356300) can0 12D#00000000000000D4 R
(1783697280.356622) can0 12A#10050000000A0083 R
(1783697280.366170) can0 12D#0000000000000035 R
(1783697280.366451) can0 12E#000000000000C0CF R
(1783697280.367943) can0 541#000000000001C6B9 R
(1783697280.376271) can0 12D#000000000000005F R
(1783697280.386205) can0 12D#000000000000006A R
(1783697280.386483) can0 12E#000000000000C02E R
(1783697280.387769) can0 541#000000000001C6D3 R
(1783697280.396301) can0 12D#000000000000008B R
(1783697280.403421) can0 450#0000000000002800 R
(1783697280.406339) can0 12D#00000000000000BE R
(1783697280.406745) can0 12E#000000000000C044 R
(1783697280.406981) can0 12A#10050000000A00B6 R
(1783697280.407139) can0 5A0#0000000004000051 R
(1783697280.407773) can0 541#000000000001C632 R
(1783697280.416284) can0 12D#00000000000000D4 R
(1783697280.426184) can0 12D#0000000000000035 R
(1783697280.426462) can0 12E#000000000000C071 R
(1783697280.427771) can0 541#000000000001C658 R
(1783697280.436284) can0 12D#000000000000005F R
(1783697280.446145) can0 12D#000000000000006A R
(1783697280.446405) can0 12E#000000000000C090 R
(1783697280.447652) can0 541#000000000001C66D R
(1783697280.453355) can0 450#0000000000002800 R
(1783697280.456262) can0 12D#000000000000008B R
(1783697280.456460) can0 12A#10050000000A00DC R
(1783697280.466212) can0 12D#00000000000000BE R
(1783697280.466525) can0 12E#000000000000C0A5 R
(1783697280.467947) can0 541#000000000001C68C R
(1783697280.476317) can0 12D#00000000000000D4 R
(1783697280.486176) can0 12D#0000000000000035 R
(1783697280.486498) can0 12E#000000000000C0CF R
(1783697280.487938) can0 541#000000000001C6B9 R
(1783697280.496269) can0 12D#000000000000005F R
(1783697280.503425) can0 450#0000000000002800 R
(1783697280.506325) can0 12D#000000000000006A R
(1783697280.506726) can0 12E#000000000000C02E R
(1783697280.506862) can0 12A#10050000000A003D R
(1783697280.507069) can0 5A0#0000000004000064 R
(1783697280.507773) can0 541#000000000001C6D3 R
(1783697280.516247) can0 12D#000000000000008B R
(1783697280.526189) can0 12D#00000000000000BE R
(1783697280.526513) can0 12E#000000000000C044 R
(1783697280.527948) can0 541#000000000001C632 R
(1783697280.536359) can0 12D#00000000000000D4 R
(1783697280.546203) can0 12D#0000000000000035 R
(1783697280.546480) can0 12E#000000000000C071 R
(1783697280.547772) can0 541#000000000001C658 R
(1783697280.553352) can0 450#0000000000002800 R
(1783697280.556326) can0 12D#000000000000005F R
(1783697280.556719) can0 12A#10050000000A0057 R
(1783697280.566160) can0 12D#000000000000006A R
(1783697280.566429) can0 12E#000000000000C090 R
(1783697280.567765) can0 541#000000000001C66D R
(1783697280.576265) can0 12D#000000000000008B R
(1783697280.586176) can0 12D#00000000000000BE R
(1783697280.586501) can0 12E#000000000000C0A5 R
(1783697280.587958) can0 541#000000000001C68C R
(1783697280.596297) can0 12D#00000000000000D4 R
(1783697280.603954) can0 450#0000000000002800 R
(1783697280.606336) can0 12D#0000000000000035 R
(1783697280.606662) can0 12E#000000000000C0CF R
(1783697280.606764) can0 12A#10050000000A0062 R
(1783697280.606994) can0 5A0#0000000004000085 R
(1783697280.607805) can0 541#000000000001C7AF R
(1783697280.616297) can0 12D#000000000000005F R
(1783697280.626190) can0 12D#000000000000006A R
(1783697280.626517) can0 12E#000000000000C02E R
(1783697280.627960) can0 541#000000000001C7C5 R
(1783697280.636260) can0 12D#000000000000008B R
(1783697280.646160) can0 12D#00000000000000BE R
(1783697280.646483) can0 12E#000000000000C044 R
(1783697280.647784) can0 541#000000000001C724 R
(1783697280.653347) can0 450#0000000000002800 R
(1783697280.656272) can0 12D#00000000000000D4 R
(1783697280.656581) can0 12A#10050000000A0083 R
(1783697280.666191) can0 12D#0000000000000035 R
(1783697280.666468) can0 12E#000000000000C071 R
(1783697280.667966) can0 541#000000000001C74E R
(1783697280.676279) can0 12D#000000000000005F R
(1783697280.686178) can0 12D#000000000000006A R
(1783697280.686436) can0 12E#000000000000C090 R
(1783697280.687931) can0 541#000000000001C77B R
(1783697280.696263) can0 12D#000000000000008B R
(1783697280.703399) can0 450#0000000000002800 R
(1783697280.706332) can0 12D#00000000000000BE R
(1783697280.706843) can0 12E#000000000000C0A5 R
(1783697280.707001) can0 12A#10050000000A00B6 R
(1783697280.707130) can0 5A0#00000000040000B0 R
(1783697280.707796) can0 541#000000000001C79A R
(1783697280.716265) can0 12D#00000000000000D4 R
(1783697280.726148) can0 12D#0000000000000035 R
(1783697280.726424) can0 12E#000000000000C0CF R
(1783697280.727942) can0 541#000000000001C7AF R
(1783697280.736279) can0 12D#000000000000005F R
(1783697280.746187) can0 12D#000000000000006A R
(1783697280.746458) can0 12E#000000000000C02E R
(1783697280.747776) can0 541#000000000001C7C5 R
(1783697280.753360) can0 450#0000000000002800 R
(1783697280.756306) can0 12D#000000000000008B R
(1783697280.756616) can0 12A#10050000000A00DC R
(1783697280.766174) can0 12D#00000000000000BE R
(1783697280.766447) can0 12E#000000000000C044 R
(1783697280.767778) can0 541#000000000001C724 R
(1783697280.776252) can0 12D#00000000000000D4 R
(1783697280.786172) can0 12D#0000000000000035 R
(1783697280.786436) can0 12E#000000000000C071 R
(1783697280.787940) can0 541#000000000001C74E R
(1783697280.796266) can0 12D#000000000000005F R
(1783697280.803402) can0 450#0000000000002800 R
(1783697280.806318) can0 12D#000000000000006A R
(1783697280.806706) can0 12E#000000000000C090 R
(1783697280.806842) can0 12A#10050000000A003D R
(1783697280.807097) can0 5A0#00000000040000DA R
(1783697280.807941) can0 541#000000000001C77B R
(1783697280.816283) can0 12D#000000000000008B R
(1783697280.826187) can0 12D#00000000000000BE R
(1783697280.826513) can0 12E#000000000000C0A5 R
(1783697280.827961) can0 541#000000000001C79A R
(1783697280.836285) can0 12D#00000000000000D4 R
(1783697280.846148) can0 12D#0000000000000035 R
(1783697280.846479) can0 12E#000000000000C0CF R
(1783697280.847789) can0 541#000000000001C7AF R
(1783697280.853349) can0 450#0000000000002800 R
(1783697280.856263) can0 12D#000000000000005F R
(1783697280.856519) can0 12A#10050000000A0057 R
(1783697280.866147) can0 12D#000000000000006A R
(1783697280.866408) can0 12E#000000000000C02E R
(1783697280.867781) can0 541#000000000001C7C5 R
(1783697280.876267) can0 12D#000000000000008B R
(1783697280.886199) can0 12D#00000000000000BE R
(1783697280.886478) can0 12E#000000000000C044 R
(1783697280.887961) can0 541#000000000001C724 R
(1783697280.896285) can0 12D#00000000000000D4 R
(1783697280.903428) can0 450#0000000000002800 R
(1783697280.906337) can0 12D#0000000000000035 R
(1783697280.906728) can0 12E#000000000000C071 R
(1783697280.906835) can0 12A#10050000000A0062 R
(1783697280.907219) can0 5A0#000000000400003B R
(1783697280.907966) can0 541#000000000001C74E R
(1783697280.916244) can0 12D#000000000000005F R
(1783697280.926164) can0 12D#000000000000006A R
(1783697280.926427) can0 12E#000000000000C090 R
(1783697280.927943) can0 541#000000000001C77B R
(1783697280.936260) can0 12D#000000000000008B R
(1783697280.946178) can0 12D#00000000000000BE R
(1783697280.946494) can0 12E#000000000000C0A5 R
(1783697280.948965) can0 541#000000000001C79A R
(1783697280.953365) can0 450#0000000000002800 R
(1783697280.956313) can0 12D#00000000000000D4 R
(1783697280.956792) can0 12A#10050000000A0083 R
(1783697280.966187) can0 12D#0000000000000035 R
(1783697280.966454) can0 12E#000000000000C0CF R
(1783697280.967793) can0 541#000000000001C7AF R
(1783697280.976294) can0 12D#000000000000005F R
(1783697280.986158) can0 12D#000000000000006A R
(1783697280.986428) can0 12E#000000000000C02E R
(1783697280.987789) can0 541#000000000001C7C5 R
(1783697280.996247) can0 12D#000000000000008B R
(1783697281.003443) can0 450#0000000000002800 R
(1783697281.006309) can0 12D#00000000000000BE R
(1783697281.006789) can0 12E#000000000000C044 R
(1783697281.006949) can0 12A#10050000000A00B6 R
(1783697281.007088) can0 5A0#0000000004000051 R
(1783697281.007936) can0 541#000000000001C724 R
(1783697281.016269) can0 12D#00000000000000D4 R
(1783697281.026169) can0 12D#0000000000000035 R
(1783697281.026434) can0 12E#000000000000C071 R
(1783697281.027939) can0 541#000000000001C74E R
(1783697281.036263) can0 12D#000000000000005F R
(1783697281.046165) can0 12D#000000000000006A R
(1783697281.046440) can0 12E#000000000000C090 R
(1783697281.047961) can0 541#000000000001C77B R
(1783697281.053367) can0 450#0000000000002800 R
(1783697281.056299) can0 12D#000000000000008B R
(1783697281.056725) can0 12A#10050000000A00DC R
(1783697281.066165) can0 12D#00000000000000BE R
(1783697281.066444) can0 12E#000000000000C0A5 R
(1783697281.067789) can0 541#000000000001C79A R
(1783697281.076240) can0 12D#00000000000000D4 R
(1783697281.086174) can0 12D#0000000000000035 R
(1783697281.086447) can0 12E#000000000000C0CF R
(1783697281.087795) can0 541#000000000001C7AF R
(1783697281.096296) can0 12D#000000000000005F R
(1783697281.103429) can0 450#0000000000002800 R
(1783697281.106328) can0 12D#000000000000006A R
(1783697281.106831) can0 12E#000000000000C02E R
(1783697281.107009) can0 12A#10050000000A003D R
(1783697281.107128) can0 5A0#0000000004000064 R
(1783697281.107821) can0 541#000000000001C7C5 R
(1783697281.116262) can0 12D#000000000000008B R
(1783697281.126160) can0 12D#00000000000000BE R
(1783697281.126432) can0 12E#000000000000C044 R
(1783697281.127791) can0 541#000000000001C724 R
(1783697281.136240) can0 12D#00000000000000D4 R
(1783697281.146157) can0 12D#0000000000000035 R
(1783697281.146437) can0 12E#000000000000C071 R
(1783697281.147953) can0 541#000000000001C74E R
(1783697281.153371) can0 450#0000000000002800 R
(1783697281.156761) can0 12D#000000000000005F R
(1783697281.157102) can0 12A#10050000000A0057 R
(1783697281.166189) can0 12D#000000000000006A R
(1783697281.166473) can0 12E#000000000000C090 R
(1783697281.167798) can0 541#000000000001C77B R
(1783697281.176273) can0 12D#000000000000008B R
(1783697281.186154) can0 12D#00000000000000BE R
(1783697281.186433) can0 12E#000000000000C0A5 R
(1783697281.187791) can0 541#000000000001C79A R
(1783697281.196239) can0 12D#00000000000000D4 R
(1783697281.203424) can0 450#0000000000002800 R
(1783697281.206288) can0 12D#0000000000000035 R
(1783697281.206673) can0 12E#000000000000C0CF R
(1783697281.206927) can0 12A#10050000000A0062 R
(1783697281.207117) can0 5A0#0000000004000085 R
(1783697281.207819) can0 541#000000000001C7AF R
(1783697281.216282) can0 12D#000000000000005F R
(1783697281.226175) can0 12D#000000000000006A R
(1783697281.226446) can0 12E#000000000000C02E R
(1783697281.227799) can0 541#000000000001C7C5 R
(1783697281.236255) can0 12D#000000000000008B R
(1783697281.246191) can0 12D#00000000000000BE R
(1783697281.246461) can0 12E#000000000000C044 R
(1783697281.247791) can0 541#000000000001C724 R
(1783697281.254096) can0 450#0000000000002800 R
(1783697281.256258) can0 12D#00000000000000D4 R
(1783697281.256506) can0 12A#10050000000A0083 R
(1783697281.266151) can0 12D#0000000000000035 R
(1783697281.266474) can0 12E#000000000000C071 R
(1783697281.267803) can0 541#000000000001C74E R
(1783697281.276238) can0 12D#000000000000005F R
(1783697281.286145) can0 12D#000000000000006A R
(1783697281.286419) can0 12E#000000000000C090 R
(1783697281.287798) can0 541#000000000001C77B R
(1783697281.296270) can0 12D#000000000000008B R
(1783697281.303440) can0 450#0000000000002800 R
(1783697281.306344) can0 12D#00000000000000BE R
(1783697281.306740) can0 12E#000000000000C0A5 R
(1783697281.306890) can0 12A#10050000000A00B6 R
(1783697281.307099) can0 5A0#00000000040000B0 R
(1783697281.307843) can0 541#000000000001C79A R
(1783697281.316261) can0 12D#00000000000000D4 R
(1783697281.326155) can0 12D#0000000000000035 R
(1783697281.326435) can0 12E#000000000000C0CF R
(1783697281.327805) can0 541#000000000001C7AF R
(1783697281.336249) can0 12D#000000000000005F R
(1783697281.346152) can0 12D#000000000000006A R
(1783697281.346422) can0 12E#000000000000C02E R
(1783697281.347802) can0 541#000000000001C7C5 R
(1783697281.353379) can0 450#0000000000002800 R
(1783697281.356252) can0 12D#000000000000008B R
(1783697281.356528) can0 12A#10050000000A00DC R
(1783697281.366167) can0 12D#00000000000000BE R
(1783697281.366500) can0 12E#000000000000C044 R
(1783697281.367948) can0 541#000000000001C724 R
(1783697281.376243) can0 12D#00000000000000D4 R
(1783697281.386159) can0 12D#0000000000000035 R
(1783697281.386486) can0 12E#000000000000C071 R
(1783697281.387800) can0 541#000000000001C74E R
(1783697281.396259) can0 12D#000000000000005F R
(1783697281.403431) can0 450#0000000000002800 R
(1783697281.406275) can0 12D#000000000000006A R
(1783697281.406521) can0 12E#000000000000C090 R
(1783697281.406673) can0 12A#10050000000A003D R
(1783697281.407001) can0 5A0#00000000040000DA R
(1783697281.409058) can0 541#000000000001C77B R
(1783697281.416248) can0 12D#000000000000008B R
(1783697281.426140) can0 12D#00000000000000BE R
(1783697281.426473) can0 12E#000000000000C0A5 R
(1783697281.427803) can0 541#000000000001C79A R
(1783697281.436264) can0 12D#00000000000000D4 R
(1783697281.446180) can0 12D#0000000000000035 R
(1783697281.446503) can0 12E#000000000000C0CF R
(1783697281.447972) can0 541#000000000001C7AF R
(1783697281.453397) can0 450#0000000000002800 R
(1783697281.456307) can0 12D#000000000000005F R
(1783697281.456590) can0 12A#10050000000A0057 R
(1783697281.466155) can0 12D#000000000000006A R
(1783697281.466429) can0 12E#000000000000C02E R
(1783697281.467950) can0 541#000000000001C7C5 R
(1783697281.476235) can0 12D#000000000000008B R
(1783697281.486160) can0 12D#00000000000000BE R
(1783697281.486427) can0 12E#000000000000C044 R
(1783697281.487956) can0 541#000000000001C724 R
(1783697281.496222) can0 12D#00000000000000D4 R
(1783697281.503434) can0 450#0000000000002800 R
(1783697281.506291) can0 12D#0000000000000035 R
(1783697281.506661) can0 12E#000000000000C071 R
(1783697281.506764) can0 12A#10050000000A0062 R
(1783697281.506971) can0 5A0#000000000400003B R
(1783697281.507829) can0 541#000000000001C74E R
(1783697281.516283) can0 12D#000000000000005F R
(1783697281.526169) can0 12D#000000000000006A R
(1783697281.526440) can0 12E#000000000000C090 R
(1783697281.527932) can0 541#000000000001C77B R
(1783697281.536237) can0 12D#000000000000008B R
(1783697281.546136) can0 12D#00000000000000BE R
(1783697281.546452) can0 12E#000000000000C0A5 R
(1783697281.548168) can0 541#000000000001C79A R
(1783697281.553385) can0 450#0000000000002800 R
(1783697281.556243) can0 12D#00000000000000D4 R
(1783697281.556550) can0 12A#10050000000A0083 R
(1783697281.566154) can0 12D#0000000000000035 R
(1783697281.566432) can0 12E#000000000000C0CF R
(1783697281.567807) can0 541#000000000001C7AF R
(1783697281.576254) can0 12D#000000000000005F R
(1783697281.586154) can0 12D#000000000000006A R
(1783697281.586421) can0 12E#000000000000C02E R
(1783697281.587941) can0 541#000000000001C7C5 R
(1783697281.596260) can0 12D#000000000000008B R
(1783697281.603428) can0 450#0000000000002800 R
(1783697281.606302) can0 12D#00000000000000BE R
(1783697281.606610) can0 12E#000000000000C044 R
(1783697281.606709) can0 12A#10050000000A00B6 R
(1783697281.606991) can0 5A0#0000000004000051 R
(1783697281.607797) can0 541#000000000001C822 R
(1783697281.616228) can0 12D#00000000000000D4 R
(1783697281.626128) can0 12D#0000000000000035 R
(1783697281.626400) can0 12E#000000000000C071 R
(1783697281.627796) can0 541#000000000001C848 R
(1783697281.636242) can0 12D#000000000000005F R
(1783697281.646164) can0 12D#000000000000006A R
(1783697281.646441) can0 12E#000000000000C090 R
(1783697281.647951) can0 541#000000000001C87D R
(1783697281.653386) can0 450#0000000000002800 R
(1783697281.656305) can0 12D#000000000000008B R
(1783697281.656809) can0 12A#10050000000A00DC R
(1783697281.666150) can0 12D#00000000000000BE R
(1783697281.666423) can0 12E#000000000000C0A5 R
(1783697281.667789) can0 541#000000000001C89C R
(1783697281.676263) can0 12D#00000000000000D4 R
(1783697281.686139) can0 12D#0000000000000035 R
(1783697281.686410) can0 12E#000000000000C0CF R
(1783697281.687814) can0 541#000000000001C8A9 R
(1783697281.696229) can0 12D#000000000000005F R
(1783697281.703423) can0 450#0000000000002800 R
(1783697281.706272) can0 12D#000000000000006A R
(1783697281.706735) can0 12E#000000000000C02E R
(1783697281.706847) can0 12A#10050000000A003D R
(1783697281.706945) can0 5A0#0000000004000064 R
(1783697281.707766) can0 541#000000000001C8C3 R
(1783697281.716690) can0 12D#000000000000008B R
(1783697281.726173) can0 12D#00000000000000BE R
(1783697281.726443) can0 12E#000000000000C044 R
(1783697281.727692) can0 541#000000000001C822 R
(1783697281.736249) can0 12D#00000000000000D4 R
(1783697281.746135) can0 12D#0000000000000035 R
(1783697281.746409) can0 12E#000000000000C071 R
(1783697281.747808) can0 541#000000000001C848 R
(1783697281.753388) can0 450#0000000000002800 R
(1783697281.756277) can0 12D#000000000000005F R
(1783697281.756649) can0 12A#10050000000A0057 R
(1783697281.766146) can0 12D#000000000000006A R
(1783697281.766417) can0 12E#000000000000C090 R
(1783697281.767806) can0 541#000000000001C87D R
(1783697281.776230) can0 12D#000000000000008B R
(1783697281.786142) can0 12D#00000000000000BE R
(1783697281.786423) can0 12E#000000000000C0A5 R
(1783697281.787803) can0 541#000000000001C89C R
(1783697281.796264) can0 12D#00000000000000D4 R
(1783697281.803424) can0 450#0000000000002800 R
(1783697281.806291) can0 12D#0000000000000035 R
(1783697281.806667) can0 12E#000000000000C0CF R
(1783697281.806865) can0 12A#10050000000A0062 R
(1783697281.807034) can0 5A0#0000000004000085 R
(1783697281.807829) can0 541#000000000001C8A9 R
(1783697281.816547) can0 12D#000000000000005F R
(1783697281.826118) can0 12D#000000000000006A R
(1783697281.826389) can0 12E#000000000000C02E R
(1783697281.827815) can0 541#000000000001C8C3 R
(1783697281.836215) can0 12D#000000000000008B R
(1783697281.846136) can0 12D#00000000000000BE R
(1783697281.846401) can0 12E#000000000000C044 R
(1783697281.848218) can0 541#000000000001C822 R
(1783697281.853393) can0 450#0000000000002800 R
(1783697281.856265) can0 12D#00000000000000D4 R
(1783697281.856512) can0 12A#10050000000A0083 R
(1783697281.866145) can0 12D#0000000000000035 R
(1783697281.866473) can0 12E#000000000000C071 R
(1783697281.867810) can0 541#000000000001C848 R
(1783697281.876252) can0 12D#000000000000005F R
(1783697281.886143) can0 12D#000000000000006A R
(1783697281.886416) can0 12E#000000000000C090 R
(1783697281.887819) can0 541#000000000001C87D R
(1783697281.896211) can0 12D#000000000000008B R
(1783697281.903439) can0 450#0000000000002800 R
(1783697281.906552) can0 12D#00000000000000BE R
(1783697281.906918) can0 12E#000000000000C0A5 R
(1783697281.907031) can0 12A#10050000000A00B6 R
(1783697281.907230) can0 5A0#00000000040000B0 R
(1783697281.907790) can0 541#000000000001C89C R
(1783697281.916264) can0 12D#00000000000000D4 R
(1783697281.926162) can0 12D#0000000000000035 R
(1783697281.926430) can0 12E#000000000000C0CF R
(1783697281.927810) can0 541#000000000001C8A9 R
(1783697281.936238) can0 12D#000000000000005F R
(1783697281.946158) can0 12D#000000000000006A R
(1783697281.946425) can0 12E#000000000000C02E R
(1783697281.947815) can0 541#000000000001C8C3 R
(1783697281.953386) can0 450#0000000000002800 R
(1783697281.956287) can0 12D#000000000000008B R
(1783697281.956558) can0 12A#10050000000A00DC R
(1783697281.966138) can0 12D#00000000000000BE R
(1783697281.966466) can0 12E#000000000000C044 R
(1783697281.967810) can0 541#000000000001C822 R
(1783697281.976207) can0 12D#00000000000000D4 R
(1783697281.986134) can0 12D#0000000000000035 R
(1783697281.986461) can0 12E#000000000000C071 R
(1783697281.988170) can0 541#000000000001C848 R
(1783697281.996258) can0 12D#000000000000005F R
(1783697282.003439) can0 450#0000000000002800 R
(1783697282.006307) can0 12D#000000000000006A R
(1783697282.006687) can0 12E#000000000000C090 R
(1783697282.006783) can0 12A#10050000000A003D R
(1783697282.006997) can0 5A0#00000000040000DA R
(1783697282.007885) can0 541#000000000001C87D R
(1783697282.016237) can0 12D#000000000000008B R
(1783697282.026157) can0 12D#00000000000000BE R
(1783697282.026481) can0 12E#000000000000C0A5 R
(1783697282.027823) can0 541#000000000001C89C R
(1783697282.036231) can0 12D#00000000000000D4 R
(1783697282.046099) can0 12D#0000000000000035 R
(1783697282.046423) can0 12E#000000000000C0CF R
(1783697282.047815) can0 541#000000000001C8A9 R
(1783697282.053382) can0 450#0000000000002800 R
(1783697282.056258) can0 12D#000000000000005F R
(1783697282.056638) can0 12A#10050000000A0057 R
(1783697282.066131) can0 12D#000000000000006A R
(1783697282.066395) can0 12E#000000000000C02E R
(1783697282.067804) can0 541#000000000001C8C3 R
(1783697282.076254) can0 12D#000000000000008B R
(1783697282.086153) can0 12D#00000000000000BE R
(1783697282.086432) can0 12E#000000000000C044 R
(1783697282.087956) can0 541#000000000001C822 R
(1783697282.096216) can0 12D#00000000000000D4 R
(1783697282.103436) can0 450#0000000000002800 R
(1783697282.106278) can0 12D#0000000000000035 R
(1783697282.106606) can0 12E#000000000000C071 R
(1783697282.106701) can0 12A#10050000000A0062 R
(1783697282.106926) can0 5A0#000000000400003B R
(1783697282.107860) can0 541#000000000001C848 R
(1783697282.116259) can0 12D#000000000000005F R
(1783697282.126132) can0 12D#000000000000006A R
(1783697282.126459) can0 12E#000000000000C090 R
(1783697282.127822) can0 541#000000000001C87D R
(1783697282.136225) can0 12D#000000000000008B R
(1783697282.146164) can0 12D#00000000000000BE R
(1783697282.146493) can0 12E#000000000000C0A5 R
(1783697282.147976) can0 541#000000000001C89C R
(1783697282.153420) can0 450#0000000000002800 R
(1783697282.156286) can0 12D#00000000000000D4 R
(1783697282.156785) can0 12A#10050000000A0083 R
(1783697282.166151) can0 12D#0000000000000035 R
(1783697282.166417) can0 12E#000000000000C0CF R
(1783697282.167782) can0 541#000000000001C8A9 R
(1783697282.176205) can0 12D#000000000000005F R
(1783697282.186125) can0 12D#000000000000006A R
(1783697282.186397) can0 12E#000000000000C02E R
(1783697282.187816) can0 541#000000000001C8C3 R
(1783697282.196223) can0 12D#000000000000008B R
(1783697282.203472) can0 450#0000000000002800 R
(1783697282.206276) can0 12D#00000000000000BE R
(1783697282.206761) can0 12E#000000000000C044 R
(1783697282.206932) can0 12A#10050000000A00B6 R
(1783697282.207050) can0 5A0#0000000004000051 R
(1783697282.207801) can0 541#000000000001C822 R
(1783697282.216240) can0 12D#00000000000000D4 R
(1783697282.226127) can0 12D#0000000000000035 R
(1783697282.226402) can0 12E#000000000000C071 R
(1783697282.228183) can0 541#000000000001C848 R
(1783697282.236253) can0 12D#000000000000005F R
(1783697282.246117) can0 12D#000000000000006A R
(1783697282.246387) can0 12E#000000000000C090 R
(1783697282.247808) can0 541#000000000001C87D R
(1783697282.253394) can0 450#0000000000002800 R
(1783697282.256227) can0 12D#000000000000008B R
(1783697282.256536) can0 12A#10050000000A00DC R
(1783697282.266134) can0 12D#00000000000000BE R
(1783697282.266406) can0 12E#000000000000C0A5 R
(1783697282.268178) can0 541#000000000001C89C R
(1783697282.276238) can0 12D#00000000000000D4 R
(1783697282.286152) can0 12D#0000000000000035 R
(1783697282.286418) can0 12E#000000000000C0CF R
(1783697282.288183) can0 541#000000000001C8A9 R
(1783697282.296222) can0 12D#000000000000005F R
(1783697282.303454) can0 450#0000000000002800 R
(1783697282.306274) can0 12D#000000000000006A R
(1783697282.306579) can0 12E#000000000000C02E R
(1783697282.306680) can0 12A#10050000000A003D R
(1783697282.306941) can0 5A0#0000000004000064 R
(1783697282.307800) can0 541#000000000001C8C3 R
(1783697282.316222) can0 12D#000000000000008B R
(1783697282.326134) can0 12D#00000000000000BE R
(1783697282.326404) can0 12E#000000000000C044 R
(1783697282.328250) can0 541#000000000001C822 R
(1783697282.336186) can0 12D#00000000000000D4 R
(1783697282.346127) can0 12D#0000000000000035 R
(1783697282.346400) can0 12E#000000000000C071 R
(1783697282.347819) can0 541#000000000001C848 R
(1783697282.353403) can0 450#0000000000002800 R
(1783697282.356261) can0 12D#000000000000005F R
(1783697282.356510) can0 12A#10050000000A0057 R
(1783697282.366153) can0 12D#000000000000006A R
(1783697282.366420) can0 12E#000000000000C090 R
(1783697282.368192) can0 541#000000000001C87D R
(1783697282.376213) can0 12D#000000000000008B R
(1783697282.386101) can0 12D#00000000000000BE R
(1783697282.386384) can0 12E#000000000000C0A5 R
(1783697282.387823) can0 541#000000000001C89C R
(1783697282.396209) can0 12D#00000000000000D4 R
(1783697282.403482) can0 450#0000000000002800 R
(1783697282.406239) can0 12D#0000000000000035 R
(1783697282.406615) can0 12E#000000000000C0CF R
(1783697282.406841) can0 12A#10050000000A0062 R
(1783697282.407035) can0 5A0#0000000004000085 R
(1783697282.407833) can0 541#000000000001C8A9 R
(1783697282.416242) can0 12D#000000000000005F R
(1783697282.426149) can0 12D#000000000000006A R
(1783697282.426410) can0 12E#000000000000C02E R
(1783697282.427712) can0 541#000000000001C8C3 R
(1783697282.436189) can0 12D#000000000000008B R
(1783697282.446116) can0 12D#00000000000000BE R
(1783697282.446383) can0 12E#000000000000C044 R
(1783697282.448259) can0 541#000000000001C822 R
(1783697282.453405) can0 450#0000000000002800 R
(1783697282.456218) can0 12D#00000000000000D4 R
(1783697282.456465) can0 12A#10050000000A0083 R
(1783697282.466128) can0 12D#0000000000000035 R
(1783697282.466443) can0 12E#000000000000C071 R
(1783697282.467824) can0 541#000000000001C848 R
(1783697282.476212) can0 12D#000000000000005F R
(1783697282.486116) can0 12D#000000000000006A R
(1783697282.486385) can0 12E#000000000000C090 R
(1783697282.488190) can0 541#000000000001C87D R
(1783697282.496243) can0 12D#000000000000008B R
(1783697282.503448) can0 450#0000000000002800 R
(1783697282.506309) can0 12D#00000000000000BE R
(1783697282.506687) can0 12E#000000000000C0A5 R
(1783697282.506835) can0 12A#10050000000A00B6 R
(1783697282.507073) can0 5A0#00000000040000B0 R
(1783697282.507842) can0 541#000000000001C89C R
(1783697282.516243) can0 12D#00000000000000D4 R
(1783697282.526088) can0 12D#0000000000000035 R
(1783697282.526362) can0 12E#000000000000C0CF R
(1783697282.528221) can0 541#000000000001C8A9 R
(1783697282.536219) can0 12D#000000000000005F R
(1783697282.546111) can0 12D#000000000000006A R
(1783697282.546382) can0 12E#000000000000C02E R
(1783697282.548160) can0 541#000000000001C8C3 R
(1783697282.553399) can0 450#0000000000002800 R
(1783697282.556249) can0 12D#000000000000008B R
(1783697282.556653) can0 12A#10050000000A00DC R
(1783697282.566127) can0 12D#00000000000000BE R
(1783697282.566456) can0 12E#000000000000C044 R
(1783697282.567824) can0 541#000000000001C822 R
(1783697282.576212) can0 12D#00000000000000D4 R
(1783697282.586212) can0 12D#0000000000000035 R
(1783697282.586532) can0 12E#000000000000C071 R
(1783697282.587979) can0 541#000010000001C852 R
(1783697282.596249) can0 12D#000000000000005F R
(1783697282.603472) can0 450#0000000000002800 R
(1783697282.606431) can0 12D#000000000000006A R
(1783697282.606807) can0 12E#000000000000C090 R
(1783697282.606904) can0 12A#10050000000A003D R
(1783697282.607096) can0 5A0#00000000040000DA R
(1783697282.607833) can0 541#000010000001C971 R
(1783697282.616231) can0 12D#000000000000008B R
(1783697282.626134) can0 12D#00000000000000BE R
(1783697282.626462) can0 12E#000000000000C0A5 R
(1783697282.628197) can0 541#000010000001C990 R
(1783697282.636248) can0 12D#00000000000000D4 R
(1783697282.646118) can0 12D#0000000000000035 R
(1783697282.646392) can0 12E#000000000000C0CF R
(1783697282.648193) can0 541#000010000001C9A5 R
(1783697282.653412) can0 450#0000000000002800 R
(1783697282.656271) can0 12D#000000000000005F R
(1783697282.656633) can0 12A#10050000000A0057 R
(1783697282.666108) can0 12D#000000000000006A R
(1783697282.666369) can0 12E#000000000000C02E R
(1783697282.667837) can0 541#000010000001C9CF R
(1783697282.672982) can0 121#0000000004840010 R
(1783697282.673242) can0 129#0000000100000004 R
(1783697282.673385) can0 540#0000000000000000 R
(1783697282.673634) can0 5B0#0000000000000000 R
(1783697282.675343) can0 120#0000000000000000 R
(1783697282.676518) can0 12D#000000000000008B R
(1783697282.686096) can0 12D#00000000000000BE R
(1783697282.686530) can0 12E#000000000000C044 R
(1783697282.688370) can0 541#000010000001C92E R
(1783697282.692888) can0 121#0000000004840025 R
(1783697282.693201) can0 129#0000000100000031 R
(1783697282.693842) can0 120#0000000000000035 R
(1783697282.696304) can0 12D#00000000000000D4 R
(1783697282.703462) can0 450#0000000000002800 R
(1783697282.706260) can0 12D#0000000000000035 R
(1783697282.706501) can0 12E#000000000000C071 R
(1783697282.706862) can0 12A#10050000000A0062 R
(1783697282.707123) can0 5A0#000000000400003B R
(1783697282.709119) can0 541#000010000001C944 R
(1783697282.713353) can0 121#00AC01D604800053 R
(1783697282.713620) can0 129#000000010000005B R
(1783697282.715086) can0 120#000000000000005F R
(1783697282.716290) can0 12D#000000000000005F R
(1783697282.726109) can0 12D#000000000000006A R
(1783697282.726447) can0 12E#000000000000C090 R
(1783697282.727838) can0 541#000010000001C971 R
(1783697282.732970) can0 121#00AC01D604800066 R
(1783697282.733257) can0 129#000000010000006E R
(1783697282.735702) can0 120#000000000000006A R
(1783697282.736208) can0 12D#000000000000008B R
(1783697282.746124) can0 12D#00000000000000BE R
(1783697282.746385) can0 12E#000000000000C0A5 R
(1783697282.748183) can0 541#000010000001C990 R
(1783697282.752972) can0 121#00AC01D604800087 R
(1783697282.753253) can0 129#000000010000008F R
(1783697282.753463) can0 450#0000000000002800 R
(1783697282.755783) can0 120#000000000000008B R
(1783697282.756282) can0 12D#00000000000000D4 R
(1783697282.756450) can0 12A#10050000000A0083 R
(1783697282.766117) can0 12D#0000000000000035 R
(1783697282.766392) can0 12E#000000000000C0CF R
(1783697282.768279) can0 541#000010000001C9A5 R
(1783697282.773005) can0 121#00AC01D6048000B2 R
(1783697282.773335) can0 129#00000001000000BA R
(1783697282.773435) can0 540#000000010000FA00 R
(1783697282.774223) can0 5B0#0000000000000035 R
(1783697282.776457) can0 120#00000000000000BE R
(1783697282.776618) can0 12D#000000000000005F R
(1783697282.786124) can0 12D#000000000000006A R
(1783697282.786393) can0 12E#000000000000C02E R
(1783697282.788166) can0 541#000010000001C9CF R
(1783697282.793129) can0 121#00AC01D6048000D8 R
(1783697282.793324) can0 129#00000001000000D0 R
(1783697282.795855) can0 120#00000000000000D4 R
(1783697282.796280) can0 12D#000000000000008B R
(1783697282.803474) can0 450#0000000000002800 R
(1783697282.806213) can0 12D#00000000000000BE R
(1783697282.806459) can0 12E#000000000000C044 R
(1783697282.806605) can0 12A#10050000000A00B6 R
(1783697282.806982) can0 5A0#0000000004000051 R
(1783697282.809202) can0 541#000010000001C92E R
(1783697282.812995) can0 121#00AC01D604800039 R
(1783697282.813395) can0 129#0000000100000031 R
(1783697282.814621) can0 120#0000000000000035 R
(1783697282.816880) can0 12D#00000000000000D4 R
(1783697282.826129) can0 12D#0000000000000035 R
(1783697282.826462) can0 12E#000000000000C071 R
(1783697282.828000) can0 541#000010000001C944 R
(1783697282.832957) can0 121#00AC01D604800053 R
(1783697282.833230) can0 129#000000010000005B R
(1783697282.835706) can0 120#000000000000005F R
(1783697282.836236) can0 12D#000000000000005F R
(1783697282.846114) can0 12D#000000000000006A R
(1783697282.846386) can0 12E#000000000000C090 R
(1783697282.848150) can0 541#000010000001C971 R
(1783697282.852978) can0 121#00AC01D604800066 R
(1783697282.853242) can0 129#000000010000006E R
(1783697282.853385) can0 450#0000000000002800 R
(1783697282.855312) can0 120#000000000000006A R
(1783697282.856271) can0 12D#000000000000008B R
(1783697282.856545) can0 12A#10050000000A00DC R
(1783697282.866135) can0 12D#00000000000000BE R
(1783697282.866408) can0 12E#000000000000C0A5 R
(1783697282.868186) can0 541#000010000001C990 R
(1783697282.872971) can0 121#00AC01D604800087 R
(1783697282.873773) can0 129#000000010000008F R
(1783697282.873897) can0 540#000000010000FA00 R
(1783697282.874409) can0 5B0#100000000000005E R
(1783697282.874633) can0 120#000000000000008B R
(1783697282.876710) can0 12D#00000000000000D4 R
(1783697282.886086) can0 12D#0000000000000035 R
(1783697282.886364) can0 12E#000000000000C0CF R
(1783697282.887844) can0 541#000010000001C9A5 R
(1783697282.894038) can0 121#00AC01D6048000B2 R
(1783697282.894394) can0 129#00000001000000BA R
(1783697282.894607) can0 120#00000000000000BE R
(1783697282.896232) can0 12D#000000000000005F R
(1783697282.903497) can0 450#0000000000002800 R
(1783697282.906245) can0 12D#000000000000006A R
(1783697282.906629) can0 12E#000000000000C02E R
(1783697282.906841) can0 12A#10050000000A003D R
(1783697282.907019) can0 5A0#0000000004000064 R
(1783697282.908136) can0 541#000010000001C9CF R
(1783697282.913041) can0 121#00A601CF048000D9 R
(1783697282.913406) can0 129#00000001000000D0 R
(1783697282.914642) can0 120#00000000000000D4 R
(1783697282.917151) can0 12D#000000000000008B R
(1783697282.926142) can0 12D#00000000000000BE R
(1783697282.926549) can0 12E#000000000000C044 R
(1783697282.927835) can0 541#000010000001C92E R
(1783697282.932961) can0 121#00A601CF04800038 R
(1783697282.933279) can0 129#0000000100000031 R
(1783697282.934624) can0 120#0000000000000035 R
(1783697282.936744) can0 12D#00000000000000D4 R
(1783697282.946090) can0 12D#0000000000000035 R
(1783697282.946355) can0 12E#000000000000C071 R
(1783697282.948248) can0 541#000010000001C944 R
(1783697282.952962) can0 121#00A601CF04800052 R
(1783697282.953313) can0 129#000000010000005B R
(1783697282.953423) can0 450#0000000000002800 R
(1783697282.955252) can0 120#000000000000005F R
(1783697282.956245) can0 12D#000000000000005F R
(1783697282.956660) can0 12A#10050000000A0057 R
(1783697282.966422) can0 12D#000000000000006A R
(1783697282.966681) can0 12E#000000000000C090 R
(1783697282.968008) can0 541#000010000001C971 R
(1783697282.973018) can0 121#00A601CF04800067 R
(1783697282.973287) can0 129#000000010000006E R
(1783697282.973419) can0 540#000000110000FA00 R
(1783697282.975935) can0 5B0#100000000000006B R
(1783697282.976347) can0 120#000000000000006A R
(1783697282.976458) can0 12D#000000000000008B R
(1783697282.986133) can0 12D#00000000000000BE R
(1783697282.986444) can0 12E#000000000000C0A5 R
(1783697282.988273) can0 541#000010000001C990 R
(1783697282.992954) can0 121#00A601CF04800086 R
(1783697282.993428) can0 129#000000010000008F R
(1783697282.994578) can0 120#000000000000008B R
(1783697282.996229) can0 12D#00000000000000D4 R
(1783697283.003483) can0 450#0000000000002800 R
(1783697283.006211) can0 12D#0000000000000035 R
(1783697283.006411) can0 12E#000000000000C0CF R
(1783697283.006652) can0 12A#10050000000A0062 R
(1783697283.006985) can0 5A0#0000000004000085 R
(1783697283.007793) can0 541#000010000001C9A5 R
(1783697283.013016) can0 121#00A601CF048000B3 R
(1783697283.013348) can0 129#00000001000000BA R
(1783697283.014622) can0 120#00000000000000BE R
(1783697283.016212) can0 12D#000000000000005F R
(1783697283.026211) can0 12D#000000000000006A R
(1783697283.026483) can0 12E#000000000000C02E R
(1783697283.027839) can0 541#000010000001C9CF R
(1783697283.032973) can0 121#00A601CF048000D9 R
(1783697283.033370) can0 129#00000001000000D0 R
(1783697283.034567) can0 120#00000000000000D4 R
(1783697283.037378) can0 12D#000000000000008B R
(1783697283.046134) can0 12D#00000000000000BE R
(1783697283.046403) can0 12E#000000000000C044 R
(1783697283.048190) can0 541#000010000001C92E R
(1783697283.052970) can0 121#00A601CF04800038 R
(1783697283.053244) can0 129#0000000100000031 R
(1783697283.053373) can0 450#0000000000002800 R
(1783697283.055312) can0 120#0000000000000035 R
(1783697283.056399) can0 12D#00000000000000D4 R
(1783697283.056659) can0 12A#10050000000A0083 R
(1783697283.066114) can0 12D#0000000000000035 R
(1783697283.066447) can0 12E#000000000000C071 R
(1783697283.068167) can0 541#000010000001C944 R
(1783697283.072996) can0 121#00A601CF04800052 R
(1783697283.073320) can0 129#000000010000005B R
(1783697283.073402) can0 540#000040100000FA00 R
(1783697283.073650) can0 5B0#100000000000008A R
(1783697283.075471) can0 120#000000000000005F R
(1783697283.076498) can0 12D#000000000000005F R
(1783697283.086077) can0 12D#000000000000006A R
(1783697283.086352) can0 12E#000000000000C090 R
(1783697283.088161) can0 541#000010000001C971 R
(1783697283.092975) can0 121#00A601CF04800067 R
(1783697283.093235) can0 129#000000010000006E R
(1783697283.094577) can0 120#000000000000006A R
(1783697283.097084) can0 12D#000000000000008B R
(1783697283.103729) can0 450#0000000000002800 R
(1783697283.106215) can0 12D#00000000000000BE R
(1783697283.106452) can0 12E#000000000000C0A5 R
(1783697283.106621) can0 12A#10050000000A00B6 R
(1783697283.106915) can0 5A0#00000000040000B0 R
(1783697283.109273) can0 541#000010000001C990 R
(1783697283.113036) can0 121#00A601CF04800086 R
(1783697283.113416) can0 129#000000010000008F R
(1783697283.114671) can0 120#000000000000008B R
(1783697283.116768) can0 12D#00000000000000D4 R
(1783697283.126121) can0 12D#0000000000000035 R
(1783697283.126386) can0 12E#000000000000C0CF R
(1783697283.127839) can0 541#000010000001C9A5 R
(1783697283.132985) can0 121#00A601CF048000B3 R
(1783697283.133301) can0 129#00000001000000BA R
(1783697283.135952) can0 120#00000000000000BE R
(1783697283.136359) can0 12D#000000000000005F R
(1783697283.146114) can0 12D#000000000000006A R
(1783697283.146379) can0 12E#000000000000C02E R
(1783697283.148251) can0 541#000010000001C9CF R
(1783697283.153049) can0 121#00A601CF048000D9 R
(1783697283.153428) can0 129#00000001000000D0 R
(1783697283.153535) can0 450#0000000000002800 R
(1783697283.155353) can0 120#00000000000000D4 R
(1783697283.156476) can0 12D#000000000000008B R
(1783697283.156857) can0 12A#10050000000A00DC R
(1783697283.166107) can0 12D#00000000000000BE R
(1783697283.166381) can0 12E#000000000000C044 R
(1783697283.168247) can0 541#000010000001C92E R
(1783697283.173180) can0 121#00A601CF04800038 R
(1783697283.173464) can0 129#0000000100000031 R
(1783697283.173565) can0 540#000040100000FA00 R
(1783697283.175487) can0 5B0#10000000000000BF R
(1783697283.175876) can0 120#0000000000000035 R
(1783697283.176641) can0 12D#00000000000000D4 R
(1783697283.186111) can0 12D#0000000000000035 R
(1783697283.186437) can0 12E#000000000000C071 R
(1783697283.187852) can0 541#000010000001C944 R
(1783697283.193003) can0 121#00A601CF04800052 R
(1783697283.193321) can0 129#000000010000005B R
(1783697283.195727) can0 120#000000000000005F R
(1783697283.196234) can0 12D#000000000000005F R
(1783697283.203500) can0 450#0000000000002800 R
(1783697283.206663) can0 12D#000000000000006A R
(1783697283.206982) can0 12E#000000000000C090 R
(1783697283.207070) can0 12A#10050000000A003D R
(1783697283.207169) can0 5A0#00000000040000DA R
(1783697283.207926) can0 541#000010000001C971 R
(1783697283.213037) can0 121#00A601CF04800067 R
(1783697283.213392) can0 129#000000010000006E R
(1783697283.214797) can0 120#000000000000006A R
(1783697283.217186) can0 12D#000000000000008B R
(1783697283.226074) can0 12D#00000000000000BE R
(1783697283.226333) can0 12E#000000000000C0A5 R
(1783697283.227834) can0 541#000010000001C990 R
(1783697283.232998) can0 121#00A601CF04800086 R
(1783697283.233350) can0 129#000000010000008F R
(1783697283.235483) can0 120#000000000000008B R
(1783697283.236619) can0 12D#00000000000000D4 R
(1783697283.246073) can0 12D#0000000000000035 R
(1783697283.246355) can0 12E#000000000000C0CF R
(1783697283.248203) can0 541#000010000001C9A5 R
(1783697283.252986) can0 121#00A601CF048000B3 R
(1783697283.253238) can0 129#00000001000000BA R
(1783697283.253393) can0 450#0000000000002800 R
(1783697283.256187) can0 120#00000000000000BE R
(1783697283.256595) can0 12D#000000000000005F R
(1783697283.256701) can0 12A#10050000000A0057 R
(1783697283.266121) can0 12D#000000000000006A R
(1783697283.266444) can0 12E#000000000000C02E R
(1783697283.268211) can0 541#000010000001C9CF R
(1783697283.272995) can0 121#00A601CF048000D9 R
(1783697283.273309) can0 129#00000001000000D0 R
(1783697283.273421) can0 540#000040100000FA00 R
(1783697283.273643) can0 5B0#10000000000000D5 R
(1783697283.276142) can0 120#00000000000000D4 R
(1783697283.276665) can0 12D#000000000000008B R
(1783697283.286118) can0 12D#00000000000000BE R
(1783697283.286374) can0 12E#000000000000C044 R
(1783697283.288189) can0 541#000010000001C92E R
(1783697283.293003) can0 121#00A601CF04800038 R
(1783697283.293287) can0 129#0000000100000031 R
(1783697283.295721) can0 120#0000000000000035 R
(1783697283.296247) can0 12D#00000000000000D4 R
(1783697283.303491) can0 450#0000000000002800 R
(1783697283.306318) can0 12D#0000000000000035 R
(1783697283.306706) can0 12E#000000000000C071 R
(1783697283.306917) can0 12A#10050000000A0062 R
(1783697283.307104) can0 5A0#000000000400003B R
(1783697283.308065) can0 541#000010000001C944 R
(1783697283.313075) can0 121#00A601CF04800052 R
(1783697283.313469) can0 129#000000010000005B R
(1783697283.314737) can0 120#000000000000005F R
(1783697283.316263) can0 12D#000000000000005F R
(1783697283.326111) can0 12D#000000000000006A R
(1783697283.326389) can0 12E#000000000000C090 R
(1783697283.328186) can0 541#000010000001C971 R
(1783697283.333003) can0 121#00A601CF04800067 R
(1783697283.333336) can0 129#000000010000006E R
(1783697283.335739) can0 120#000000000000006A R
(1783697283.336249) can0 12D#000000000000008B R
(1783697283.346125) can0 12D#00000000000000BE R
(1783697283.346440) can0 12E#000000000000C0A5 R
(1783697283.348253) can0 541#000010000001C990 R
(1783697283.353021) can0 121#00A601CF04800086 R
(1783697283.353339) can0 129#000000010000008F R
(1783697283.353418) can0 450#0000000000002800 R
(1783697283.355839) can0 120#000000000000008B R
(1783697283.356266) can0 12D#00000000000000D4 R
(1783697283.356453) can0 12A#10050000000A0083 R
(1783697283.366072) can0 12D#0000000000000035 R
(1783697283.366343) can0 12E#000000000000C0CF R
(1783697283.368309) can0 541#000010000001C9A5 R
(1783697283.373015) can0 121#00A601CF048000B3 R
(1783697283.373470) can0 129#00000001000000BA R
(1783697283.375672) can0 540#000040100000FA00 R
(1783697283.375870) can0 5B0#1000000000000034 R
(1783697283.376025) can0 120#00000000000000BE R
(1783697283.376208) can0 12D#000000000000005F R
(1783697283.386085) can0 12D#000000000000006A R
(1783697283.386404) can0 12E#000000000000C02E R
(1783697283.387811) can0 541#000010000001C9CF R
(1783697283.393024) can0 121#00A601CF048000D9 R
(1783697283.394752) can0 129#00000001000000D0 R
(1783697283.395158) can0 120#00000000000000D4 R
(1783697283.396231) can0 12D#000000000000008B R
(1783697283.404218) can0 450#0000000000002800 R
(1783697283.406226) can0 12D#00000000000000BE R
(1783697283.406513) can0 12E#000000000000C044 R
(1783697283.406627) can0 12A#10050000000A00B6 R
(1783697283.408620) can0 5A0#0000000004000051 R
(1783697283.409035) can0 541#000010000001C92E R
(1783697283.413045) can0 121#00A601CF04800038 R
(1783697283.413318) can0 129#0000000100000031 R
(1783697283.414783) can0 120#0000000000000035 R
(1783697283.416567) can0 12D#00000000000000D4 R
(1783697283.426087) can0 12D#0000000000000035 R
(1783697283.426352) can0 12E#000000000000C071 R
(1783697283.428241) can0 541#000010000001C944 R
(1783697283.433002) can0 121#00A601CF04800052 R
(1783697283.433280) can0 129#000000010000005B R
(1783697283.434901) can0 120#000000000000005F R
(1783697283.437351) can0 12D#000000000000005F R
(1783697283.446439) can0 12D#000000000000006A R
(1783697283.446705) can0 12E#000000000000C090 R
(1783697283.447794) can0 541#000010000001C971 R
(1783697283.453007) can0 121#00A601CF04800067 R
(1783697283.453275) can0 129#000000010000006E R
(1783697283.453424) can0 450#0000000000002800 R
(1783697283.455850) can0 120#000000000000006A R
(1783697283.456269) can0 12D#000000000000008B R
(1783697283.456411) can0 12A#10050000000A00DC R
(1783697283.466088) can0 12D#00000000000000BE R
(1783697283.466413) can0 12E#000000000000C0A5 R
(1783697283.468224) can0 541#000010000001C990 R
(1783697283.473005) can0 121#00A601CF04800086 R
(1783697283.473330) can0 129#000000010000008F R
(1783697283.473413) can0 540#000040100000FA00 R
(1783697283.473658) can0 5B0#100000000000005E R
(1783697283.475406) can0 120#000000000000008B R
(1783697283.476664) can0 12D#00000000000000D4 R
(1783697283.486114) can0 12D#0000000000000035 R
(1783697283.486393) can0 12E#000000000000C0CF R
(1783697283.488293) can0 541#000010000001C9A5 R
(1783697283.493015) can0 121#00A601CF048000B3 R
(1783697283.493268) can0 129#00000001000000BA R
(1783697283.495777) can0 120#00000000000000BE R
(1783697283.496281) can0 12D#000000000000005F R
