(1782315560.203990) can0 12D#0000000000000000 R
(1782315560.204389) can0 12D#0000000000000000 R
(1782315560.204692) can0 12D#0000000000000000 R
(1782315560.204950) can0 12D#0000000000000000 R
(1782315560.205197) can0 12D#0000000000000000 R
(1782315560.205445) can0 12D#0000000000000000 R
(1782315560.205688) can0 12D#0000000000000000 R
(1782315560.205931) can0 12D#0000000000000000 R
(1782315560.206306) can0 12D#0000000000000000 R
(1782315560.206589) can0 12D#0000000000000000 R
(1782315560.206841) can0 12D#0000000000000000 R
(1782315560.207085) can0 12D#0000000000000000 R
(1782315560.207329) can0 12D#0000000000000000 R
(1782315560.207526) can0 12D#0000000000000000 R
(1782315560.207628) can0 12D#0000000000000000 R
(1782315560.207725) can0 12D#0000000000000000 R
(1782315560.207820) can0 12D#0000000000000000 R
(1782315560.207917) can0 12D#0000000000000000 R
(1782315560.208013) can0 12D#0000000000000000 R
(1782315560.209247) can0 12D#0000000000000000 R
(1782315560.209496) can0 12D#0000000000000000 R
(1782315560.209617) can0 12D#0000000000000035 R
(1782315560.209715) can0 12D#0000000000000035 R
(1782315560.209811) can0 12D#0000000000000035 R
(1782315560.209906) can0 12D#0000000000000035 R
(1782315560.210779) can0 12D#0000000000000035 R
(1782315560.210896) can0 12D#0000000000000035 R
(1782315560.210995) can0 12D#0000000000000035 R
(1782315560.211091) can0 12D#0000000000000035 R
(1782315560.211187) can0 12D#0000000000000035 R
(1782315560.211283) can0 12D#0000000000000035 R
(1782315560.212447) can0 12D#0000000000000035 R
(1782315560.212557) can0 12D#0000000000000035 R
(1782315560.212662) can0 12D#0000000000000035 R
(1782315560.212760) can0 12D#0000000000000035 R
(1782315560.212857) can0 12D#0000000000000035 R
(1782315560.212957) can0 12D#0000000000000035 R
(1782315560.214118) can0 12D#0000000000000035 R
(1782315560.214231) can0 12D#0000000000000035 R
(1782315560.214333) can0 12D#0000000000000035 R
(1782315560.214438) can0 12D#0000000000000035 R
(1782315560.214539) can0 12D#0000000000000035 R
(1782315560.214639) can0 12D#0000000000000035 R
(1782315560.215779) can0 12D#0000000000000035 R
(1782315560.215887) can0 12D#0000000000000035 R
(1782315560.215986) can0 12D#0000000000000035 R
(1782315560.216083) can0 12D#0000000000000035 R
(1782315560.216181) can0 12D#0000000000000035 R
(1782315560.216282) can0 12D#0000000000000035 R
(1782315560.219585) can0 12D#0000000000000035 R
(1782315560.219806) can0 12D#0000000000000035 R
(1782315560.220044) can0 12D#0000000000000035 R
(1782315560.220162) can0 12D#0000000000000035 R
(1782315560.220271) can0 12D#0000000000000035 R
(1782315560.220390) can0 12D#0000000000000035 R
(1782315560.220515) can0 12D#0000000000000035 R
(1782315560.220617) can0 12D#0000000000000035 R
(1782315560.220721) can0 12D#0000000000000035 R
(1782315560.220822) can0 12D#000000000000005F R
(1782315560.220923) can0 12D#000000000000005F R
(1782315560.221024) can0 12D#000000000000005F R
(1782315560.221129) can0 12D#000000000000005F R
(1782315560.221227) can0 12D#000000000000005F R
(1782315560.221328) can0 12D#000000000000005F R
(1782315560.221429) can0 12D#000000000000005F R
(1782315560.221535) can0 12D#000000000000005F R
(1782315560.227963) can0 12D#000000000000005F R
(1782315560.228086) can0 12D#000000000000005F R
(1782315560.228189) can0 12D#000000000000005F R
(1782315560.228290) can0 12D#000000000000005F R
(1782315560.228390) can0 12D#000000000000005F R
(1782315560.228493) can0 12E#0000000000000000 R
(1782315560.232973) can0 12D#000000000000006A R
(1782315560.233099) can0 12E#0000000000000035 R
(1782315560.233196) can0 121#0000000004840010 R
(1782315560.233292) can0 129#0000000100000004 R
(1782315560.233387) can0 540#0000000000000000 R
(1782315560.233490) can0 5B0#0000000000000000 R
(1782315560.252156) can0 120#0000000000000000 R
(1782315560.252259) can0 12D#000000000000008B R
(1782315560.252349) can0 12A#10010000000A001D R
(1782315560.252438) can0 12D#00000000000000BE R
(1782315560.252524) can0 12E#000000000000005F R
(1782315560.271857) can0 121#0000000004840025 R
(1782315560.271974) can0 129#0000000100000031 R
(1782315560.272062) can0 120#0000000000000035 R
(1782315560.272148) can0 12D#00000000000000D4 R
(1782315560.272234) can0 12D#0000000000000035 R
(1782315560.272319) can0 12E#000000000000006A R
(1782315560.288618) can0 121#00AC01D604800053 R
(1782315560.288735) can0 129#000000010000005B R
(1782315560.288841) can0 120#000000000000005F R
(1782315560.288945) can0 12D#000000000000005F R
(1782315560.289050) can0 12D#000000000000006A R
(1782315560.289152) can0 12E#000000000000008B R
(1782315560.308104) can0 12A#10010000000A0028 R
(1782315560.308274) can0 5A0#0000000000000000 R
(1782315560.308390) can0 121#00AC01D604800066 R
(1782315560.308499) can0 129#000000010000006E R
(1782315560.308613) can0 120#000000000000006A R
(1782315560.308722) can0 12D#000000000000008B R
(1782315560.328123) can0 12D#00000000000000BE R
(1782315560.328400) can0 12E#00000000000000BE R
(1782315560.328650) can0 121#00AC01D604800087 R
(1782315560.328891) can0 129#000000010000008F R
(1782315560.329137) can0 120#000000000000008B R
(1782315560.329376) can0 12D#00000000000000D4 R
(1782315560.333550) can0 12D#0000000000000035 R
(1782315560.333792) can0 12E#00000000000000D4 R
(1782315560.334040) can0 121#00AC01D6048000B2 R
(1782315560.334279) can0 129#00000001000000BA R
(1782315560.334519) can0 540#0000000100011200 R
(1782315560.334755) can0 5B0#0000000000000035 R
(1782315560.352059) can0 120#00000000000000BE R
(1782315560.352316) can0 12D#000000000000005F R
(1782315560.352561) can0 12A#10010000000A0042 R
(1782315560.352802) can0 12D#000000000000006A R
(1782315560.353042) can0 12E#0000000000000035 R
(1782315560.371625) can0 121#00AC01D6048000D8 R
(1782315560.371883) can0 129#00000001000000D0 R
(1782315560.372125) can0 120#00000000000000D4 R
(1782315560.372366) can0 12D#000000000000008B R
(1782315560.372604) can0 12D#00000000000000BE R
(1782315560.372845) can0 12E#000000000000005F R
(1782315560.388639) can0 121#00AC01D604800039 R
(1782315560.388898) can0 129#0000000100000031 R
(1782315560.389141) can0 120#0000000000000035 R
(1782315560.389985) can0 12D#00000000000000D4 R
(1782315560.390338) can0 12D#0000000000000035 R
(1782315560.390626) can0 12E#000000000000006A R
(1782315560.408101) can0 12A#10010000000A0077 R
(1782315560.408361) can0 5A0#0000000000000035 R
(1782315560.408605) can0 121#00AC01D604800053 R
(1782315560.408847) can0 129#000000010000005B R
(1782315560.409090) can0 120#000000000000005F R
(1782315560.409332) can0 12D#000000000000005F R
(1782315560.428123) can0 12D#000000000000006A R
(1782315560.428382) can0 12E#000000000000008B R
(1782315560.428628) can0 121#00AC01D604800066 R
(1782315560.428872) can0 129#000000010000006E R
(1782315560.429114) can0 120#000000000000006A R
(1782315560.429359) can0 12D#000000000000008B R
(1782315560.432518) can0 12D#00000000000000BE R
(1782315560.432761) can0 12E#00000000000000BE R
(1782315560.433001) can0 121#00AC01D604800087 R
(1782315560.433243) can0 129#000000010000008F R
(1782315560.433483) can0 540#0000000100011200 R
(1782315560.448208) can0 5B0#100000000000005E R
(1782315560.448465) can0 120#000000000000008B R
(1782315560.448713) can0 541#000110000008D21C R
(1782315560.448952) can0 12D#00000000000000D4 R
(1782315560.449195) can0 12A#10010000000A0096 R
(1782315560.449433) can0 12D#0000000000000035 R
(1782315560.459637) can0 12E#00000000000000D4 R
(1782315560.459891) can0 121#00AC01D6048000B2 R
(1782315560.460219) can0 129#00000001000000BA R
(1782315560.460491) can0 120#00000000000000BE R
(1782315560.460754) can0 541#000110000008D229 R
(1782315560.461012) can0 12D#000000000000005F R
(1782315560.474930) can0 450#0000000000002800 R
(1782315560.475185) can0 12D#000000000000006A R
(1782315560.475434) can0 12E#0000000000000035 R
(1782315560.475678) can0 121#00A601CF048000D9 R
(1782315560.475923) can0 129#00000001000000D0 R
(1782315560.476165) can0 120#00000000000000D4 R
(1782315560.496235) can0 541#000110000008D243 R
(1782315560.496339) can0 12D#000000000000008B R
(1782315560.496404) can0 12D#00000000000000BE R
(1782315560.496465) can0 12E#000000000000005F R
(1782315560.496526) can0 12A#10010000000A00A3 R
(1782315560.496585) can0 5A0#000000000000005F R
(1782315560.508287) can0 121#00A601CF04800038 R
(1782315560.508352) can0 129#0000000100000031 R
(1782315560.508414) can0 120#0000000000000035 R
(1782315560.508476) can0 541#000110000008D276 R
(1782315560.508535) can0 12D#00000000000000D4 R
(1782315560.508594) can0 12D#0000000000000035 R
(1782315560.514931) can0 12E#000000000000006A R
(1782315560.514999) can0 450#0000000000002800 R
(1782315560.515064) can0 121#00A601CF04800052 R
(1782315560.515131) can0 129#000000010000005B R
(1782315560.515195) can0 120#000000000000005F R
(1782315560.532144) can0 541#000110000008D297 R
(1782315560.532213) can0 12D#000000000000005F R
(1782315560.532281) can0 12D#000000000000006A R
(1782315560.532346) can0 12E#000000000000008B R
(1782315560.532411) can0 121#00A601CF04800067 R
(1782315560.532476) can0 129#000000010000006E R
(1782315560.548024) can0 540#0000001100011200 R
(1782315560.548127) can0 5B0#100000000000006B R
(1782315560.548205) can0 120#000000000000006A R
(1782315560.548280) can0 541#000110000008D2A2 R
(1782315560.548356) can0 12D#000000000000008B R
(1782315560.548430) can0 12A#10010000000A00C9 R
(1782315560.558274) can0 12D#00000000000000BE R
(1782315560.558355) can0 12E#00000000000000BE R
(1782315560.558429) can0 121#00A601CF04800086 R
(1782315560.558502) can0 129#000000010000008F R
(1782315560.558575) can0 120#000000000000008B R
(1782315560.558648) can0 541#000110000008D2C8 R
(1782315560.573317) can0 12D#00000000000000D4 R
(1782315560.573406) can0 450#0000000000002800 R
(1782315560.573491) can0 12D#0000000000000035 R
(1782315560.573574) can0 12E#00000000000000D4 R
(1782315560.573658) can0 121#00A601CF048000B3 R
(1782315560.573742) can0 129#00000001000000BA R
(1782315560.589022) can0 120#00000000000000BE R
(1782315560.589119) can0 541#000110000008D229 R
(1782315560.589206) can0 12D#000000000000005F R
(1782315560.589290) can0 12D#000000000000006A R
(1782315560.589375) can0 12E#0000000000000035 R
(1782315560.598584) can0 12A#10010000000A0028 R
(1782315560.598700) can0 5A0#000000000000006A R
(1782315560.598784) can0 121#00A601CF048000D9 R
(1782315560.598868) can0 129#00000001000000D0 R
(1782315560.598952) can0 120#00000000000000D4 R
(1782315560.599036) can0 541#000110000008D243 R
(1782315560.613537) can0 12D#000000000000008B R
(1782315560.613661) can0 12D#00000000000000BE R
(1782315560.613761) can0 12E#000000000000005F R
(1782315560.613863) can0 450#0000000000002800 R
(1782315560.613962) can0 121#00A601CF04800038 R
(1782315560.614062) can0 129#0000000100000031 R
(1782315560.631994) can0 120#0000000000000035 R
(1782315560.632168) can0 541#000110000008D276 R
(1782315560.632294) can0 12D#00000000000000D4 R
(1782315560.632416) can0 12D#0000000000000035 R
(1782315560.632535) can0 12E#000000000000006A R
(1782315560.632653) can0 121#00A601CF04800052 R
(1782315560.638892) can0 129#000000010000005B R
(1782315560.639077) can0 540#0000401100011200 R
(1782315560.639256) can0 5B0#100000000000008A R
(1782315560.639433) can0 120#000000000000005F R
(1782315560.639609) can0 541#000110000008D297 R
(1782315560.639785) can0 12D#000000000000005F R
(1782315560.655048) can0 12A#10010000000A0042 R
(1782315560.655332) can0 12D#000000000000006A R
(1782315560.655579) can0 12E#000000000000008B R
(1782315560.655822) can0 121#00A601CF04800067 R
(1782315560.656064) can0 129#000000010000006E R
(1782315560.656335) can0 120#000000000000006A R
(1782315560.671916) can0 541#000110000008D2A2 R
(1782315560.672170) can0 12D#000000000000008B R
(1782315560.672414) can0 450#0000000000002800 R
(1782315560.672658) can0 12D#00000000000000BE R
(1782315560.672900) can0 12E#00000000000000BE R
(1782315560.688725) can0 121#00A601CF04800086 R
(1782315560.688982) can0 129#000000010000008F R
(1782315560.689230) can0 120#000000000000008B R
(1782315560.689470) can0 541#000110000008D3DE R
(1782315560.689713) can0 12D#00000000000000D4 R
(1782315560.689954) can0 12D#0000000000000035 R
(1782315560.694898) can0 12E#00000000000000D4 R
(1782315560.695143) can0 12A#10010000000A0077 R
(1782315560.695385) can0 5A0#000000000000008B R
(1782315560.695626) can0 121#00A601CF048000B3 R
(1782315560.695869) can0 129#00000001000000BA R
(1782315560.696108) can0 120#00000000000000BE R
(1782315560.712023) can0 541#000110000008D33F R
(1782315560.712279) can0 12D#000000000000005F R
(1782315560.712524) can0 12D#000000000000006A R
(1782315560.712766) can0 12E#0000000000000035 R
(1782315560.713011) can0 450#0000000000002800 R
(1782315560.713251) can0 121#00A601CF048000D9 R
(1782315560.731964) can0 129#00000001000000D0 R
(1782315560.732213) can0 120#00000000000000D4 R
(1782315560.732457) can0 541#000110000008D355 R
(1782315560.732699) can0 12D#000000000000008B R
(1782315560.732942) can0 12D#00000000000000BE R
(1782315560.733182) can0 12E#000000000000005F R
(1782315560.739035) can0 121#00A601CF04800038 R
(1782315560.746529) can0 129#0000000100000031 R
(1782315560.746708) can0 540#0000401100011200 R
(1782315560.746795) can0 5B0#10000000000000BF R
(1782315560.746872) can0 120#0000000000000035 R
(1782315560.751892) can0 541#000110000008D360 R
(1782315560.752013) can0 12D#00000000000000D4 R
(1782315560.752090) can0 12A#10010000000A0096 R
(1782315560.752165) can0 12D#0000000000000035 R
(1782315560.752240) can0 12E#000000000000006A R
(1782315560.752315) can0 121#00A601CF04800052 R
(1782315560.768633) can0 129#000000010000005B R
(1782315560.768743) can0 120#000000000000005F R
(1782315560.768830) can0 541#000110000008D381 R
(1782315560.768915) can0 12D#000000000000005F R
(1782315560.769001) can0 450#0000000000002800 R
(1782315560.769087) can0 12D#000000000000006A R
(1782315560.788431) can0 12E#000000000000008B R
(1782315560.788529) can0 121#00A601CF04800067 R
(1782315560.788617) can0 129#000000010000006E R
(1782315560.788703) can0 120#000000000000006A R
(1782315560.788789) can0 541#000110000008D3B4 R
(1782315560.788875) can0 12D#000000000000008B R
(1782315560.793498) can0 12D#00000000000000BE R
(1782315560.793588) can0 12E#00000000000000BE R
(1782315560.793674) can0 12A#10010000000A00A3 R
(1782315560.793759) can0 5A0#00000000000000BE R
(1782315560.793846) can0 121#00A601CF04800086 R
(1782315560.793931) can0 129#000000010000008F R
(1782315560.811794) can0 120#000000000000008B R
(1782315560.811987) can0 541#000110000008D3DE R
(1782315560.812088) can0 12D#00000000000000D4 R
(1782315560.812189) can0 12D#0000000000000035 R
(1782315560.812287) can0 12E#00000000000000D4 R
(1782315560.812384) can0 450#0000000000002800 R
(1782315560.828485) can0 121#00A601CF048000B3 R
(1782315560.828646) can0 129#00000001000000BA R
(1782315560.828790) can0 120#00000000000000BE R
(1782315560.828928) can0 541#000110000008D33F R
(1782315560.829068) can0 12D#000000000000005F R
(1782315560.833385) can0 12D#000000000000006A R
(1782315560.833543) can0 12E#0000000000000035 R
(1782315560.833685) can0 121#00A601CF048000D9 R
(1782315560.833824) can0 129#00000001000000D0 R
(1782315560.833964) can0 540#0000401100011200 R
(1782315560.834104) can0 5B0#10000000000000D5 R
(1782315560.852619) can0 120#00000000000000D4 R
(1782315560.852884) can0 541#000110000008D355 R
(1782315560.853128) can0 12D#000000000000008B R
(1782315560.853372) can0 12A#10010000000A00C9 R
(1782315560.853619) can0 12D#00000000000000BE R
(1782315560.853861) can0 12E#000000000000005F R
(1782315560.868491) can0 121#00A601CF04800038 R
(1782315560.868738) can0 129#0000000100000031 R
(1782315560.868980) can0 120#0000000000000035 R
(1782315560.869221) can0 541#000110000008D360 R
(1782315560.869464) can0 12D#00000000000000D4 R
(1782315560.869705) can0 450#0000000000002800 R
(1782315560.878698) can0 12D#0000000000000035 R
(1782315560.878943) can0 12E#000000000000006A R
(1782315560.879184) can0 121#00A601CF04800052 R
(1782315560.879427) can0 129#000000010000005B R
(1782315560.879668) can0 120#000000000000005F R
(1782315560.879911) can0 541#000110000008D381 R
(1782315560.891869) can0 12D#000000000000005F R
(1782315560.892123) can0 12D#000000000000006A R
(1782315560.892367) can0 12E#000000000000008B R
(1782315560.892611) can0 12A#10010000000A0028 R
(1782315560.892853) can0 5A0#00000000000000D4 R
(1782315560.908574) can0 121#00A601CF04800067 R
(1782315560.908830) can0 129#000000010000006E R
(1782315560.909072) can0 120#000000000000006A R
(1782315560.909352) can0 541#000110000008D3B4 R
(1782315560.909594) can0 12D#000000000000008B R
(1782315560.909835) can0 12D#00000000000000BE R
(1782315560.919760) can0 12E#00000000000000BE R
(1782315560.919982) can0 450#0000000000002800 R
(1782315560.920096) can0 121#00A601CF04800086 R
(1782315560.920206) can0 129#000000010000008F R
(1782315560.920315) can0 120#000000000000008B R
(1782315560.920422) can0 541#000110000008D3DE R
(1782315560.932432) can0 12D#00000000000000D4 R
(1782315560.932582) can0 12D#0000000000000035 R
(1782315560.932725) can0 12E#00000000000000D4 R
(1782315560.932865) can0 121#00A601CF048000B3 R
(1782315560.933004) can0 129#00000001000000BA R
(1782315560.933144) can0 540#0000401100011200 R
(1782315560.944478) can0 5B0#1000000000000034 R
(1782315560.944798) can0 120#00000000000000BE R
(1782315560.945062) can0 541#000110000008D33F R
(1782315560.945307) can0 12D#000000000000005F R
(1782315560.945550) can0 12A#10010000000A0042 R
(1782315560.953981) can0 12D#000000000000006A R
(1782315560.954248) can0 12E#0000000000000035 R
(1782315560.954499) can0 121#00A601CF048000D9 R
(1782315560.954743) can0 129#00000001000000D0 R
(1782315560.971703) can0 120#00000000000000D4 R
(1782315560.971962) can0 541#000110000008D355 R
(1782315560.972215) can0 12D#000000000000008B R
(1782315560.972463) can0 450#0000000000002800 R
(1782315560.972709) can0 12D#00000000000000BE R
(1782315560.972955) can0 12E#000000000000005F R
(1782315560.988875) can0 121#00A601CF04800038 R
(1782315560.989501) can0 129#0000000100000031 R
(1782315560.996113) can0 120#0000000000000035 R
(1782315560.996228) can0 541#000110000008D360 R
(1782315560.996335) can0 12D#00000000000000D4 R
(1782315560.996440) can0 12D#0000000000000035 R
(1782315560.996620) can0 12E#000000000000006A R
(1782315560.996698) can0 12A#10010000000A0077 R
(1782315560.996776) can0 5A0#0000000000000035 R
(1782315560.996849) can0 121#00A601CF04800052 R
(1782315560.996925) can0 129#000000010000005B R
(1782315560.996999) can0 120#000000000000005F R
(1782315561.011769) can0 541#000110000008D381 R
(1782315561.011858) can0 12D#000000000000005F R
(1782315561.011974) can0 12D#000000000000006A R
(1782315561.012059) can0 12E#000000000000008B R
(1782315561.012144) can0 450#0000000000002800 R
(1782315561.028642) can0 121#00A601CF04800067 R
(1782315561.028778) can0 129#000000010000006E R
(1782315561.028882) can0 120#000000000000006A R
(1782315561.028986) can0 541#000110000008D3B4 R
(1782315561.029089) can0 12D#000000000000008B R
(1782315561.029192) can0 12D#00000000000000BE R
(1782315561.034852) can0 12E#00000000000000BE R
(1782315561.034940) can0 121#00A601CF04800086 R
(1782315561.035028) can0 129#000000010000008F R
(1782315561.035113) can0 540#0000401100011200 R
(1782315561.035198) can0 5B0#100000000000005E R
(1782315561.035284) can0 120#000000000000008B R
(1782315561.051962) can0 541#000110000008D3DE R
(1782315561.052085) can0 12D#00000000000000D4 R
(1782315561.052189) can0 12A#10010000000A0096 R
(1782315561.052292) can0 12D#0000000000000035 R
(1782315561.052395) can0 12E#00000000000000D4 R
(1782315561.052498) can0 121#00A601CF048000B3 R
(1782315561.068796) can0 129#00000001000000BA R
(1782315561.068999) can0 120#00000000000000BE R
(1782315561.069120) can0 541#000110000008D33F R
(1782315561.069234) can0 12D#000000000000005F R
(1782315561.069345) can0 450#0000000000002800 R
(1782315561.069455) can0 12D#000000000000006A R
(1782315561.078667) can0 12E#0000000000000035 R
(1782315561.078829) can0 121#00A601CF048000D9 R
(1782315561.078974) can0 129#00000001000000D0 R
(1782315561.079115) can0 120#00000000000000D4 R
(1782315561.079256) can0 541#000010000008D35D R
(1782315561.079395) can0 12D#000000000000008B R
(1782315561.092142) can0 12D#00000000000000BE R
(1782315561.092300) can0 12E#000000000000005F R
(1782315561.092440) can0 12A#10010000000A00A3 R
(1782315561.092578) can0 5A0#000000000000005F R
(1782315561.092717) can0 121#00A601CF04800038 R
(1782315561.109564) can0 129#0000000100000031 R
(1782315561.109837) can0 120#0000000000000035 R
(1782315561.110082) can0 541#000010000008D368 R
(1782315561.110324) can0 12D#00000000000000D4 R
(1782315561.110565) can0 12D#0000000000000035 R
(1782315561.110805) can0 12E#000000000000006A R
(1782315561.128390) can0 450#0000000000002800 R
(1782315561.128524) can0 121#00A601CF04800052 R
(1782315561.128643) can0 129#000000010000005B R
(1782315561.128760) can0 120#000000000000005F R
(1782315561.128876) can0 541#000010000008D389 R
(1782315561.129000) can0 12D#000000000000005F R
(1782315561.133496) can0 12D#000000000000006A R
(1782315561.133652) can0 12E#000000000000008B R
(1782315561.133794) can0 121#00A601CF04800067 R
(1782315561.133934) can0 129#000000010000006E R
(1782315561.134071) can0 540#0000401100011200 R
(1782315561.134208) can0 5B0#100000000000006B R
(1782315561.153179) can0 120#000000000000006A R
(1782315561.153443) can0 541#000010000008D3BC R
(1782315561.153697) can0 12D#000000000000008B R
(1782315561.153948) can0 12A#10010000000A00C9 R
(1782315561.154198) can0 12D#00000000000000BE R
(1782315561.154447) can0 12E#00000000000000BE R
(1782315561.159819) can0 121#00A601CF04800086 R
(1782315561.160071) can0 129#000000010000008F R
(1782315561.160314) can0 120#000000000000008B R
(1782315561.160560) can0 541#000010000008D3D6 R
(1782315561.160801) can0 12D#00000000000000D4 R
(1782315561.175834) can0 450#0000000000002800 R
(1782315561.176091) can0 12D#0000000000000035 R
(1782315561.176334) can0 12E#00000000000000D4 R
(1782315561.176576) can0 121#00A601CF048000B3 R
(1782315561.176816) can0 129#00000001000000BA R
(1782315561.177056) can0 120#00000000000000BE R
(1782315561.191708) can0 541#000010000008D337 R
(1782315561.191857) can0 12D#000000000000005F R
(1782315561.191997) can0 12D#000000000000006A R
(1782315561.192141) can0 12E#0000000000000035 R
(1782315561.192279) can0 12A#10010000000A0028 R
(1782315561.192418) can0 5A0#000000000000006A R
(1782315561.208690) can0 121#00A601CF048000D9 R
(1782315561.208949) can0 129#00000001000000D0 R
(1782315561.209191) can0 120#00000000000000D4 R
(1782315561.209432) can0 541#000010000008D35D R
(1782315561.209673) can0 12D#000000000000008B R
(1782315561.209914) can0 12D#00000000000000BE R
(1782315561.220402) can0 12E#000000000000C044 R
(1782315561.220506) can0 450#0000000000002800 R
(1782315561.220604) can0 121#00A601CF04800038 R
(1782315561.220702) can0 129#0000000100000031 R
(1782315561.220800) can0 120#0000000000000035 R
(1782315561.220897) can0 541#000010000008D368 R
(1782315561.232244) can0 12D#00000000000000D4 R
(1782315561.232352) can0 12D#0000000000000035 R
(1782315561.232458) can0 12E#000000000000C071 R
(1782315561.232563) can0 121#00A601CF04800052 R
(1782315561.232668) can0 129#000000010000005B R
(1782315561.232773) can0 540#0000401100011200 R
(1782315561.248499) can0 5B0#100000000000008A R
(1782315561.248643) can0 120#000000000000005F R
(1782315561.248737) can0 541#000010000008D389 R
(1782315561.248827) can0 12D#000000000000005F R
(1782315561.248914) can0 12A#10010000000A0042 R
(1782315561.258495) can0 12D#000000000000006A R
(1782315561.258631) can0 12E#000000000000C090 R
(1782315561.258734) can0 121#00A601CF04800067 R
(1782315561.258843) can0 129#000000010000006E R
(1782315561.258945) can0 120#000000000000006A R
(1782315561.259047) can0 541#000010000008D3BC R
(1782315561.273464) can0 12D#000000000000008B R
(1782315561.273608) can0 450#0000000000002800 R
(1782315561.273718) can0 12D#00000000000000BE R
(1782315561.273819) can0 12E#000000000000C0A5 R
(1782315561.273921) can0 121#00A601CF04800086 R
(1782315561.274022) can0 129#000000010000008F R
(1782315561.289259) can0 120#000000000000008B R
(1782315561.289396) can0 541#000010000008D3D6 R
(1782315561.289496) can0 12D#00000000000000D4 R
(1782315561.289599) can0 12D#0000000000000035 R
(1782315561.289698) can0 12E#000000000000C0CF R
(1782315561.289796) can0 12A#10010000000A0077 R
(1782315561.308587) can0 5A0#0000000004000085 R
(1782315561.308910) can0 121#00A601CF048000B3 R
(1782315561.309167) can0 129#00000001000000BA R
(1782315561.309412) can0 120#00000000000000BE R
(1782315561.309676) can0 541#000010000008D337 R
(1782315561.309919) can0 12D#000000000000005F R
(1782315561.313579) can0 12D#000000000000006A R
(1782315561.313857) can0 12E#000000000000C02E R
(1782315561.314099) can0 450#0000000000002800 R
(1782315561.314344) can0 121#00A601CF048000D9 R
(1782315561.314588) can0 129#00000001000000D0 R
(1782315561.331970) can0 120#00000000000000D4 R
(1782315561.332129) can0 541#000010000008D35D R
(1782315561.332222) can0 12D#000000000000008B R
(1782315561.332310) can0 12D#00000000000000BE R
(1782315561.332398) can0 12E#000000000000C044 R
(1782315561.332486) can0 121#00A601CF04800038 R
(1782315561.338748) can0 129#0000000100000031 R
(1782315561.338884) can0 540#0000401100011200 R
(1782315561.338988) can0 5B0#10000000000000BF R
(1782315561.339089) can0 120#0000000000000035 R
(1782315561.339191) can0 541#000010000008D368 R
(1782315561.339290) can0 12D#00000000000000D4 R
(1782315561.356926) can0 12A#10010000000A0096 R
(1782315561.357067) can0 12D#0000000000000035 R
(1782315561.357178) can0 12E#000000000000C071 R
(1782315561.357286) can0 121#00A601CF04800052 R
(1782315561.357391) can0 129#000000010000005B R
(1782315561.357496) can0 120#000000000000005F R
(1782315561.372047) can0 541#000010000008D389 R
(1782315561.372305) can0 12D#000000000000005F R
(1782315561.372547) can0 450#0000000000002800 R
(1782315561.372788) can0 12D#000000000000006A R
(1782315561.373039) can0 12E#000000000000C090 R
(1782315561.373283) can0 121#00A601CF04800067 R
(1782315561.388912) can0 129#000000010000006E R
(1782315561.389174) can0 120#000000000000006A R
(1782315561.389419) can0 541#000010000008D3BC R
(1782315561.389661) can0 12D#000000000000008B R
(1782315561.389902) can0 12D#00000000000000BE R
(1782315561.390149) can0 12E#000000000000C0A5 R
(1782315561.397074) can0 12A#10010000000A00A3 R
(1782315561.397340) can0 5A0#00000000040000B0 R
(1782315561.397587) can0 121#00A601CF04800086 R
(1782315561.397829) can0 129#000000010000008F R
(1782315561.398154) can0 120#000000000000008B R
(1782315561.411922) can0 541#000010000008D3D6 R
(1782315561.412186) can0 12D#00000000000000D4 R
(1782315561.412427) can0 12D#0000000000000035 R
(1782315561.412671) can0 12E#000000000000C0CF R
(1782315561.412914) can0 450#0000000000002800 R
(1782315561.413155) can0 121#00A601CF048000B3 R
(1782315561.431730) can0 129#00000001000000BA R
(1782315561.431984) can0 120#00000000000000BE R
(1782315561.432227) can0 541#000010000008D337 R
(1782315561.432468) can0 12D#000000000000005F R
(1782315561.432709) can0 12D#000000000000006A R
(1782315561.432949) can0 12E#000000000000C02E R
(1782315561.438605) can0 121#00A601CF048000D9 R
(1782315561.438852) can0 129#00000001000000D0 R
(1782315561.439096) can0 540#0000401100011200 R
(1782315561.439339) can0 5B0#10000000000000D5 R
(1782315561.439580) can0 120#00000000000000D4 R
(1782315561.439821) can0 541#000010000008D35D R
(1782315561.453654) can0 12D#000000000000008B R
(1782315561.453918) can0 12A#10010000000A00C9 R
(1782315561.454170) can0 12D#00000000000000BE R
(1782315561.454419) can0 12E#000000000000C044 R
(1782315561.454668) can0 121#00A601CF04800038 R
(1782315561.454915) can0 129#0000000100000031 R
(1782315561.468796) can0 120#0000000000000035 R
(1782315561.469050) can0 541#000010000008D368 R
(1782315561.469300) can0 12D#00000000000000D4 R
(1782315561.469545) can0 450#0000000000002800 R
(1782315561.469789) can0 12D#0000000000000035 R
(1782315561.491535) can0 12E#000000000000C071 R
(1782315561.491685) can0 121#00A601CF04800052 R
(1782315561.491794) can0 129#000000010000005B R
(1782315561.491901) can0 120#000000000000005F R
(1782315561.497360) can0 541#000010000008D389 R
(1782315561.497467) can0 12D#000000000000005F R
(1782315561.497569) can0 12D#000000000000006A R
(1782315561.497723) can0 12E#000000000000C090 R
(1782315561.497801) can0 12A#10010000000A0028 R
(1782315561.497874) can0 5A0#00000000040000DA R
(1782315561.497941) can0 121#00A601CF04800067 R
(1782315561.498008) can0 129#000000010000006E R
(1782315561.511731) can0 120#000000000000006A R
(1782315561.511813) can0 541#000010000008D3BC R
(1782315561.511888) can0 12D#000000000000008B R
(1782315561.511964) can0 12D#00000000000000BE R
(1782315561.512038) can0 12E#000000000000C0A5 R
(1782315561.512113) can0 450#0000000000002800 R
(1782315561.528645) can0 121#00A601CF04800086 R
(1782315561.528731) can0 129#000000010000008F R
(1782315561.528809) can0 120#000000000000008B R
(1782315561.528886) can0 541#000010000008D3D6 R
(1782315561.528963) can0 12D#00000000000000D4 R
(1782315561.529039) can0 12D#0000000000000035 R
(1782315561.533608) can0 12E#000000000000C0CF R
(1782315561.533691) can0 121#00A601CF048000B3 R
(1782315561.533769) can0 129#00000001000000BA R
(1782315561.533849) can0 540#0000401100011200 R
(1782315561.533924) can0 5B0#1000000000000034 R
(1782315561.533999) can0 120#00000000000000BE R
(1782315561.551776) can0 541#000010000008D337 R
(1782315561.551876) can0 12D#000000000000005F R
(1782315561.551967) can0 12A#10010000000A0042 R
(1782315561.552056) can0 12D#000000000000006A R
(1782315561.552143) can0 12E#000000000000C02E R
(1782315561.568343) can0 121#00A601CF048000D9 R
(1782315561.568469) can0 129#00000001000000D0 R
(1782315561.568575) can0 120#00000000000000D4 R
(1782315561.568680) can0 541#000010000008D35D R
(1782315561.568784) can0 12D#000000000000008B R
(1782315561.568888) can0 450#0000000000002800 R
(1782315561.578551) can0 12D#00000000000000BE R
(1782315561.578663) can0 12E#000000000000C044 R
(1782315561.578768) can0 121#00A601CF04800038 R
(1782315561.578871) can0 129#0000000100000031 R
(1782315561.578976) can0 120#0000000000000035 R
(1782315561.579079) can0 541#000010000008D368 R
(1782315561.592062) can0 12D#00000000000000D4 R
(1782315561.592231) can0 12D#0000000000000035 R
(1782315561.592343) can0 12E#000000000000C071 R
(1782315561.592453) can0 12A#10010000000A0077 R
(1782315561.592563) can0 5A0#000000000400003B R
(1782315561.592673) can0 121#00A601CF04800052 R
(1782315561.609649) can0 129#000000010000005B R
(1782315561.609842) can0 120#000000000000005F R
(1782315561.610024) can0 541#000010000008D389 R
(1782315561.610206) can0 12D#000000000000005F R
(1782315561.610388) can0 12D#000000000000006A R
(1782315561.610576) can0 12E#000000000000C090 R
(1782315561.620614) can0 450#0000000000002800 R
(1782315561.620733) can0 121#00A601CF04800067 R
(1782315561.620847) can0 129#000000010000006E R
(1782315561.620967) can0 120#000000000000006A R
(1782315561.621075) can0 541#000010000008D3BC R
(1782315561.632412) can0 12D#000000000000008B R
(1782315561.632613) can0 12D#00000000000000BE R
(1782315561.632797) can0 12E#000000000000C0A5 R
(1782315561.632978) can0 121#00A601CF04800086 R
(1782315561.633158) can0 129#000000010000008F R
(1782315561.633340) can0 540#0000401100011200 R
(1782315561.648569) can0 5B0#100000000000005E R
(1782315561.648834) can0 120#000000000000008B R
(1782315561.649078) can0 541#000010000008D3D6 R
(1782315561.649324) can0 12D#00000000000000D4 R
(1782315561.649567) can0 12A#10010000000A0096 R
(1782315561.649814) can0 12D#0000000000000035 R
(1782315561.659702) can0 12E#000000000000C0CF R
(1782315561.659842) can0 121#00A601CF048000B3 R
(1782315561.659964) can0 129#00000001000000BA R
(1782315561.660082) can0 120#00000000000000BE R
(1782315561.660224) can0 541#000010000008D337 R
(1782315561.660386) can0 12D#000000000000005F R
(1782315561.676984) can0 450#0000000000002800 R
(1782315561.677256) can0 12D#000000000000006A R
(1782315561.677503) can0 12E#000000000000C02E R
(1782315561.677750) can0 121#00A601CF048000D9 R
(1782315561.677992) can0 129#00000001000000D0 R
(1782315561.678234) can0 120#00000000000000D4 R
(1782315561.689290) can0 541#000010000008D455 R
(1782315561.689535) can0 12D#000000000000008B R
(1782315561.689779) can0 12D#00000000000000BE R
(1782315561.690022) can0 12E#000000000000C044 R
(1782315561.690264) can0 12A#10010000000A00A3 R
(1782315561.690507) can0 5A0#0000000004000051 R
(1782315561.708512) can0 121#00A601CF04800038 R
(1782315561.708768) can0 129#0000000100000031 R
(1782315561.709010) can0 120#0000000000000035 R
(1782315561.709257) can0 541#000010000008D460 R
(1782315561.709499) can0 12D#00000000000000D4 R
(1782315561.716845) can0 12D#0000000000000035 R
(1782315561.721230) can0 12E#000000000000C071 R
(1782315561.721335) can0 450#0000000000002800 R
(1782315561.721436) can0 121#00A601CF04800052 R
(1782315561.721556) can0 129#000000010000005B R
(1782315561.721655) can0 120#000000000000005F R
(1782315561.732285) can0 541#000010000008D481 R
(1782315561.732434) can0 12D#000000000000005F R
(1782315561.732528) can0 12D#000000000000006A R
(1782315561.732616) can0 12E#000000000000C090 R
(1782315561.732705) can0 121#00A601CF04800067 R
(1782315561.732791) can0 129#000000010000006E R
(1782315561.748411) can0 540#0000401100011200 R
(1782315561.748501) can0 5B0#100000000000006B R
(1782315561.748577) can0 120#000000000000006A R
(1782315561.748652) can0 541#000010000008D4B4 R
(1782315561.748725) can0 12D#000000000000008B R
(1782315561.748799) can0 12A#10010000000A00C9 R
(1782315561.758540) can0 12D#00000000000000BE R
(1782315561.758624) can0 12E#000000000000C0A5 R
(1782315561.758699) can0 121#00A601CF04800086 R
(1782315561.758774) can0 129#000000010000008F R
(1782315561.758848) can0 120#000000000000008B R
(1782315561.758922) can0 541#000010000008D4DE R
(1782315561.772012) can0 12D#00000000000000D4 R
(1782315561.772120) can0 450#0000000000002800 R
(1782315561.772206) can0 12D#0000000000000035 R
(1782315561.772291) can0 12E#000000000000C0CF R
(1782315561.772376) can0 121#00A601CF048000B3 R
(1782315561.788893) can0 129#00000001000000BA R
(1782315561.789014) can0 120#00000000000000BE R
(1782315561.789103) can0 541#000010000008D43F R
(1782315561.789189) can0 12D#000000000000005F R
(1782315561.789274) can0 12D#000000000000006A R
(1782315561.789359) can0 12E#000000000000C02E R
(1782315561.798524) can0 12A#10010000000A0028 R
(1782315561.798616) can0 5A0#0000000004000064 R
(1782315561.798702) can0 121#00A601CF048000D9 R
(1782315561.798789) can0 129#00000001000000D0 R
(1782315561.798875) can0 120#00000000000000D4 R
(1782315561.798962) can0 541#000010000008D455 R
(1782315561.813451) can0 12D#000000000000008B R
(1782315561.813558) can0 12D#00000000000000BE R
(1782315561.813661) can0 12E#000000000000C044 R
(1782315561.813763) can0 450#0000000000002800 R
(1782315561.813865) can0 121#00A601CF04800038 R
(1782315561.813967) can0 129#0000000100000031 R
(1782315561.832042) can0 120#0000000000000035 R
(1782315561.832235) can0 541#000010000008D460 R
(1782315561.832356) can0 12D#00000000000000D4 R
(1782315561.832475) can0 12D#0000000000000035 R
(1782315561.832595) can0 12E#000000000000C071 R
(1782315561.832726) can0 121#00A601CF04800052 R
(1782315561.838575) can0 129#000000010000005B R
(1782315561.838726) can0 540#0000401100011200 R
(1782315561.838869) can0 5B0#100000000000008A R
(1782315561.839010) can0 120#000000000000005F R
(1782315561.839154) can0 541#000010000008D481 R
(1782315561.839294) can0 12D#000000000000005F R
(1782315561.854448) can0 12A#10010000000A0042 R
(1782315561.854553) can0 12D#000000000000006A R
(1782315561.854648) can0 12E#000000000000C090 R
(1782315561.854742) can0 121#00A601CF04800067 R
(1782315561.854836) can0 129#000000010000006E R
(1782315561.871992) can0 120#000000000000006A R
(1782315561.872152) can0 541#000010000008D4B4 R
(1782315561.872265) can0 12D#000000000000008B R
(1782315561.872370) can0 450#0000000000002800 R
(1782315561.872472) can0 12D#00000000000000BE R
(1782315561.872581) can0 12E#000000000000C0A5 R
(1782315561.888677) can0 121#00A601CF04800086 R
(1782315561.888809) can0 129#000000010000008F R
(1782315561.888916) can0 120#000000000000008B R
(1782315561.889021) can0 541#000010000008D4DE R
(1782315561.889125) can0 12D#00000000000000D4 R
(1782315561.889228) can0 12D#0000000000000035 R
(1782315561.896900) can0 12E#000000000000C0CF R
(1782315561.897042) can0 12A#10010000000A0077 R
(1782315561.897177) can0 5A0#0000000004000085 R
(1782315561.897312) can0 121#00A601CF048000B3 R
(1782315561.897448) can0 129#00000001000000BA R
(1782315561.897595) can0 120#00000000000000BE R
(1782315561.912092) can0 541#000010000008D43F R
(1782315561.912345) can0 12D#000000000000005F R
(1782315561.912583) can0 12D#000000000000006A R
(1782315561.912825) can0 12E#000000000000C02E R
(1782315561.913064) can0 450#0000000000002800 R
(1782315561.913302) can0 121#00A601CF048000D9 R
(1782315561.928753) can0 129#00000001000000D0 R
(1782315561.929011) can0 120#00000000000000D4 R
(1782315561.929258) can0 541#000010000008D455 R
(1782315561.929501) can0 12D#000000000000008B R
(1782315561.929743) can0 12D#00000000000000BE R
(1782315561.936831) can0 12E#000000000000C044 R
(1782315561.937086) can0 121#00A601CF04800038 R
(1782315561.937329) can0 129#0000000100000031 R
(1782315561.937568) can0 540#0000401100011200 R
(1782315561.937811) can0 5B0#10000000000000BF R
(1782315561.938048) can0 120#0000000000000035 R
(1782315561.953965) can0 541#000010000008D460 R
(1782315561.954071) can0 12D#00000000000000D4 R
(1782315561.954171) can0 12A#10010000000A0096 R
(1782315561.954269) can0 12D#0000000000000035 R
(1782315561.954367) can0 12E#000000000000C071 R
(1782315561.954464) can0 121#00A601CF04800052 R
(1782315561.968592) can0 129#000000010000005B R
(1782315561.968695) can0 120#000000000000005F R
(1782315561.968793) can0 541#000010000008D481 R
(1782315561.968891) can0 12D#000000000000005F R
(1782315561.968989) can0 450#0000000000002800 R
(1782315561.969087) can0 12D#000000000000006A R
(1782315561.990063) can0 12E#000000000000C090 R
(1782315561.996669) can0 121#00A601CF04800067 R
(1782315561.996853) can0 129#000000010000006E R
(1782315561.996953) can0 120#000000000000006A R
(1782315561.997041) can0 541#000010000008D4B4 R
(1782315561.997127) can0 12D#000000000000008B R
(1782315561.997214) can0 12D#00000000000000BE R
(1782315561.997298) can0 12E#000000000000C0A5 R
(1782315561.997383) can0 12A#10010000000A00A3 R
(1782315561.997471) can0 5A0#00000000040000B0 R
(1782315561.997557) can0 121#00A601CF04800086 R
(1782315561.997709) can0 129#000000010000008F R
(1782315562.009618) can0 120#000000000000008B R
(1782315562.009716) can0 541#000010000008D4DE R
(1782315562.009803) can0 12D#00000000000000D4 R
(1782315562.009890) can0 12D#0000000000000035 R
(1782315562.009977) can0 12E#000000000000C0CF R
(1782315562.028325) can0 450#0000000000002800 R
(1782315562.028440) can0 121#00A601CF048000B3 R
(1782315562.028544) can0 129#00000001000000BA R
(1782315562.028647) can0 120#00000000000000BE R
(1782315562.028750) can0 541#000010000008D43F R
(1782315562.028857) can0 12D#000000000000005F R
(1782315562.033505) can0 12D#000000000000006A R
(1782315562.033636) can0 12E#000000000000C02E R
(1782315562.033742) can0 121#00A601CF048000D9 R
(1782315562.033850) can0 129#00000001000000D0 R
(1782315562.033953) can0 540#0000401100011200 R
(1782315562.034056) can0 5B0#10000000000000D5 R
(1782315562.051846) can0 120#00000000000000D4 R
(1782315562.051967) can0 541#000010000008D455 R
(1782315562.052075) can0 12D#000000000000008B R
(1782315562.052178) can0 12A#10010000000A00C9 R
(1782315562.052282) can0 12D#00000000000000BE R
(1782315562.052383) can0 12E#000000000000C044 R
(1782315562.068509) can0 121#00A601CF04800038 R
(1782315562.068718) can0 129#0000000100000031 R
(1782315562.068839) can0 120#0000000000000035 R
(1782315562.068958) can0 541#000010000008D460 R
(1782315562.069079) can0 12D#00000000000000D4 R
(1782315562.069198) can0 450#0000000000002800 R
(1782315562.076991) can0 12D#0000000000000035 R
(1782315562.077200) can0 12E#000000000000C071 R
(1782315562.077389) can0 121#00A601CF04800052 R
(1782315562.077570) can0 129#000000010000005B R
(1782315562.077749) can0 120#000000000000005F R
(1782315562.091809) can0 541#000010000008D481 R
(1782315562.091985) can0 12D#000000000000005F R
(1782315562.092129) can0 12D#000000000000006A R
(1782315562.092268) can0 12E#000000000000C090 R
(1782315562.092407) can0 12A#10010000000A0028 R
(1782315562.092546) can0 5A0#00000000040000DA R
(1782315562.108594) can0 121#00A601CF04800067 R
(1782315562.108851) can0 129#000000010000006E R
(1782315562.109095) can0 120#000000000000006A R
(1782315562.109335) can0 541#000010000008D4B4 R
(1782315562.109572) can0 12D#000000000000008B R
(1782315562.109811) can0 12D#00000000000000BE R
(1782315562.121414) can0 12E#000000000000C0A5 R
(1782315562.121541) can0 450#0000000000002800 R
(1782315562.121648) can0 121#00A601CF04800086 R
(1782315562.121759) can0 129#000000010000008F R
(1782315562.121866) can0 120#000000000000008B R
(1782315562.121970) can0 541#000010000008D4DE R
(1782315562.132502) can0 12D#00000000000000D4 R
(1782315562.132615) can0 12D#0000000000000035 R
(1782315562.132720) can0 12E#000000000000C0CF R
(1782315562.132825) can0 121#00A601CF048000B3 R
(1782315562.132930) can0 129#00000001000000BA R
(1782315562.133034) can0 540#0000401100011300 R
(1782315562.148423) can0 5B0#1000000000000034 R
(1782315562.148576) can0 120#00000000000000BE R
(1782315562.148695) can0 541#000010000008D43F R
(1782315562.148814) can0 12D#000000000000005F R
(1782315562.148932) can0 12A#10010000000A0042 R
(1782315562.149052) can0 12D#000000000000006A R
(1782315562.158583) can0 12E#000000000000C02E R
(1782315562.158717) can0 121#00A601CF048000D9 R
(1782315562.158834) can0 129#00000001000000D0 R
(1782315562.158950) can0 120#00000000000000D4 R
(1782315562.159065) can0 541#000010000008D455 R
(1782315562.173452) can0 12D#000000000000008B R
(1782315562.173723) can0 450#0000000000002800 R
(1782315562.173969) can0 12D#00000000000000BE R
(1782315562.174210) can0 12E#000000000000C044 R
(1782315562.174451) can0 121#00A601CF04800038 R
(1782315562.174692) can0 129#0000000100000031 R
(1782315562.189176) can0 120#0000000000000035 R
(1782315562.189326) can0 541#000010000008D460 R
(1782315562.189463) can0 12D#00000000000000D4 R
(1782315562.189599) can0 12D#0000000000000035 R
(1782315562.189739) can0 12E#000000000000C071 R
(1782315562.189876) can0 12A#10010000000A0077 R
(1782315562.208417) can0 5A0#000000000400003B R
(1782315562.208690) can0 121#00A601CF04800052 R
(1782315562.208938) can0 129#000000010000005B R
(1782315562.209180) can0 120#000000000000005F R
(1782315562.209421) can0 541#000010000008D481 R
(1782315562.209660) can0 12D#000000000000005F R
(1782315562.216985) can0 12D#000000000000006A R
(1782315562.221033) can0 12E#000000000000C090 R
(1782315562.221177) can0 450#0000000000002800 R
(1782315562.221291) can0 121#00A601CF04800067 R
(1782315562.221400) can0 129#000000010000006E R
(1782315562.221508) can0 120#000000000000006A R
(1782315562.232311) can0 541#000010000008D4B4 R
(1782315562.232544) can0 12D#000000000000008B R
(1782315562.232707) can0 12D#00000000000000BE R
(1782315562.232865) can0 12E#000000000000C0A5 R
(1782315562.233094) can0 121#00A601CF04800086 R
(1782315562.239833) can0 129#000000010000008F R
(1782315562.246785) can0 540#0000401100011300 R
(1782315562.246899) can0 5B0#100000000000005E R
(1782315562.246991) can0 120#000000000000008B R
(1782315562.247079) can0 541#000010000008D4DE R
(1782315562.247164) can0 12D#00000000000000D4 R
(1782315562.256876) can0 12A#10050000000A0083 R
(1782315562.256973) can0 12D#0000000000000035 R
(1782315562.257059) can0 12E#000000000000C0CF R
(1782315562.257144) can0 121#00A601CF048000B3 R
(1782315562.257229) can0 129#00000001000000BA R
(1782315562.257313) can0 120#00000000000000BE R
(1782315562.271980) can0 541#000010000008D43F R
(1782315562.272090) can0 12D#000000000000005F R
(1782315562.272194) can0 450#0000000000002800 R
(1782315562.272297) can0 12D#000000000000006A R
(1782315562.272400) can0 12E#000000000000C02E R
(1782315562.272502) can0 121#00A601CF048000D9 R
(1782315562.290590) can0 129#00000001000000D0 R
(1782315562.290697) can0 120#00000000000000D4 R
(1782315562.290787) can0 541#000010000008D455 R
(1782315562.290873) can0 12D#000000000000008B R
(1782315562.290959) can0 12D#00000000000000BE R
(1782315562.291046) can0 12E#000000000000C044 R
(1782315562.296998) can0 12A#10050000000A00B6 R
(1782315562.297104) can0 5A0#0000000004000051 R
(1782315562.297205) can0 121#00A601CF04800038 R
(1782315562.297305) can0 129#0000000100000031 R
(1782315562.297407) can0 120#0000000000000035 R
(1782315562.297508) can0 541#000010000008D460 R
(1782315562.312159) can0 12D#00000000000000D4 R
(1782315562.312358) can0 12D#0000000000000035 R
(1782315562.312466) can0 12E#000000000000C071 R
(1782315562.312563) can0 450#0000000000002800 R
(1782315562.312663) can0 121#00A601CF04800052 R
(1782315562.331829) can0 129#000000010000005B R
(1782315562.332022) can0 120#000000000000005F R
(1782315562.332139) can0 541#000010000008D481 R
(1782315562.332247) can0 12D#000000000000005F R
(1782315562.332348) can0 12D#000000000000006A R
(1782315562.332449) can0 12E#000000000000C090 R
(1782315562.338498) can0 121#00A601CF04800067 R
(1782315562.338690) can0 129#000000010000006E R
(1782315562.338816) can0 540#0000401100011300 R
(1782315562.338927) can0 5B0#100000000000006B R
(1782315562.339033) can0 120#000000000000006A R
(1782315562.339138) can0 541#000010000008D4B4 R
(1782315562.353472) can0 12D#000000000000008B R
(1782315562.353637) can0 12A#10050000000A00DC R
(1782315562.353753) can0 12D#00000000000000BE R
(1782315562.353858) can0 12E#000000000000C0A5 R
(1782315562.353960) can0 121#00A601CF04800086 R
(1782315562.354062) can0 129#000000010000008F R
(1782315562.371806) can0 120#000000000000008B R
(1782315562.371962) can0 541#000010000008D4DE R
(1782315562.372077) can0 12D#00000000000000D4 R
(1782315562.372185) can0 450#0000000000002800 R
(1782315562.372291) can0 12D#0000000000000035 R
(1782315562.372397) can0 12E#000000000000C0CF R
(1782315562.388490) can0 121#00A601CF048000B3 R
(1782315562.388633) can0 129#00000001000000BA R
(1782315562.388742) can0 120#00000000000000BE R
(1782315562.388843) can0 541#000010000008D43F R
(1782315562.388951) can0 12D#000000000000005F R
(1782315562.393475) can0 12D#000000000000006A R
(1782315562.393839) can0 12E#000000000000C02E R
(1782315562.393960) can0 12A#10050000000A003D R
(1782315562.394067) can0 5A0#0000000004000064 R
(1782315562.394170) can0 121#00A601CF048000D9 R
(1782315562.394299) can0 129#00000001000000D0 R
(1782315562.411759) can0 120#00000000000000D4 R
(1782315562.411931) can0 541#000010000008D455 R
(1782315562.412039) can0 12D#000000000000008B R
(1782315562.412141) can0 12D#00000000000000BE R
(1782315562.412239) can0 12E#000000000000C044 R
(1782315562.412338) can0 450#0000000000002800 R
(1782315562.428665) can0 121#00A601CF04800038 R
(1782315562.428831) can0 129#0000000100000031 R
(1782315562.428945) can0 120#0000000000000035 R
(1782315562.429052) can0 541#000010000008D460 R
(1782315562.429156) can0 12D#00000000000000D4 R
(1782315562.429262) can0 12D#0000000000000035 R
(1782315562.436931) can0 12E#000000000000C071 R
(1782315562.437086) can0 121#00A601CF04800052 R
(1782315562.437198) can0 129#000000010000005B R
(1782315562.437301) can0 540#0000401100011300 R
(1782315562.437400) can0 5B0#100000000000008A R
(1782315562.437499) can0 120#000000000000005F R
(1782315562.453941) can0 541#000010000008D481 R
(1782315562.454074) can0 12D#000000000000005F R
(1782315562.454181) can0 12A#10050000000A0057 R
(1782315562.454283) can0 12D#000000000000006A R
(1782315562.454383) can0 12E#000000000000C090 R
(1782315562.454482) can0 121#00A601CF04800067 R
(1782315562.468502) can0 129#000000010000006E R
(1782315562.468657) can0 120#000000000000006A R
(1782315562.468768) can0 541#000010000008D4B4 R
(1782315562.468873) can0 12D#000000000000008B R
(1782315562.468975) can0 450#0000000000002800 R
(1782315562.478446) can0 12D#00000000000000BE R
(1782315562.478595) can0 12E#000000000000C0A5 R
(1782315562.478705) can0 121#00A601CF04800086 R
(1782315562.478808) can0 129#000000010000008F R
(1782315562.478915) can0 120#000000000000008B R
(1782315562.479014) can0 541#000010000008D4DE R
(1782315562.499725) can0 12D#00000000000000D4 R
(1782315562.501394) can0 12D#0000000000000035 R
(1782315562.501576) can0 12E#000000000000C0CF R
(1782315562.501672) can0 12A#10050000000A0062 R
(1782315562.501758) can0 5A0#0000000004000085 R
(1782315562.501844) can0 121#00A601CF048000B3 R
(1782315562.509561) can0 129#00000001000000BA R
(1782315562.509650) can0 120#00000000000000BE R
(1782315562.509735) can0 541#000010000008D43F R
(1782315562.509820) can0 12D#000000000000005F R
(1782315562.509904) can0 12D#000000000000006A R
(1782315562.509988) can0 12E#000000000000C02E R
(1782315562.528355) can0 450#0000000000002800 R
(1782315562.528467) can0 121#00A601CF048000D9 R
(1782315562.528570) can0 129#00000001000000D0 R
(1782315562.528674) can0 120#00000000000000D4 R
(1782315562.528775) can0 541#000010000008D455 R
(1782315562.528877) can0 12D#000000000000008B R
(1782315562.532570) can0 12D#00000000000000BE R
(1782315562.532676) can0 12E#000000000000C044 R
(1782315562.532789) can0 121#00A601CF04800038 R
(1782315562.532891) can0 129#0000000100000031 R
(1782315562.532993) can0 540#0000401100011300 R
(1782315562.548553) can0 5B0#10000000000000BF R
(1782315562.548642) can0 120#0000000000000035 R
(1782315562.548725) can0 541#000010000008D460 R
(1782315562.548816) can0 12D#00000000000000D4 R
(1782315562.548917) can0 12A#10050000000A0083 R
(1782315562.549018) can0 12D#0000000000000035 R
(1782315562.559843) can0 12E#000000000000C071 R
(1782315562.560058) can0 121#00A601CF04800052 R
(1782315562.560183) can0 129#000000010000005B R
(1782315562.560302) can0 120#000000000000005F R
(1782315562.560417) can0 541#000010000008D481 R
(1782315562.560528) can0 12D#000000000000005F R
(1782315562.577030) can0 450#0000000000002800 R
(1782315562.577293) can0 12D#000000000000006A R
(1782315562.577496) can0 12E#000000000000C090 R
(1782315562.577661) can0 121#00A601CF04800067 R
(1782315562.577788) can0 129#000000010000006E R
(1782315562.577919) can0 120#000000000000006A R
(1782315562.591893) can0 541#000010000008D4B4 R
(1782315562.592054) can0 12D#000000000000008B R
(1782315562.592182) can0 12D#00000000000000BE R
(1782315562.592302) can0 12E#000000000000C0A5 R
(1782315562.592423) can0 12A#10050000000A00B6 R
(1782315562.592544) can0 5A0#00000000040000B0 R
(1782315562.608534) can0 121#00A601CF04800086 R
(1782315562.608838) can0 129#000000010000008F R
(1782315562.609094) can0 120#000000000000008B R
(1782315562.609342) can0 541#000010000008D4DE R
(1782315562.609585) can0 12D#00000000000000D4 R
(1782315562.609824) can0 12D#0000000000000035 R
(1782315562.617224) can0 12E#000000000000C0CF R
(1782315562.622322) can0 450#0000000000002800 R
(1782315562.622431) can0 121#00A601CF048000B3 R
(1782315562.622531) can0 129#00000001000000BA R
(1782315562.622630) can0 120#00000000000000BE R
(1782315562.632503) can0 541#000010000008D43F R
(1782315562.632637) can0 12D#000000000000005F R
(1782315562.632730) can0 12D#000000000000006A R
(1782315562.632816) can0 12E#000000000000C02E R
(1782315562.632903) can0 121#00A601CF048000D9 R
(1782315562.632987) can0 129#00000001000000D0 R
(1782315562.648382) can0 540#0000401100011300 R
(1782315562.648474) can0 5B0#10000000000000D5 R
(1782315562.648559) can0 120#00000000000000D4 R
(1782315562.648641) can0 541#000010000008D455 R
(1782315562.648725) can0 12D#000000000000008B R
(1782315562.648810) can0 12A#10050000000A00DC R
(1782315562.658524) can0 12D#00000000000000BE R
(1782315562.658640) can0 12E#000000000000C044 R
(1782315562.658745) can0 121#00A601CF04800038 R
(1782315562.658846) can0 129#0000000100000031 R
(1782315562.658947) can0 120#0000000000000035 R
(1782315562.659046) can0 541#000010000008D460 R
(1782315562.673706) can0 12D#00000000000000D4 R
(1782315562.673916) can0 450#0000000000002800 R
(1782315562.674029) can0 12D#0000000000000035 R
(1782315562.674141) can0 12E#000000000000C071 R
(1782315562.674249) can0 121#00A601CF04800052 R
(1782315562.674359) can0 129#000000010000005B R
(1782315562.688994) can0 120#000000000000005F R
(1782315562.689135) can0 541#000010000008D597 R
(1782315562.689255) can0 12D#000000000000005F R
(1782315562.689377) can0 12D#000000000000006A R
(1782315562.689495) can0 12E#000000000000C090 R
(1782315562.698471) can0 12A#10050000000A003D R
(1782315562.698768) can0 5A0#00000000040000DA R
(1782315562.699022) can0 121#00A601CF04800067 R
(1782315562.699273) can0 129#000000010000006E R
(1782315562.699583) can0 120#000000000000006A R
(1782315562.699854) can0 541#000010000008D5A2 R
(1782315562.713474) can0 12D#000000000000008B R
(1782315562.713730) can0 12D#00000000000000BE R
(1782315562.713976) can0 12E#000000000000C0A5 R
(1782315562.714216) can0 450#0000000000002800 R
(1782315562.714461) can0 121#00A601CF04800086 R
(1782315562.714706) can0 129#000000010000008F R
(1782315562.732082) can0 120#000000000000008B R
(1782315562.732359) can0 541#000010000008D5C8 R
(1782315562.732602) can0 12D#00000000000000D4 R
(1782315562.732876) can0 12D#0000000000000035 R
(1782315562.733128) can0 12E#000000000000C0CF R
(1782315562.733371) can0 121#00A601CF048000B3 R
(1782315562.740016) can0 129#00000001000000BA R
(1782315562.746691) can0 540#0000401100011300 R
(1782315562.746827) can0 5B0#1000000000000034 R
(1782315562.746938) can0 120#00000000000000BE R
(1782315562.747096) can0 541#000010000008D529 R
(1782315562.747179) can0 12D#000000000000005F R
(1782315562.753535) can0 12A#10050000000A0057 R
(1782315562.753619) can0 12D#000000000000006A R
(1782315562.753696) can0 12E#000000000000C02E R
(1782315562.753771) can0 121#00A601CF048000D9 R
(1782315562.753846) can0 129#00000001000000D0 R
(1782315562.753921) can0 120#00000000000000D4 R
(1782315562.771831) can0 541#000010000008D543 R
(1782315562.771922) can0 12D#000000000000008B R
(1782315562.772007) can0 450#0000000000002800 R
(1782315562.772092) can0 12D#00000000000000BE R
(1782315562.772178) can0 12E#000000000000C044 R
(1782315562.788636) can0 121#00A601CF04800038 R
(1782315562.788734) can0 129#0000000100000031 R
(1782315562.788822) can0 120#0000000000000035 R
(1782315562.788907) can0 541#000010000008D576 R
(1782315562.788994) can0 12D#00000000000000D4 R
(1782315562.789079) can0 12D#0000000000000035 R
(1782315562.796825) can0 12E#000000000000C071 R
(1782315562.796925) can0 12A#10050000000A0062 R
(1782315562.797012) can0 5A0#000000000400003B R
(1782315562.797099) can0 121#00A601CF04800052 R
(1782315562.797184) can0 129#000000010000005B R
(1782315562.797272) can0 120#000000000000005F R
(1782315562.812059) can0 541#000010000008D597 R
(1782315562.812165) can0 12D#000000000000005F R
(1782315562.812268) can0 12D#000000000000006A R
(1782315562.812370) can0 12E#000000000000C090 R
(1782315562.812474) can0 450#0000000000002800 R
(1782315562.812575) can0 121#00A601CF04800067 R
(1782315562.831883) can0 129#000000010000006E R
(1782315562.832076) can0 120#000000000000006A R
(1782315562.832194) can0 541#000010000008D5A2 R
(1782315562.832304) can0 12D#000000000000008B R
(1782315562.832415) can0 12D#00000000000000BE R
(1782315562.832526) can0 12E#000000000000C0A5 R
(1782315562.836948) can0 121#00A601CF04800086 R
(1782315562.837079) can0 129#000000010000008F R
(1782315562.837202) can0 540#0000401100011300 R
(1782315562.837340) can0 5B0#100000000000005E R
(1782315562.837470) can0 120#000000000000008B R
(1782315562.854253) can0 541#000010000008D5C8 R
(1782315562.854495) can0 12D#00000000000000D4 R
(1782315562.854606) can0 12A#10050000000A0083 R
(1782315562.854705) can0 12D#0000000000000035 R
(1782315562.854801) can0 12E#000000000000C0CF R
(1782315562.854896) can0 121#00A601CF048000B3 R
(1782315562.868598) can0 129#00000001000000BA R
(1782315562.868730) can0 120#00000000000000BE R
(1782315562.868823) can0 541#000010000008D529 R
(1782315562.868914) can0 12D#000000000000005F R
(1782315562.869000) can0 450#0000000000002800 R
(1782315562.869086) can0 12D#000000000000006A R
(1782315562.888456) can0 12E#000000000000C02E R
(1782315562.888595) can0 121#00A601CF048000D9 R
(1782315562.888697) can0 129#00000001000000D0 R
(1782315562.888801) can0 120#00000000000000D4 R
(1782315562.888901) can0 541#000010000008D543 R
(1782315562.888999) can0 12D#000000000000008B R
(1782315562.893760) can0 12D#00000000000000BE R
(1782315562.893871) can0 12E#000000000000C044 R
(1782315562.893980) can0 12A#10050000000A00B6 R
(1782315562.894091) can0 5A0#0000000004000051 R
(1782315562.894200) can0 121#00A601CF04800038 R
(1782315562.894308) can0 129#0000000100000031 R
(1782315562.909647) can0 120#0000000000000035 R
(1782315562.909839) can0 541#000010000008D576 R
(1782315562.910021) can0 12D#00000000000000D4 R
(1782315562.910205) can0 12D#0000000000000035 R
(1782315562.910391) can0 12E#000000000000C071 R
(1782315562.910568) can0 450#0000000000002800 R
(1782315562.928418) can0 121#00A601CF04800052 R
(1782315562.928570) can0 129#000000010000005B R
(1782315562.928711) can0 120#000000000000005F R
(1782315562.928851) can0 541#000010000008D597 R
(1782315562.928990) can0 12D#000000000000005F R
(1782315562.933517) can0 12D#000000000000006A R
(1782315562.933710) can0 12E#000000000000C090 R
(1782315562.933889) can0 121#00A601CF04800067 R
(1782315562.934066) can0 129#000000010000006E R
(1782315562.934245) can0 540#0000401100011300 R
(1782315562.934474) can0 5B0#100000000000006B R
(1782315562.948312) can0 120#000000000000006A R
(1782315562.948568) can0 541#000010000008D5A2 R
(1782315562.948813) can0 12D#000000000000008B R
(1782315562.949057) can0 12A#10050000000A00DC R
(1782315562.957035) can0 12D#00000000000000BE R
(1782315562.957291) can0 12E#000000000000C0A5 R
(1782315562.957535) can0 121#00A601CF04800086 R
(1782315562.957777) can0 129#000000010000008F R
(1782315562.958018) can0 120#000000000000008B R
(1782315562.972011) can0 541#000010000008D5C8 R
(1782315562.972331) can0 12D#00000000000000D4 R
(1782315562.972598) can0 450#0000000000002800 R
(1782315562.972851) can0 12D#0000000000000035 R
(1782315562.973096) can0 12E#000000000000C0CF R
(1782315562.973343) can0 121#00A601CF048000B3 R
(1782315562.989258) can0 129#00000001000000BA R
(1782315562.993663) can0 120#00000000000000BE R
(1782315563.002616) can0 541#000010000008D529 R
(1782315563.002807) can0 12D#000000000000005F R
(1782315563.002908) can0 12D#000000000000006A R
(1782315563.003047) can0 12E#000000000000C02E R
(1782315563.003137) can0 12A#10050000000A003D R
(1782315563.003224) can0 5A0#0000000004000064 R
(1782315563.003310) can0 121#00A601CF048000D9 R
(1782315563.003397) can0 129#00000001000000D0 R
(1782315563.003482) can0 120#00000000000000D4 R
(1782315563.003569) can0 541#000010000008D543 R
(1782315563.013723) can0 12D#000000000000008B R
(1782315563.013813) can0 12D#00000000000000BE R
(1782315563.013899) can0 12E#000000000000C044 R
(1782315563.013985) can0 450#0000000000002800 R
(1782315563.014071) can0 121#00A601CF04800038 R
(1782315563.014158) can0 129#0000000100000031 R
(1782315563.031900) can0 120#0000000000000035 R
(1782315563.032012) can0 541#000010000008D576 R
(1782315563.032116) can0 12D#00000000000000D4 R
(1782315563.032221) can0 12D#0000000000000035 R
(1782315563.032325) can0 12E#000000000000C071 R
(1782315563.038444) can0 121#00A601CF04800052 R
(1782315563.038555) can0 129#000000010000005B R
(1782315563.038661) can0 540#0000401100011300 R
(1782315563.038766) can0 5B0#100000000000008A R
(1782315563.038871) can0 120#000000000000005F R
(1782315563.038976) can0 541#000010000008D597 R
(1782315563.053591) can0 12D#000000000000005F R
(1782315563.053702) can0 12A#10050000000A0057 R
(1782315563.053806) can0 12D#000000000000006A R
(1782315563.053912) can0 12E#000000000000C090 R
(1782315563.054021) can0 121#00A601CF04800067 R
(1782315563.054127) can0 129#000000010000006E R
(1782315563.071879) can0 120#000000000000006A R
(1782315563.072117) can0 541#000010000008D5A2 R
(1782315563.072273) can0 12D#000000000000008B R
(1782315563.072415) can0 450#0000000000002800 R
(1782315563.072562) can0 12D#00000000000000BE R
(1782315563.072703) can0 12E#000000000000C0A5 R
(1782315563.088655) can0 121#00A601CF04800086 R
(1782315563.088809) can0 129#000000010000008F R
(1782315563.088923) can0 120#000000000000008B R
(1782315563.089032) can0 541#000010000008D5C8 R
(1782315563.089139) can0 12D#00000000000000D4 R
(1782315563.089246) can0 12D#0000000000000035 R
(1782315563.096938) can0 12E#000000000000C0CF R
(1782315563.097106) can0 12A#10050000000A0062 R
(1782315563.097251) can0 5A0#0000000004000085 R
(1782315563.097390) can0 121#00A601CF048000B3 R
(1782315563.097529) can0 129#00000001000000BA R
(1782315563.097668) can0 120#00000000000000BE R
(1782315563.111850) can0 541#000010000008D529 R
(1782315563.111997) can0 12D#000000000000005F R
(1782315563.112098) can0 12D#000000000000006A R
(1782315563.112197) can0 12E#000000000000C02E R
(1782315563.112306) can0 450#0000000000002800 R
(1782315563.128547) can0 121#00A601CF048000D9 R
(1782315563.128688) can0 129#00000001000000D0 R
(1782315563.128788) can0 120#00000000000000D4 R
(1782315563.128899) can0 541#000010000008D543 R
(1782315563.128997) can0 12D#000000000000008B R
(1782315563.129096) can0 12D#00000000000000BE R
(1782315563.136854) can0 12E#000000000000C044 R
(1782315563.136983) can0 121#00A601CF04800038 R
(1782315563.137086) can0 129#0000000100000031 R
(1782315563.137197) can0 540#0000401100011300 R
(1782315563.137299) can0 5B0#10000000000000BF R
(1782315563.137401) can0 120#0000000000000035 R
(1782315563.152527) can0 541#000010000008D576 R
(1782315563.152706) can0 12D#00000000000000D4 R
(1782315563.152855) can0 12A#10050000000A0083 R
(1782315563.153000) can0 12D#0000000000000035 R
(1782315563.153145) can0 12E#000000000000C071 R
(1782315563.153292) can0 121#00A601CF04800052 R
(1782315563.168820) can0 129#000000010000005B R
(1782315563.169134) can0 120#000000000000005F R
(1782315563.169391) can0 541#000010000008D597 R
(1782315563.169636) can0 12D#000000000000005F R
(1782315563.169880) can0 450#0000000000002800 R
(1782315563.170126) can0 12D#000000000000006A R
(1782315563.178565) can0 12E#000000000000C090 R
(1782315563.178771) can0 121#00A601CF04800067 R
(1782315563.179001) can0 129#000000010000006E R
(1782315563.179205) can0 120#000000000000006A R
(1782315563.179390) can0 541#000010000008D5A2 R
(1782315563.192032) can0 12D#000000000000008B R
(1782315563.192185) can0 12D#00000000000000BE R
(1782315563.192308) can0 12E#000000000000C0A5 R
(1782315563.192428) can0 12A#10050000000A00B6 R
(1782315563.192547) can0 5A0#00000000040000B0 R
(1782315563.192666) can0 121#00A601CF04800086 R
(1782315563.209589) can0 129#000000010000008F R
(1782315563.209870) can0 120#000000000000008B R
(1782315563.210120) can0 541#000010000008D5C8 R
(1782315563.210367) can0 12D#00000000000000D4 R
(1782315563.210611) can0 12D#0000000000000035 R
(1782315563.210857) can0 12E#000000000000C0CF R
(1782315563.228376) can0 450#0000000000002800 R
(1782315563.228603) can0 121#00A601CF048000B3 R
(1782315563.228714) can0 129#00000001000000BA R
(1782315563.228814) can0 120#00000000000000BE R
(1782315563.228912) can0 541#000010000008D529 R
(1782315563.229009) can0 12D#000000000000005F R
(1782315563.233841) can0 12D#000000000000006A R
(1782315563.242525) can0 12E#000000000000C02E R
(1782315563.251793) can0 121#00A601CF048000D9 R
(1782315563.253311) can0 129#00000001000000D0 R
(1782315563.253420) can0 540#0000401100011300 R
(1782315563.253513) can0 5B0#10000000000000D5 R
(1782315563.253601) can0 120#00000000000000D4 R
(1782315563.253688) can0 541#000010000008D543 R
(1782315563.253779) can0 12D#000000000000008B R
(1782315563.253868) can0 12A#10050000000A00DC R
(1782315563.254001) can0 12D#00000000000000BE R
(1782315563.254112) can0 12E#000000000000C044 R
(1782315563.259719) can0 121#00A601CF04800038 R
(1782315563.259814) can0 129#0000000100000031 R
(1782315563.259901) can0 120#0000000000000035 R
(1782315563.259987) can0 541#000010000008D576 R
(1782315563.260071) can0 12D#00000000000000D4 R
(1782315563.276838) can0 450#0000000000002800 R
(1782315563.276949) can0 12D#0000000000000035 R
(1782315563.277035) can0 12E#000000000000C071 R
(1782315563.277119) can0 121#00A601CF04800052 R
(1782315563.277204) can0 129#000000010000005B R
(1782315563.277288) can0 120#000000000000005F R
(1782315563.291808) can0 541#000010000008D597 R
(1782315563.291915) can0 12D#000000000000005F R
(1782315563.292020) can0 12D#000000000000006A R
(1782315563.292121) can0 12E#000000000000C090 R
(1782315563.292222) can0 12A#10050000000A003D R
(1782315563.292325) can0 5A0#00000000040000DA R
(1782315563.308713) can0 121#00A601CF04800067 R
(1782315563.308928) can0 129#000000010000006E R
(1782315563.309057) can0 120#000000000000006A R
(1782315563.309180) can0 541#000010000008D5A2 R
(1782315563.309303) can0 12D#000000000000008B R
(1782315563.309426) can0 12D#00000000000000BE R
(1782315563.321032) can0 12E#000000000000C0A5 R
(1782315563.321272) can0 450#0000000000002800 R
(1782315563.321409) can0 121#00A601CF04800086 R
(1782315563.321531) can0 129#000000010000008F R
(1782315563.321651) can0 120#000000000000008B R
(1782315563.321769) can0 541#000010000008D5C8 R
(1782315563.332396) can0 12D#00000000000000D4 R
(1782315563.332599) can0 12D#0000000000000035 R
(1782315563.332784) can0 12E#000000000000C0CF R
(1782315563.332962) can0 121#00A601CF048000B3 R
(1782315563.333140) can0 129#00000001000000BA R
(1782315563.348262) can0 540#0000401100011300 R
(1782315563.348545) can0 5B0#1000000000000034 R
(1782315563.348797) can0 120#00000000000000BE R
(1782315563.349044) can0 541#000010000008D529 R
(1782315563.349343) can0 12D#000000000000005F R
(1782315563.349591) can0 12A#10050000000A0057 R
(1782315563.358501) can0 12D#000000000000006A R
(1782315563.358644) can0 12E#000000000000C02E R
(1782315563.358737) can0 121#00A601CF048000D9 R
(1782315563.358826) can0 129#00000001000000D0 R
(1782315563.358915) can0 120#00000000000000D4 R
(1782315563.359003) can0 541#000010000008D543 R
(1782315563.373567) can0 12D#000000000000008B R
(1782315563.373683) can0 450#0000000000002800 R
(1782315563.373787) can0 12D#00000000000000BE R
(1782315563.373890) can0 12E#000000000000C044 R
(1782315563.373993) can0 121#00A601CF04800038 R
(1782315563.374095) can0 129#0000000100000031 R
(1782315563.389196) can0 120#0000000000000035 R
(1782315563.389306) can0 541#000010000008D576 R
(1782315563.389411) can0 12D#00000000000000D4 R
(1782315563.389513) can0 12D#0000000000000035 R
(1782315563.389617) can0 12E#000000000000C071 R
(1782315563.389720) can0 12A#10050000000A0062 R
(1782315563.408407) can0 5A0#000000000400003B R
(1782315563.408602) can0 121#00A601CF04800052 R
(1782315563.408747) can0 129#000000010000005B R
(1782315563.408889) can0 120#000000000000005F R
(1782315563.409031) can0 541#000010000008D597 R
(1782315563.409173) can0 12D#000000000000005F R
(1782315563.413601) can0 12D#000000000000006A R
(1782315563.413786) can0 12E#000000000000C090 R
(1782315563.413966) can0 450#0000000000002800 R
(1782315563.414145) can0 121#00A601CF04800067 R
(1782315563.414322) can0 129#000000010000006E R
(1782315563.432061) can0 120#000000000000006A R
(1782315563.432230) can0 541#000010000008D5A2 R
(1782315563.432375) can0 12D#000000000000008B R
(1782315563.432516) can0 12D#00000000000000BE R
(1782315563.432656) can0 12E#000000000000C0A5 R
(1782315563.432796) can0 121#00A601CF04800086 R
(1782315563.438641) can0 129#000000010000008F R
(1782315563.438920) can0 540#0000401100011300 R
(1782315563.439167) can0 5B0#100000000000005E R
(1782315563.439412) can0 120#000000000000008B R
(1782315563.439659) can0 541#000010000008D5C8 R
(1782315563.439903) can0 12D#00000000000000D4 R
(1782315563.456986) can0 12A#10050000000A0083 R
(1782315563.457267) can0 12D#0000000000000035 R
(1782315563.457518) can0 12E#000000000000C0CF R
(1782315563.457762) can0 121#00A601CF048000B3 R
(1782315563.458006) can0 129#00000001000000BA R
(1782315563.458249) can0 120#00000000000000BE R
(1782315563.472160) can0 541#000010000008D529 R
(1782315563.472439) can0 12D#000000000000005F R
(1782315563.472688) can0 450#0000000000002800 R
(1782315563.472931) can0 12D#000000000000006A R
(1782315563.473175) can0 12E#000000000000C02E R
(1782315563.473418) can0 121#00A601CF048000D9 R
(1782315563.491565) can0 129#00000001000000D0 R
(1782315563.498090) can0 120#00000000000000D4 R
(1782315563.498218) can0 541#000010000008D543 R
(1782315563.498326) can0 12D#000000000000008B R
(1782315563.498483) can0 12D#00000000000000BE R
(1782315563.498573) can0 12E#000000000000C044 R
(1782315563.498654) can0 12A#10050000000A00B6 R
(1782315563.498730) can0 5A0#0000000004000051 R
(1782315563.498805) can0 121#00A601CF04800038 R
(1782315563.498879) can0 129#0000000100000031 R
(1782315563.498954) can0 120#0000000000000035 R
(1782315563.512056) can0 541#000010000008D576 R
(1782315563.512149) can0 12D#00000000000000D4 R
(1782315563.512235) can0 12D#0000000000000035 R
(1782315563.512320) can0 12E#000000000000C071 R
(1782315563.512406) can0 450#0000000000002800 R
(1782315563.512492) can0 121#00A601CF04800052 R
(1782315563.531787) can0 129#000000010000005B R
(1782315563.531900) can0 120#000000000000005F R
(1782315563.531988) can0 541#000010000008D597 R
(1782315563.532075) can0 12D#000000000000005F R
(1782315563.532163) can0 12D#000000000000006A R
(1782315563.532251) can0 12E#000000000000C090 R
(1782315563.538415) can0 121#00A601CF04800067 R
(1782315563.538527) can0 129#000000010000006E R
(1782315563.538616) can0 540#0000401100011300 R
(1782315563.538704) can0 5B0#100000000000006B R
(1782315563.538791) can0 120#000000000000006A R
(1782315563.538879) can0 541#000010000008D5A2 R
(1782315563.553545) can0 12D#000000000000008B R
(1782315563.553642) can0 12A#10050000000A00DC R
(1782315563.553731) can0 12D#00000000000000BE R
(1782315563.553818) can0 12E#000000000000C0A5 R
(1782315563.553906) can0 121#00A601CF04800086 R
(1782315563.553994) can0 129#000000010000008F R
(1782315563.568570) can0 120#000000000000008B R
(1782315563.568677) can0 541#000010000008D5C8 R
(1782315563.568784) can0 12D#00000000000000D4 R
(1782315563.568892) can0 450#0000000000002800 R
(1782315563.568997) can0 12D#0000000000000035 R
(1782315563.588352) can0 12E#000000000000C0CF R
(1782315563.588465) can0 121#00A601CF048000B3 R
(1782315563.588571) can0 129#00000001000000BA R
(1782315563.588678) can0 120#00000000000000BE R
(1782315563.588804) can0 541#000010000008D529 R
(1782315563.588987) can0 12D#000000000000005F R
(1782315563.593636) can0 12D#000000000000006A R
(1782315563.593829) can0 12E#000000000000C02E R
(1782315563.593955) can0 12A#10050000000A003D R
(1782315563.594069) can0 5A0#0000000004000064 R
(1782315563.594181) can0 121#00A601CF048000D9 R
(1782315563.594299) can0 129#00000001000000D0 R
(1782315563.611945) can0 120#00000000000000D4 R
(1782315563.612201) can0 541#000010000008D543 R
(1782315563.612409) can0 12D#000000000000008B R
(1782315563.612605) can0 12D#00000000000000BE R
(1782315563.612796) can0 12E#000000000000C044 R
(1782315563.612982) can0 450#0000000000002800 R
(1782315563.628649) can0 121#00A601CF04800038 R
(1782315563.628816) can0 129#0000000100000031 R
(1782315563.628941) can0 120#0000000000000035 R
(1782315563.629062) can0 541#000010000008D576 R
(1782315563.629182) can0 12D#00000000000000D4 R
(1782315563.629303) can0 12D#0000000000000035 R
(1782315563.633712) can0 12E#000000000000C071 R
(1782315563.633876) can0 121#00A601CF04800052 R
(1782315563.634018) can0 129#000000010000005B R
(1782315563.634157) can0 540#0000401100011300 R
(1782315563.634298) can0 5B0#100000000000008A R
(1782315563.653744) can0 120#000000000000005F R
(1782315563.654016) can0 541#000010000008D597 R
(1782315563.654181) can0 12D#000000000000005F R
(1782315563.654331) can0 12A#10050000000A0057 R
(1782315563.654441) can0 12D#000000000000006A R
(1782315563.654554) can0 12E#000000000000C090 R
(1782315563.668320) can0 121#00A601CF04800067 R
(1782315563.668509) can0 129#000000010000006E R
(1782315563.668687) can0 120#000000000000006A R
(1782315563.668864) can0 541#000010000008D5A2 R
(1782315563.669078) can0 12D#000000000000008B R
(1782315563.669327) can0 450#0000000000002800 R
(1782315563.678482) can0 12D#00000000000000BE R
(1782315563.678735) can0 12E#000000000000C0A5 R
(1782315563.678978) can0 121#00A601CF04800086 R
(1782315563.679218) can0 129#000000010000008F R
(1782315563.679460) can0 120#000000000000008B R
(1782315563.679702) can0 541#000010000008D6C7 R
(1782315563.692225) can0 12D#00000000000000D4 R
(1782315563.692473) can0 12D#0000000000000035 R
(1782315563.692717) can0 12E#000000000000C0CF R
(1782315563.692959) can0 12A#10050000000A0062 R
(1782315563.693201) can0 5A0#0000000004000085 R
(1782315563.693444) can0 121#00A601CF048000B3 R
(1782315563.709658) can0 129#00000001000000BA R
(1782315563.709911) can0 120#00000000000000BE R
(1782315563.710153) can0 541#000010000008D626 R
(1782315563.710395) can0 12D#000000000000005F R
(1782315563.710637) can0 12D#000000000000006A R
(1782315563.710878) can0 12E#000000000000C02E R
(1782315563.721548) can0 450#0000000000002800 R
(1782315563.721664) can0 121#00A601CF048000D9 R
(1782315563.721769) can0 129#00000001000000D0 R
(1782315563.721897) can0 120#00000000000000D4 R
(1782315563.722001) can0 541#000010000008D64C R
(1782315563.732627) can0 12D#000000000000008B R
(1782315563.732775) can0 12D#00000000000000BE R
(1782315563.732874) can0 12E#000000000000C044 R
(1782315563.732964) can0 121#00A601CF04800038 R
(1782315563.733052) can0 129#0000000100000031 R
(1782315563.733142) can0 540#0000401100011300 R
(1782315563.748550) can0 5B0#10000000000000BF R
(1782315563.748644) can0 120#0000000000000035 R
(1782315563.748723) can0 541#000010000008D679 R
(1782315563.748798) can0 12D#00000000000000D4 R
(1782315563.748875) can0 12A#10050000000A0083 R
(1782315563.748949) can0 12D#0000000000000035 R
(1782315563.759670) can0 12E#000000000000C071 R
(1782315563.759768) can0 121#00A601CF04800052 R
(1782315563.759858) can0 129#000000010000005B R
(1782315563.759947) can0 120#000000000000005F R
(1782315563.760033) can0 541#000010000008D698 R
(1782315563.760119) can0 12D#000000000000005F R
(1782315563.776895) can0 450#0000000000002800 R
(1782315563.777010) can0 12D#000000000000006A R
(1782315563.777102) can0 12E#000000000000C090 R
(1782315563.777190) can0 121#00A601CF04800067 R
(1782315563.777277) can0 129#000000010000006E R
(1782315563.777363) can0 120#000000000000006A R
(1782315563.789201) can0 541#000010000008D6AD R
(1782315563.789298) can0 12D#000000000000008B R
(1782315563.789384) can0 12D#00000000000000BE R
(1782315563.789470) can0 12E#000000000000C0A5 R
(1782315563.789555) can0 12A#10050000000A00B6 R
(1782315563.808216) can0 5A0#00000000040000B0 R
(1782315563.808333) can0 121#00A601CF04800086 R
(1782315563.808437) can0 129#000000010000008F R
(1782315563.808538) can0 120#000000000000008B R
(1782315563.808641) can0 541#000010000008D6C7 R
(1782315563.808742) can0 12D#00000000000000D4 R
(1782315563.816922) can0 12D#0000000000000035 R
(1782315563.820406) can0 12E#000000000000C0CF R
(1782315563.820528) can0 450#0000000000002800 R
(1782315563.820632) can0 121#00A601CF048000B3 R
(1782315563.820737) can0 129#00000001000000BA R
(1782315563.820839) can0 120#00000000000000BE R
(1782315563.832340) can0 541#000010000008D626 R
(1782315563.832514) can0 12D#000000000000005F R
(1782315563.832659) can0 12D#000000000000006A R
(1782315563.832799) can0 12E#000000000000C02E R
(1782315563.832941) can0 121#00A601CF048000D9 R
(1782315563.833080) can0 129#00000001000000D0 R
(1782315563.848319) can0 540#0000401100011300 R
(1782315563.848611) can0 5B0#10000000000000D5 R
(1782315563.848868) can0 120#00000000000000D4 R
(1782315563.849113) can0 541#000010000008D64C R
(1782315563.849354) can0 12D#000000000000008B R
(1782315563.849597) can0 12A#10050000000A00DC R
(1782315563.858514) can0 12D#00000000000000BE R
(1782315563.858766) can0 12E#000000000000C044 R
(1782315563.859004) can0 121#00A601CF04800038 R
(1782315563.859244) can0 129#0000000100000031 R
(1782315563.859482) can0 120#0000000000000035 R
(1782315563.859721) can0 541#000010000008D679 R
(1782315563.872308) can0 12D#00000000000000D4 R
(1782315563.872564) can0 450#0000000000002800 R
(1782315563.872808) can0 12D#0000000000000035 R
(1782315563.873049) can0 12E#000000000000C071 R
(1782315563.873291) can0 121#00A601CF04800052 R
(1782315563.888800) can0 129#000000010000005B R
(1782315563.889068) can0 120#000000000000005F R
(1782315563.889314) can0 541#000010000008D698 R
(1782315563.889569) can0 12D#000000000000005F R
(1782315563.889818) can0 12D#000000000000006A R
(1782315563.890060) can0 12E#000000000000C090 R
(1782315563.898418) can0 12A#10050000000A003D R
(1782315563.898667) can0 5A0#00000000040000DA R
(1782315563.898908) can0 121#00A601CF04800067 R
(1782315563.899148) can0 129#000000010000006E R
(1782315563.899389) can0 120#000000000000006A R
(1782315563.899630) can0 541#000010000008D6AD R
(1782315563.913586) can0 12D#000000000000008B R
(1782315563.913838) can0 12D#00000000000000BE R
(1782315563.914082) can0 12E#000000000000C0A5 R
(1782315563.914325) can0 450#0000000000002800 R
(1782315563.914568) can0 121#00A601CF04800086 R
(1782315563.914809) can0 129#000000010000008F R
(1782315563.932158) can0 120#000000000000008B R
(1782315563.932412) can0 541#000010000008D6C7 R
(1782315563.932655) can0 12D#00000000000000D4 R
(1782315563.932898) can0 12D#0000000000000035 R
(1782315563.933142) can0 12E#000000000000C0CF R
(1782315563.933386) can0 121#00A601CF048000B3 R
(1782315563.938538) can0 129#00000001000000BA R
(1782315563.938803) can0 540#0000401100011300 R
(1782315563.939047) can0 5B0#1000000000000034 R
(1782315563.939291) can0 120#00000000000000BE R
(1782315563.939550) can0 541#000010000008D626 R
(1782315563.954401) can0 12D#000000000000005F R
(1782315563.954630) can0 12A#10050000000A0057 R
(1782315563.954765) can0 12D#000000000000006A R
(1782315563.954892) can0 12E#000000000000C02E R
(1782315563.955018) can0 121#00A601CF048000D9 R
(1782315563.955139) can0 129#00000001000000D0 R
(1782315563.971837) can0 120#00000000000000D4 R
(1782315563.972097) can0 541#000010000008D64C R
(1782315563.972342) can0 12D#000000000000008B R
(1782315563.972584) can0 450#0000000000002800 R
(1782315563.972829) can0 12D#00000000000000BE R
(1782315563.973072) can0 12E#000000000000C044 R
(1782315563.997471) can0 121#00A601CF04800038 R
(1782315563.997592) can0 129#0000000100000031 R
(1782315563.997673) can0 120#0000000000000035 R
(1782315563.997750) can0 541#000010000008D679 R
(1782315563.997828) can0 12D#00000000000000D4 R
(1782315563.997915) can0 12D#0000000000000035 R
(1782315563.997989) can0 12E#000000000000C071 R
(1782315563.998067) can0 12A#10050000000A0062 R
(1782315563.998150) can0 5A0#000000000400003B R
(1782315563.998232) can0 121#00A601CF04800052 R
(1782315563.998311) can0 129#000000010000005B R
(1782315563.998433) can0 120#000000000000005F R
(1782315564.012204) can0 541#000010000008D698 R
(1782315564.012294) can0 12D#000000000000005F R
(1782315564.012381) can0 12D#000000000000006A R
(1782315564.012466) can0 12E#000000000000C090 R
(1782315564.012553) can0 450#0000000000002800 R
(1782315564.012639) can0 121#00A601CF04800067 R
(1782315564.028554) can0 129#000000010000006E R
(1782315564.028651) can0 120#000000000000006A R
(1782315564.028739) can0 541#000010000008D6AD R
(1782315564.028827) can0 12D#000000000000008B R
(1782315564.028915) can0 12D#00000000000000BE R
(1782315564.036842) can0 12E#000000000000C0A5 R
(1782315564.036960) can0 121#00A601CF04800086 R
(1782315564.037056) can0 129#000000010000008F R
(1782315564.037144) can0 540#0000401100011300 R
(1782315564.037233) can0 5B0#100000000000005E R
(1782315564.037339) can0 120#000000000000008B R
(1782315564.052130) can0 541#000010000008D6C7 R
(1782315564.052260) can0 12D#00000000000000D4 R
(1782315564.052365) can0 12A#10050000000A0083 R
(1782315564.052467) can0 12D#0000000000000035 R
(1782315564.052568) can0 12E#000000000000C0CF R
(1782315564.052672) can0 121#00A601CF048000B3 R
(1782315564.068537) can0 129#00000001000000BA R
(1782315564.068714) can0 120#00000000000000BE R
(1782315564.068824) can0 541#000010000008D626 R
(1782315564.068929) can0 12D#000000000000005F R
(1782315564.069032) can0 450#0000000000002800 R
(1782315564.069133) can0 12D#000000000000006A R
(1782315564.088411) can0 12E#000000000000C02E R
(1782315564.088564) can0 121#00A601D0048000CF R
(1782315564.088689) can0 129#00000001000000D0 R
(1782315564.088809) can0 120#00000000000000D4 R
(1782315564.088932) can0 541#000010000008D64C R
(1782315564.089055) can0 12D#000000000000008B R
(1782315564.092214) can0 12D#00000000000000BE R
(1782315564.092341) can0 12E#000000000000C044 R
(1782315564.092461) can0 12A#10050000000A00B6 R
(1782315564.092580) can0 5A0#0000000004000051 R
(1782315564.092697) can0 121#00A601D00480002E R
(1782315564.109529) can0 129#0000000100000031 R
(1782315564.109852) can0 120#0000000000000035 R
(1782315564.110122) can0 541#000010000008D679 R
(1782315564.110382) can0 12D#00000000000000D4 R
(1782315564.110640) can0 12D#0000000000000035 R
(1782315564.110894) can0 12E#000000000000C071 R
(1782315564.128256) can0 450#0000000000002800 R
(1782315564.128389) can0 121#00A601D004800044 R
(1782315564.128498) can0 129#000000010000005B R
(1782315564.128604) can0 120#000000000000005F R
(1782315564.128713) can0 541#000010000008D698 R
(1782315564.128816) can0 12D#000000000000005F R
(1782315564.133697) can0 12D#000000000000006A R
(1782315564.133808) can0 12E#000000000000C090 R
(1782315564.133912) can0 121#00A601D004800071 R
(1782315564.134015) can0 129#000000010000006E R
(1782315564.134117) can0 540#0000401100011400 R
(1782315564.134222) can0 5B0#100000000000006B R
(1782315564.153388) can0 120#000000000000006A R
(1782315564.153524) can0 541#000010000008D6AD R
(1782315564.153636) can0 12D#000000000000008B R
(1782315564.153744) can0 12A#10050000000A00DC R
(1782315564.153851) can0 12D#00000000000000BE R
(1782315564.153957) can0 12E#000000000000C0A5 R
(1782315564.168322) can0 121#00A601D004800090 R
(1782315564.168477) can0 129#000000010000008F R
(1782315564.168665) can0 120#000000000000008B R
(1782315564.168806) can0 541#000010000008D6C7 R
(1782315564.168946) can0 12D#00000000000000D4 R
(1782315564.169086) can0 450#0000000000002800 R
(1782315564.177039) can0 12D#0000000000000035 R
(1782315564.177288) can0 12E#000000000000C0CF R
(1782315564.177531) can0 121#00A601D0048000A5 R
(1782315564.177773) can0 129#00000001000000BA R
(1782315564.178016) can0 120#00000000000000BE R
(1782315564.191868) can0 541#000010000008D626 R
(1782315564.192149) can0 12D#000000000000005F R
(1782315564.192395) can0 12D#000000000000006A R
(1782315564.192637) can0 12E#000000000000C02E R
(1782315564.192879) can0 12A#10050000000A003D R
(1782315564.193121) can0 5A0#0000000004000064 R
(1782315564.208463) can0 121#00A601D0048000CF R
(1782315564.208723) can0 129#00000001000000D0 R
(1782315564.208970) can0 120#00000000000000D4 R
(1782315564.209212) can0 541#000010000008D64C R
(1782315564.209454) can0 12D#000000000000008B R
(1782315564.209695) can0 12D#00000000000000BE R
(1782315564.221365) can0 12E#000000000000C044 R
(1782315564.221471) can0 450#0000000000002800 R
(1782315564.221569) can0 121#00A601D00480002E R
(1782315564.221667) can0 129#0000000100000031 R
(1782315564.221765) can0 120#0000000000000035 R
(1782315564.221862) can0 541#000010000008D679 R
(1782315564.232719) can0 12D#00000000000000D4 R
(1782315564.232896) can0 12D#0000000000000035 R
(1782315564.233009) can0 12E#000000000000C071 R
(1782315564.233117) can0 121#00A601D004800044 R
(1782315564.233223) can0 129#000000010000005B R
(1782315564.233331) can0 540#0000401100011400 R
(1782315564.248245) can0 5B0#100000000000008A R
(1782315564.248351) can0 120#000000000000005F R
(1782315564.248440) can0 541#000010000008D698 R
(1782315564.248529) can0 12D#000000000000005F R
(1782315564.248615) can0 12A#10050000000A0057 R
(1782315564.258316) can0 12D#000000000000006A R
(1782315564.258423) can0 12E#000000000000C090 R
(1782315564.258513) can0 121#00A601D004800071 R
(1782315564.258600) can0 129#000000010000006E R
(1782315564.258688) can0 120#000000000000006A R
(1782315564.258775) can0 541#000010000008D6AD R
(1782315564.273566) can0 12D#000000000000008B R
(1782315564.273676) can0 450#0000000000002800 R
(1782315564.273779) can0 12D#00000000000000BE R
(1782315564.273882) can0 12E#000000000000C0A5 R
(1782315564.273986) can0 121#00A601D004800090 R
(1782315564.274090) can0 129#000000010000008F R
(1782315564.289029) can0 120#000000000000008B R
(1782315564.289148) can0 541#000010000008D6C7 R
(1782315564.289254) can0 12D#00000000000000D4 R
(1782315564.289359) can0 12D#0000000000000035 R
(1782315564.289463) can0 12E#000000000000C0CF R
(1782315564.289568) can0 12A#10050000000A0062 R
(1782315564.308281) can0 5A0#0000000004000085 R
(1782315564.308457) can0 121#00A601D0048000A5 R
(1782315564.308574) can0 129#00000001000000BA R
(1782315564.308687) can0 120#00000000000000BE R
(1782315564.308799) can0 541#000010000008D626 R
(1782315564.308910) can0 12D#000000000000005F R
(1782315564.316907) can0 12D#000000000000006A R
(1782315564.317082) can0 12E#000000000000C02E R
(1782315564.321779) can0 450#0000000000002800 R
(1782315564.321945) can0 121#00A601D0048000CF R
(1782315564.322092) can0 129#00000001000000D0 R
(1782315564.322237) can0 120#00000000000000D4 R
(1782315564.332329) can0 541#000010000008D64C R
(1782315564.332612) can0 12D#000000000000008B R
(1782315564.332862) can0 12D#00000000000000BE R
(1782315564.333106) can0 12E#000000000000C044 R
(1782315564.333351) can0 121#00A601D00480002E R
(1782315564.338553) can0 129#0000000100000031 R
(1782315564.338825) can0 540#0000401100011400 R
(1782315564.339076) can0 5B0#10000000000000BF R
(1782315564.339325) can0 120#0000000000000035 R
(1782315564.339576) can0 541#000010000008D679 R
(1782315564.339822) can0 12D#00000000000000D4 R
(1782315564.356894) can0 12A#10050000000A0083 R
(1782315564.357154) can0 12D#0000000000000035 R
(1782315564.357398) can0 12E#000000000000C071 R
(1782315564.357638) can0 121#00A601D004800044 R
(1782315564.357879) can0 129#000000010000005B R
(1782315564.358118) can0 120#000000000000005F R
(1782315564.372213) can0 541#000010000008D698 R
(1782315564.372482) can0 12D#000000000000005F R
(1782315564.372730) can0 450#0000000000002800 R
(1782315564.372975) can0 12D#000000000000006A R
(1782315564.373218) can0 12E#000000000000C090 R
(1782315564.373461) can0 121#00A601D004800071 R
(1782315564.388820) can0 129#000000010000006E R
(1782315564.388967) can0 120#000000000000006A R
(1782315564.389109) can0 541#000010000008D6AD R
(1782315564.389248) can0 12D#000000000000008B R
(1782315564.389386) can0 12D#00000000000000BE R
(1782315564.389525) can0 12E#000000000000C0A5 R
(1782315564.396921) can0 12A#10050000000A00B6 R
(1782315564.397101) can0 5A0#00000000040000B0 R
(1782315564.397277) can0 121#00A601D004800090 R
(1782315564.397453) can0 129#000000010000008F R
(1782315564.397629) can0 120#000000000000008B R
(1782315564.412082) can0 541#000010000008D6C7 R
(1782315564.412350) can0 12D#00000000000000D4 R
(1782315564.412594) can0 12D#0000000000000035 R
(1782315564.412836) can0 12E#000000000000C0CF R
(1782315564.413076) can0 450#0000000000002800 R
(1782315564.413329) can0 121#00A601D0048000A5 R
(1782315564.431903) can0 129#00000001000000BA R
(1782315564.432043) can0 120#00000000000000BE R
(1782315564.432137) can0 541#000010000008D626 R
(1782315564.432224) can0 12D#000000000000005F R
(1782315564.432311) can0 12D#000000000000006A R
(1782315564.432396) can0 12E#000000000000C02E R
(1782315564.438353) can0 121#00A601D0048000CF R
(1782315564.438462) can0 129#00000001000000D0 R
(1782315564.438550) can0 540#0000401100011400 R
(1782315564.438637) can0 5B0#10000000000000D5 R
(1782315564.438722) can0 120#00000000000000D4 R
(1782315564.438808) can0 541#000010000008D64C R
(1782315564.453586) can0 12D#000000000000008B R
(1782315564.453702) can0 12A#10050000000A00DC R
(1782315564.453804) can0 12D#00000000000000BE R
(1782315564.453905) can0 12E#000000000000C044 R
(1782315564.454006) can0 121#00A601D00480002E R
(1782315564.454107) can0 129#0000000100000031 R
(1782315564.471955) can0 120#0000000000000035 R
(1782315564.472146) can0 541#000010000008D679 R
(1782315564.472285) can0 12D#00000000000000D4 R
(1782315564.472422) can0 450#0000000000002800 R
(1782315564.472547) can0 12D#0000000000000035 R
(1782315564.472674) can0 12E#000000000000C071 R
(1782315564.492213) can0 121#00A601D004800044 R
(1782315564.498901) can0 129#000000010000005B R
(1782315564.499041) can0 120#000000000000005F R
(1782315564.499183) can0 541#000010000008D698 R
(1782315564.499311) can0 12D#000000000000005F R
(1782315564.499518) can0 12D#000000000000006A R
(1782315564.499608) can0 12E#000000000000C090 R
(1782315564.499689) can0 12A#10050000000A003D R
(1782315564.499813) can0 5A0#00000000040000DA R
(1782315564.499909) can0 121#00A601D004800071 R
(1782315564.499990) can0 129#000000010000006E R
(1782315564.511913) can0 120#000000000000006A R
(1782315564.512023) can0 541#000010000008D6AD R
(1782315564.512113) can0 12D#000000000000008B R
(1782315564.512199) can0 12D#00000000000000BE R
(1782315564.512285) can0 12E#000000000000C0A5 R
(1782315564.512371) can0 450#0000000000002800 R
(1782315564.528429) can0 121#00A601D004800090 R
(1782315564.528539) can0 129#000000010000008F R
(1782315564.528641) can0 120#000000000000008B R
(1782315564.528743) can0 541#000010000008D6C7 R
(1782315564.528843) can0 12D#00000000000000D4 R
(1782315564.528943) can0 12D#0000000000000035 R
(1782315564.536870) can0 12E#000000000000C0CF R
(1782315564.536976) can0 121#00A601D0048000A5 R
(1782315564.537078) can0 129#00000001000000BA R
(1782315564.537180) can0 540#0000401100011400 R
(1782315564.537281) can0 5B0#1000000000000034 R
(1782315564.537381) can0 120#00000000000000BE R
(1782315564.552117) can0 541#000010000008D626 R
(1782315564.552234) can0 12D#000000000000005F R
(1782315564.552339) can0 12A#10050000000A0057 R
(1782315564.552432) can0 12D#000000000000006A R
(1782315564.552519) can0 12E#000000000000C02E R
(1782315564.568249) can0 121#00A601D0048000CF R
(1782315564.568381) can0 129#00000001000000D0 R
(1782315564.568483) can0 120#00000000000000D4 R
(1782315564.568586) can0 541#000010000008D64C R
(1782315564.568689) can0 12D#000000000000008B R
(1782315564.568804) can0 450#0000000000002800 R
(1782315564.578350) can0 12D#00000000000000BE R
(1782315564.578459) can0 12E#000000000000C044 R
(1782315564.578561) can0 121#00A601D00480002E R
(1782315564.578663) can0 129#0000000100000031 R
(1782315564.578767) can0 120#0000000000000035 R
(1782315564.578869) can0 541#000010000008D679 R
(1782315564.592209) can0 12D#00000000000000D4 R
(1782315564.592400) can0 12D#0000000000000035 R
(1782315564.592519) can0 12E#000000000000C071 R
(1782315564.592629) can0 12A#10050000000A0062 R
(1782315564.592737) can0 5A0#000000000400003B R
(1782315564.592848) can0 121#00A601D004800044 R
(1782315564.609592) can0 129#000000010000005B R
(1782315564.609794) can0 120#000000000000005F R
(1782315564.609975) can0 541#000010000008D698 R
(1782315564.610155) can0 12D#000000000000005F R
(1782315564.610338) can0 12D#000000000000006A R
(1782315564.610514) can0 12E#000000000000C090 R
(1782315564.628296) can0 450#0000000000002800 R
(1782315564.628553) can0 121#00A601D004800071 R
(1782315564.628797) can0 129#000000010000006E R
(1782315564.629041) can0 120#000000000000006A R
(1782315564.629283) can0 541#000010000008D6AD R
(1782315564.629526) can0 12D#000000000000008B R
(1782315564.632735) can0 12D#00000000000000BE R
(1782315564.632982) can0 12E#000000000000C0A5 R
(1782315564.633221) can0 121#00A601D004800090 R
(1782315564.633463) can0 129#000000010000008F R
(1782315564.633704) can0 540#0000401100011400 R
(1782315564.648418) can0 5B0#100000000000005E R
(1782315564.648677) can0 120#000000000000008B R
(1782315564.648921) can0 541#000010000008D6C7 R
(1782315564.649164) can0 12D#00000000000000D4 R
(1782315564.649406) can0 12A#10050000000A0083 R
(1782315564.649648) can0 12D#0000000000000035 R
(1782315564.659674) can0 12E#000000000000C0CF R
(1782315564.659824) can0 121#00A601D0048000A5 R
(1782315564.659991) can0 129#00000001000000BA R
(1782315564.660139) can0 120#00000000000000BE R
(1782315564.660298) can0 541#000010000008D626 R
(1782315564.660456) can0 12D#000000000000005F R
(1782315564.676930) can0 450#0000000000002800 R
(1782315564.677195) can0 12D#000000000000006A R
(1782315564.677449) can0 12E#000000000000C02E R
(1782315564.677695) can0 121#00A601D0048000CF R
(1782315564.677939) can0 129#00000001000000D0 R
(1782315564.678183) can0 120#00000000000000D4 R
(1782315564.692000) can0 541#000010000008D75A R
(1782315564.692189) can0 12D#000000000000008B R
(1782315564.692343) can0 12D#00000000000000BE R
(1782315564.692491) can0 12E#000000000000C044 R
(1782315564.692636) can0 12A#10050000000A00B6 R
(1782315564.692780) can0 5A0#0000000004000051 R
(1782315564.708391) can0 121#00A601D00480002E R
(1782315564.708672) can0 129#0000000100000031 R
(1782315564.708924) can0 120#0000000000000035 R
(1782315564.709171) can0 541#000010000008D76F R
(1782315564.709416) can0 12D#00000000000000D4 R
(1782315564.716804) can0 12D#0000000000000035 R
(1782315564.717227) can0 12E#000000000000C071 R
(1782315564.722693) can0 450#0000000000002800 R
(1782315564.722800) can0 121#00A601D004800044 R
(1782315564.722901) can0 129#000000010000005B R
(1782315564.723000) can0 120#000000000000005F R
(1782315564.732427) can0 541#000010000008D78E R
(1782315564.732559) can0 12D#000000000000005F R
(1782315564.732642) can0 12D#000000000000006A R
(1782315564.732717) can0 12E#000000000000C090 R
(1782315564.732792) can0 121#00A601D004800071 R
(1782315564.732866) can0 129#000000010000006E R
(1782315564.748184) can0 540#0000401100011400 R
(1782315564.748265) can0 5B0#100000000000006B R
(1782315564.748334) can0 120#000000000000006A R
(1782315564.748400) can0 541#000010000008D7BB R
(1782315564.748465) can0 12D#000000000000008B R
(1782315564.748530) can0 12A#10050000000A00DC R
(1782315564.758357) can0 12D#00000000000000BE R
(1782315564.758431) can0 12E#000000000000C0A5 R
(1782315564.758496) can0 121#00A601D004800090 R
(1782315564.758562) can0 129#000000010000008F R
(1782315564.758627) can0 120#000000000000008B R
(1782315564.758692) can0 541#000010000008D7D1 R
(1782315564.773617) can0 12D#00000000000000D4 R
(1782315564.773697) can0 450#0000000000002800 R
(1782315564.773770) can0 12D#0000000000000035 R
(1782315564.773843) can0 12E#000000000000C0CF R
(1782315564.773917) can0 121#00A601D0048000A5 R
(1782315564.773991) can0 129#00000001000000BA R
(1782315564.788802) can0 120#00000000000000BE R
(1782315564.788890) can0 541#000010000008D730 R
(1782315564.788966) can0 12D#000000000000005F R
(1782315564.789042) can0 12D#000000000000006A R
(1782315564.789117) can0 12E#000000000000C02E R
(1782315564.798356) can0 12A#10050000000A003D R
(1782315564.798459) can0 5A0#0000000004000064 R
(1782315564.798535) can0 121#00A601D0048000CF R
(1782315564.798610) can0 129#00000001000000D0 R
(1782315564.798685) can0 120#00000000000000D4 R
(1782315564.798760) can0 541#000010000008D75A R
(1782315564.813546) can0 12D#000000000000008B R
(1782315564.813653) can0 12D#00000000000000BE R
(1782315564.813740) can0 12E#000000000000C044 R
(1782315564.813826) can0 450#0000000000002800 R
(1782315564.813912) can0 121#00A601D00480002E R
(1782315564.813998) can0 129#0000000100000031 R
(1782315564.832143) can0 120#0000000000000035 R
(1782315564.832258) can0 541#000010000008D76F R
(1782315564.832362) can0 12D#00000000000000D4 R
(1782315564.832468) can0 12D#0000000000000035 R
(1782315564.832571) can0 12E#000000000000C071 R
(1782315564.832675) can0 121#00A601D004800044 R
(1782315564.838551) can0 129#000000010000005B R
(1782315564.838660) can0 540#0000401100011400 R
(1782315564.838763) can0 5B0#100000000000008A R
(1782315564.838866) can0 120#000000000000005F R
(1782315564.838969) can0 541#000010000008D78E R
(1782315564.839071) can0 12D#000000000000005F R
(1782315564.853973) can0 12A#10050000000A0057 R
(1782315564.854083) can0 12D#000000000000006A R
(1782315564.854187) can0 12E#000000000000C090 R
(1782315564.854290) can0 121#00A601D004800071 R
(1782315564.854395) can0 129#000000010000006E R
(1782315564.871859) can0 120#000000000000006A R
(1782315564.872074) can0 541#000010000008D7BB R
(1782315564.872209) can0 12D#000000000000008B R
(1782315564.872334) can0 450#0000000000002800 R
(1782315564.872462) can0 12D#00000000000000BE R
(1782315564.872586) can0 12E#000000000000C0A5 R
(1782315564.888464) can0 121#00A601D004800090 R
(1782315564.888592) can0 129#000000010000008F R
(1782315564.888695) can0 120#000000000000008B R
(1782315564.888797) can0 541#000010000008D7D1 R
(1782315564.888900) can0 12D#00000000000000D4 R
(1782315564.889002) can0 12D#0000000000000035 R
(1782315564.896888) can0 12E#000000000000C0CF R
(1782315564.896996) can0 12A#10050000000A0062 R
(1782315564.897100) can0 5A0#0000000004000085 R
(1782315564.897202) can0 121#00A601D0048000A5 R
(1782315564.897307) can0 129#00000001000000BA R
(1782315564.897410) can0 120#00000000000000BE R
(1782315564.912353) can0 541#000010000008D730 R
(1782315564.912518) can0 12D#000000000000005F R
(1782315564.912643) can0 12D#000000000000006A R
(1782315564.912764) can0 12E#000000000000C02E R
(1782315564.912887) can0 450#0000000000002800 R
(1782315564.913009) can0 121#00A601D0048000CF R
(1782315564.931966) can0 129#00000001000000D0 R
(1782315564.932163) can0 120#00000000000000D4 R
(1782315564.932347) can0 541#000010000008D75A R
(1782315564.932526) can0 12D#000000000000008B R
(1782315564.932701) can0 12D#00000000000000BE R
(1782315564.932876) can0 12E#000000000000C044 R
(1782315564.937053) can0 121#00A601D00480002E R
(1782315564.937335) can0 129#0000000100000031 R
(1782315564.937587) can0 540#0000401100011400 R
(1782315564.937833) can0 5B0#10000000000000BF R
(1782315564.938074) can0 120#0000000000000035 R
(1782315564.948395) can0 541#000010000008D76F R
(1782315564.948678) can0 12D#00000000000000D4 R
(1782315564.948925) can0 12A#10050000000A0083 R
(1782315564.949703) can0 12D#0000000000000035 R
(1782315564.959743) can0 12E#000000000000C071 R
(1782315564.959894) can0 121#00A601D004800044 R
(1782315564.960031) can0 129#000000010000005B R
(1782315564.960167) can0 120#000000000000005F R
(1782315564.960302) can0 541#000010000008D78E R
(1782315564.960438) can0 12D#000000000000005F R
(1782315564.973724) can0 450#0000000000002800 R
(1782315564.973974) can0 12D#000000000000006A R
(1782315564.974216) can0 12E#000000000000C090 R
(1782315564.974507) can0 121#00A601D004800071 R
(1782315564.974749) can0 129#000000010000006E R
(1782315564.990436) can0 120#000000000000006A R
(1782315564.991372) can0 541#000010000008D7BB R
(1782315564.997454) can0 12D#000000000000008B R
(1782315564.997573) can0 12D#00000000000000BE R
(1782315564.997680) can0 12E#000000000000C0A5 R
(1782315564.997804) can0 12A#10050000000A00B6 R
(1782315565.008227) can0 5A0#00000000040000B0 R
(1782315565.008319) can0 121#00A601D004800090 R
(1782315565.008399) can0 129#000000010000008F R
(1782315565.008478) can0 120#000000000000008B R
(1782315565.008554) can0 541#000010000008D7D1 R
(1782315565.008629) can0 12D#00000000000000D4 R
(1782315565.016839) can0 12D#0000000000000035 R
(1782315565.016930) can0 12E#000000000000C0CF R
(1782315565.018912) can0 450#0000000000002800 R
(1782315565.019021) can0 121#00A601D0048000A5 R
(1782315565.019142) can0 129#00000001000000BA R
(1782315565.019223) can0 120#00000000000000BE R
(1782315565.032396) can0 541#000010000008D730 R
(1782315565.032488) can0 12D#000000000000005F R
(1782315565.032576) can0 12D#000000000000006A R
(1782315565.032663) can0 12E#000000000000C02E R
(1782315565.032748) can0 121#00A601D0048000CF R
(1782315565.032834) can0 129#00000001000000D0 R
(1782315565.038502) can0 540#0000401100011400 R
(1782315565.038587) can0 5B0#10000000000000D5 R
(1782315565.038665) can0 120#00000000000000D4 R
(1782315565.038740) can0 541#000010000008D75A R
(1782315565.038815) can0 12D#000000000000008B R
