(1784903364.924755) can0 121#00A601CF04800067 R
(1784903364.925023) can0 129#000000010000006E R
(1784903364.927486) can0 120#000000000000006A R
(1784903364.928012) can0 541#000010000004D0AB R
(1784903364.931512) can0 12D#000000000000006A R
(1784903364.931818) can0 12E#000000000000C02E R
(1784903364.937849) can0 450#0000000000002800 R
(1784903364.940708) can0 12D#000000000000008B R
(1784903364.940957) can0 12A#10050000000A00DC R
(1784903364.944779) can0 121#00A601CF04800086 R
(1784903364.945113) can0 129#000000010000008F R
(1784903364.947153) can0 120#000000000000008B R
(1784903364.947618) can0 541#000010000004D0C1 R
(1784903364.950939) can0 12D#00000000000000BE R
(1784903364.951378) can0 12E#000000000000C044 R
(1784903364.960668) can0 12D#00000000000000D4 R
(1784903364.964753) can0 121#00A601CF048000B3 R
(1784903364.965060) can0 129#00000001000000BA R
(1784903364.966337) can0 120#00000000000000BE R
(1784903364.968400) can0 541#000010000004D020 R
(1784903364.970766) can0 12D#0000000000000035 R
(1784903364.972916) can0 12E#000000000000C071 R
(1784903364.980671) can0 12D#000000000000005F R
(1784903364.985458) can0 121#00A601CF048000D9 R
(1784903364.985794) can0 129#00000001000000D0 R
(1784903364.985994) can0 540#000040100000ED00 R
(1784903364.986111) can0 5B0#10000000000000D5 R
(1784903364.986421) can0 120#00000000000000D4 R
(1784903364.987682) can0 541#000010000004D04A R
(1784903364.988061) can0 450#0000000000002800 R
(1784903364.991007) can0 12D#000000000000006A R
(1784903364.991285) can0 12E#000000000000C090 R
(1784903364.991409) can0 12A#10050000000A003D R
(1784903364.991549) can0 5A0#00000000040000DA R
(1784903365.000644) can0 12D#000000000000008B R
(1784903365.004832) can0 121#00A601CF04800038 R
(1784903365.006585) can0 129#0000000100000031 R
(1784903365.006971) can0 120#0000000000000035 R
(1784903365.007715) can0 541#000010000004D07F R
(1784903365.010807) can0 12D#00000000000000BE R
(1784903365.011176) can0 12E#000000000000C0A5 R
(1784903365.020701) can0 12D#00000000000000D4 R
(1784903365.025654) can0 121#00A601CF04800052 R
(1784903365.025996) can0 129#000000010000005B R
(1784903365.026554) can0 120#000000000000005F R
(1784903365.027690) can0 541#000010000004D09E R
(1784903365.030774) can0 12D#0000000000000035 R
(1784903365.031095) can0 12E#000000000000C0CF R
(1784903365.037299) can0 450#0000000000002800 R
(1784903365.040698) can0 12D#000000000000005F R
(1784903365.041160) can0 12A#10050000000A0057 R
(1784903365.044761) can0 121#00A601CF04800067 R
(1784903365.045082) can0 129#000000010000006E R
(1784903365.046967) can0 120#000000000000006A R
(1784903365.047633) can0 541#000010000004D0AB R
(1784903365.050844) can0 12D#000000000000006A R
(1784903365.051193) can0 12E#000000000000C02E R
(1784903365.060660) can0 12D#000000000000008B R
(1784903365.065590) can0 121#00A601CF04800086 R
(1784903365.065904) can0 129#000000010000008F R
(1784903365.066444) can0 120#000000000000008B R
(1784903365.067606) can0 541#000010000004D1D7 R
(1784903365.071164) can0 12D#00000000000000BE R
(1784903365.071497) can0 12E#000000000000C044 R
(1784903365.080671) can0 12D#00000000000000D4 R
(1784903365.085839) can0 121#00A601CF048000B3 R
(1784903365.086146) can0 129#00000001000000BA R
(1784903365.086254) can0 540#000040100000ED00 R
(1784903365.086447) can0 5B0#1000000000000034 R
(1784903365.086546) can0 120#00000000000000BE R
(1784903365.087635) can0 541#000010000004D136 R
(1784903365.088087) can0 450#0000000000002800 R
(1784903365.091069) can0 12D#0000000000000035 R
(1784903365.091411) can0 12E#000000000000C071 R
(1784903365.091528) can0 12A#10050000000A0062 R
(1784903365.091684) can0 5A0#000000000400003B R
(1784903365.100773) can0 12D#000000000000005F R
(1784903365.105621) can0 121#00A601CF048000D9 R
(1784903365.105975) can0 129#00000001000000D0 R
(1784903365.106339) can0 120#00000000000000D4 R
(1784903365.107679) can0 541#000010000004D15C R
(1784903365.110787) can0 12D#000000000000006A R
(1784903365.111030) can0 12E#000000000000C090 R
(1784903365.121018) can0 12D#000000000000008B R
(1784903365.124794) can0 121#00A601CF04800038 R
(1784903365.126425) can0 129#0000000100000031 R
(1784903365.126564) can0 120#0000000000000035 R
(1784903365.127633) can0 541#000010000004D169 R
(1784903365.130802) can0 12D#00000000000000BE R
(1784903365.131091) can0 12E#000000000000C0A5 R
(1784903365.137292) can0 450#0000000000002800 R
(1784903365.140685) can0 12D#00000000000000D4 R
(1784903365.141085) can0 12A#10050000000A0083 R
(1784903365.144787) can0 121#00A601CF04800052 R
(1784903365.146583) can0 129#000000010000005B R
(1784903365.146911) can0 120#000000000000005F R
(1784903365.147630) can0 541#000010000004D188 R
(1784903365.150838) can0 12D#0000000000000035 R
(1784903365.151327) can0 12E#000000000000C0CF R
(1784903365.160686) can0 12D#000000000000005F R
(1784903365.165498) can0 121#00A601CF04800067 R
(1784903365.165876) can0 129#000000010000006E R
(1784903365.166871) can0 120#000000000000006A R
(1784903365.167666) can0 541#000010000004D1BD R
(1784903365.171883) can0 12D#000000000000006A R
(1784903365.172304) can0 12E#000000000000C02E R
(1784903365.180662) can0 12D#000000000000008B R
(1784903365.184785) can0 121#00A601CF04800086 R
(1784903365.185056) can0 129#000000010000008F R
(1784903365.185192) can0 540#000040100000ED00 R
(1784903365.185436) can0 5B0#100000000000005E R
(1784903365.186456) can0 120#000000000000008B R
(1784903365.188221) can0 541#000010000004D1D7 R
(1784903365.188628) can0 450#0000000000002800 R
(1784903365.191468) can0 12D#00000000000000BE R
(1784903365.191880) can0 12E#000000000000C044 R
(1784903365.192065) can0 12A#10050000000A00B6 R
(1784903365.192204) can0 5A0#0000000004000051 R
(1784903365.200627) can0 12D#00000000000000D4 R
(1784903365.204775) can0 121#00A601CF048000B3 R
(1784903365.205083) can0 129#00000001000000BA R
(1784903365.207489) can0 120#00000000000000BE R
(1784903365.207903) can0 541#000010000004D136 R
(1784903365.210808) can0 12D#0000000000000035 R
(1784903365.211091) can0 12E#000000000000C071 R
(1784903365.220674) can0 12D#000000000000005F R
(1784903365.225703) can0 121#00A601CF048000D9 R
(1784903365.226160) can0 129#00000001000000D0 R
(1784903365.226354) can0 120#00000000000000D4 R
(1784903365.227615) can0 541#000010000004D15C R
(1784903365.230765) can0 12D#000000000000006A R
(1784903365.231077) can0 12E#000000000000C090 R
(1784903365.237294) can0 450#0000000000002800 R
(1784903365.240700) can0 12D#000000000000008B R
(1784903365.241011) can0 12A#10050000000A00DC R
(1784903365.244780) can0 121#00A601CF04800038 R
(1784903365.245062) can0 129#0000000100000031 R
(1784903365.246403) can0 120#0000000000000035 R
(1784903365.248084) can0 541#000010000004D169 R
(1784903365.251595) can0 12D#00000000000000BE R
(1784903365.251936) can0 12E#000000000000C0A5 R
(1784903365.260663) can0 12D#00000000000000D4 R
(1784903365.264775) can0 121#00A601CF04800052 R
(1784903365.265026) can0 129#000000010000005B R
(1784903365.267405) can0 120#000000000000005F R
(1784903365.267914) can0 541#000010000004D188 R
(1784903365.270766) can0 12D#0000000000000035 R
(1784903365.271090) can0 12E#000000000000C0CF R
(1784903365.280650) can0 12D#000000000000005F R
(1784903365.285576) can0 121#00A601CF04800067 R
(1784903365.285926) can0 129#000000010000006E R
(1784903365.286026) can0 540#000040100000ED00 R
(1784903365.286113) can0 5B0#100000000000006B R
(1784903365.286906) can0 120#000000000000006A R
(1784903365.287687) can0 541#000010000004D1BD R
(1784903365.288346) can0 450#0000000000002800 R
(1784903365.290915) can0 12D#000000000000006A R
(1784903365.291136) can0 12E#000000000000C02E R
(1784903365.291324) can0 12A#10050000000A003D R
(1784903365.291588) can0 5A0#0000000004000064 R
(1784903365.300703) can0 12D#000000000000008B R
(1784903365.305543) can0 121#00A601CF04800086 R
(1784903365.305863) can0 129#000000010000008F R
(1784903365.306766) can0 120#000000000000008B R
(1784903365.307683) can0 541#000010000004D1D7 R
(1784903365.310776) can0 12D#00000000000000BE R
(1784903365.311028) can0 12E#000000000000C044 R
(1784903365.320668) can0 12D#00000000000000D4 R
(1784903365.325798) can0 121#00A601CF048000B3 R
(1784903365.326126) can0 129#00000001000000BA R
(1784903365.326358) can0 120#00000000000000BE R
(1784903365.327659) can0 541#000010000004D136 R
(1784903365.330761) can0 12D#0000000000000035 R
(1784903365.331019) can0 12E#000000000000C071 R
(1784903365.337296) can0 450#0000000000002800 R
(1784903365.340665) can0 12D#000000000000005F R
(1784903365.341032) can0 12A#10050000000A0057 R
(1784903365.344827) can0 121#00A601CF048000D9 R
(1784903365.346598) can0 129#00000001000000D0 R
(1784903365.347311) can0 120#00000000000000D4 R
(1784903365.347729) can0 541#000010000004D15C R
(1784903365.350768) can0 12D#000000000000006A R
(1784903365.351252) can0 12E#000000000000C090 R
(1784903365.360653) can0 12D#000000000000008B R
(1784903365.364806) can0 121#00A601CF04800038 R
(1784903365.366540) can0 129#0000000100000031 R
(1784903365.366677) can0 120#0000000000000035 R
(1784903365.367755) can0 541#000010000004D169 R
(1784903365.370808) can0 12D#00000000000000BE R
(1784903365.371119) can0 12E#000000000000C0A5 R
(1784903365.380687) can0 12D#00000000000000D4 R
(1784903365.385956) can0 121#00A601CF04800052 R
(1784903365.386281) can0 129#000000010000005B R
(1784903365.386474) can0 540#000040100000ED00 R
(1784903365.386582) can0 5B0#100000000000008A R
(1784903365.386764) can0 120#000000000000005F R
(1784903365.387709) can0 541#000010000004D188 R
(1784903365.388063) can0 450#0000000000002800 R
(1784903365.391013) can0 12D#0000000000000035 R
(1784903365.391413) can0 12E#000000000000C0CF R
(1784903365.391630) can0 12A#10050000000A0062 R
(1784903365.391809) can0 5A0#0000000004000085 R
(1784903365.400653) can0 12D#000000000000005F R
(1784903365.405495) can0 121#00A601CF04800067 R
(1784903365.405882) can0 129#000000010000006E R
(1784903365.406770) can0 120#000000000000006A R
(1784903365.407746) can0 541#000010000004D1BD R
(1784903365.410761) can0 12D#000000000000006A R
(1784903365.411018) can0 12E#000000000000C02E R
(1784903365.420652) can0 12D#000000000000008B R
(1784903365.424804) can0 121#00A601CF04800086 R
(1784903365.425108) can0 129#000000010000008F R
(1784903365.426405) can0 120#000000000000008B R
(1784903365.428050) can0 541#000010000004D1D7 R
(1784903365.431398) can0 12D#00000000000000BE R
(1784903365.431761) can0 12E#000000000000C044 R
(1784903365.437306) can0 450#0000000000002800 R
(1784903365.440696) can0 12D#00000000000000D4 R
(1784903365.441148) can0 12A#10050000000A0083 R
(1784903365.444800) can0 121#00A601CF048000B3 R
(1784903365.445067) can0 129#00000001000000BA R
(1784903365.447992) can0 120#00000000000000BE R
(1784903365.448486) can0 541#000010000004D136 R
(1784903365.450796) can0 12D#0000000000000035 R
(1784903365.452460) can0 12E#000000000000C071 R
(1784903365.460681) can0 12D#000000000000005F R
(1784903365.465497) can0 121#00A601CF048000D9 R
(1784903365.465830) can0 129#00000001000000D0 R
(1784903365.466701) can0 120#00000000000000D4 R
(1784903365.467644) can0 541#000010000004D15C R
(1784903365.470732) can0 12D#000000000000006A R
(1784903365.470998) can0 12E#000000000000C090 R
(1784903365.480628) can0 12D#000000000000008B R
(1784903365.484803) can0 121#00A601CF04800038 R
(1784903365.485128) can0 129#0000000100000031 R
(1784903365.485216) can0 540#000040100000ED00 R
(1784903365.485449) can0 5B0#10000000000000BF R
(1784903365.486500) can0 120#0000000000000035 R
(1784903365.489040) can0 541#000010000004D169 R
(1784903365.489447) can0 450#0000000000002800 R
(1784903365.490870) can0 12D#00000000000000BE R
(1784903365.491038) can0 12E#000000000000C0A5 R
(1784903365.491313) can0 12A#10050000000A00B6 R
(1784903365.491565) can0 5A0#00000000040000B0 R
(1784903365.500673) can0 12D#00000000000000D4 R
(1784903365.505711) can0 121#00A601CF04800052 R
(1784903365.506018) can0 129#000000010000005B R
(1784903365.506883) can0 120#000000000000005F R
(1784903365.507756) can0 541#000010000004D188 R
(1784903365.510764) can0 12D#0000000000000035 R
(1784903365.511019) can0 12E#000000000000C0CF R
(1784903365.520656) can0 12D#000000000000005F R
(1784903365.524810) can0 121#00A601CF04800067 R
(1784903365.525061) can0 129#000000010000006E R
(1784903365.526429) can0 120#000000000000006A R
(1784903365.528198) can0 541#000010000004D1BD R
(1784903365.531540) can0 12D#000000000000006A R
(1784903365.531844) can0 12E#000000000000C02E R
(1784903365.537311) can0 450#0000000000002800 R
(1784903365.540655) can0 12D#000000000000008B R
(1784903365.540918) can0 12A#10050000000A00DC R
(1784903365.544804) can0 121#00A601CF04800086 R
(1784903365.545110) can0 129#000000010000008F R
(1784903365.547592) can0 120#000000000000008B R
(1784903365.547988) can0 541#000010000004D1D7 R
(1784903365.550829) can0 12D#00000000000000BE R
(1784903365.551271) can0 12E#000000000000C044 R
(1784903365.560640) can0 12D#00000000000000D4 R
(1784903365.565440) can0 121#00A601CF048000B3 R
(1784903365.565747) can0 129#00000001000000BA R
(1784903365.566716) can0 120#00000000000000BE R
(1784903365.567617) can0 541#000010000004D136 R
(1784903365.570774) can0 12D#0000000000000035 R
(1784903365.571110) can0 12E#000000000000C071 R
(1784903365.581030) can0 12D#000000000000005F R
(1784903365.587124) can0 121#00A601CF048000D9 R
(1784903365.587514) can0 129#00000001000000D0 R
(1784903365.587698) can0 540#000040100000ED00 R
(1784903365.587854) can0 5B0#10000000000000D5 R
(1784903365.587976) can0 120#00000000000000D4 R
(1784903365.590932) can0 541#000010000004D15C R
(1784903365.591089) can0 450#0000000000002800 R
(1784903365.591187) can0 12D#000000000000006A R
(1784903365.591304) can0 12E#000000000000C090 R
(1784903365.591429) can0 12A#10050000000A003D R
(1784903365.591646) can0 5A0#00000000040000DA R
(1784903365.600707) can0 12D#000000000000008B R
(1784903365.604889) can0 121#00A601CF04800038 R
(1784903365.605225) can0 129#0000000100000031 R
(1784903365.606449) can0 120#0000000000000035 R
(1784903365.608641) can0 541#000010000004D169 R
(1784903365.610740) can0 12D#00000000000000BE R
(1784903365.610937) can0 12E#000000000000C0A5 R
(1784903365.620629) can0 12D#00000000000000D4 R
(1784903365.625555) can0 121#00A601CF04800052 R
(1784903365.625857) can0 129#000000010000005B R
(1784903365.627079) can0 120#000000000000005F R
(1784903365.627668) can0 541#000010000004D188 R
(1784903365.630844) can0 12D#0000000000000035 R
(1784903365.631155) can0 12E#000000000000C0CF R
(1784903365.637394) can0 450#0000000000002800 R
(1784903365.640693) can0 12D#000000000000005F R
(1784903365.640940) can0 12A#10050000000A0057 R
(1784903365.644814) can0 121#00A601CF04800067 R
(1784903365.645213) can0 129#000000010000006E R
(1784903365.647254) can0 120#000000000000006A R
(1784903365.647634) can0 541#000010000004D1BD R
(1784903365.650807) can0 12D#000000000000006A R
(1784903365.651254) can0 12E#000000000000C02E R
(1784903365.660644) can0 12D#000000000000008B R
(1784903365.664833) can0 121#00A601CF04800086 R
(1784903365.666514) can0 129#000000010000008F R
(1784903365.667004) can0 120#000000000000008B R
(1784903365.667703) can0 541#000010000004D1D7 R
(1784903365.670798) can0 12D#00000000000000BE R
(1784903365.671174) can0 12E#000000000000C044 R
(1784903365.680622) can0 12D#00000000000000D4 R
(1784903365.685459) can0 121#00A601CF048000B3 R
(1784903365.685795) can0 129#00000001000000BA R
(1784903365.685978) can0 540#000040100000ED00 R
(1784903365.686082) can0 5B0#1000000000000034 R
(1784903365.686469) can0 120#00000000000000BE R
(1784903365.687642) can0 541#000010000004D136 R
(1784903365.688086) can0 450#0000000000002800 R
(1784903365.690863) can0 12D#0000000000000035 R
(1784903365.691216) can0 12E#000000000000C071 R
(1784903365.691303) can0 12A#10050000000A0062 R
(1784903365.691573) can0 5A0#000000000400003B R
(1784903365.700796) can0 12D#000000000000005F R
(1784903365.705990) can0 121#00A601CF048000D9 R
(1784903365.706425) can0 129#00000001000000D0 R
(1784903365.706536) can0 120#00000000000000D4 R
(1784903365.707688) can0 541#000010000004D15C R
(1784903365.710757) can0 12D#000000000000006A R
(1784903365.711249) can0 12E#000000000000C090 R
(1784903365.720673) can0 12D#000000000000008B R
(1784903365.725664) can0 121#00A601CF04800038 R
(1784903365.726011) can0 129#0000000100000031 R
(1784903365.726432) can0 120#0000000000000035 R
(1784903365.727669) can0 541#000010000004D169 R
(1784903365.730783) can0 12D#00000000000000BE R
(1784903365.731121) can0 12E#000000000000C0A5 R
(1784903365.737336) can0 450#0000000000002800 R
(1784903365.740664) can0 12D#00000000000000D4 R
(1784903365.740907) can0 12A#10050000000A0083 R
(1784903365.744820) can0 121#00A601CF04800052 R
(1784903365.745106) can0 129#000000010000005B R
(1784903365.746966) can0 120#000000000000005F R
(1784903365.748120) can0 541#000010000004D188 R
(1784903365.751171) can0 12D#0000000000000035 R
(1784903365.751570) can0 12E#000000000000C0CF R
(1784903365.760642) can0 12D#000000000000005F R
(1784903365.764889) can0 121#00A601CF04800067 R
(1784903365.765273) can0 129#000000010000006E R
(1784903365.767184) can0 120#000000000000006A R
(1784903365.767656) can0 541#000010000004D1BD R
(1784903365.770732) can0 12D#000000000000006A R
(1784903365.772306) can0 12E#000000000000C02E R
(1784903365.780643) can0 12D#000000000000008B R
(1784903365.785009) can0 121#00A601CF04800086 R
(1784903365.785306) can0 129#000000010000008F R
(1784903365.785426) can0 540#000040100000ED00 R
(1784903365.785687) can0 5B0#100000000000005E R
(1784903365.786691) can0 120#000000000000008B R
(1784903365.789015) can0 541#000010000004D1D7 R
(1784903365.789167) can0 450#0000000000002800 R
(1784903365.790876) can0 12D#00000000000000BE R
(1784903365.791217) can0 12E#000000000000C044 R
(1784903365.791361) can0 12A#10050000000A00B6 R
(1784903365.793288) can0 5A0#0000000004000051 R
(1784903365.800664) can0 12D#00000000000000D4 R
(1784903365.805507) can0 121#00A601CF048000B3 R
(1784903365.805867) can0 129#00000001000000BA R
(1784903365.806672) can0 120#00000000000000BE R
(1784903365.807677) can0 541#000010000004D136 R
(1784903365.810768) can0 12D#0000000000000035 R
(1784903365.811029) can0 12E#000000000000C071 R
(1784903365.820641) can0 12D#000000000000005F R
(1784903365.825775) can0 121#00A601CF048000D9 R
(1784903365.826102) can0 129#00000001000000D0 R
(1784903365.826972) can0 120#00000000000000D4 R
(1784903365.827625) can0 541#000010000004D15C R
(1784903365.830795) can0 12D#000000000000006A R
(1784903365.831195) can0 12E#000000000000C090 R
(1784903365.837844) can0 450#0000000000002800 R
(1784903365.840650) can0 12D#000000000000008B R
(1784903365.840927) can0 12A#10050000000A00DC R
(1784903365.844825) can0 121#00A601CF04800038 R
(1784903365.845167) can0 129#0000000100000031 R
(1784903365.846418) can0 120#0000000000000035 R
(1784903365.848799) can0 541#000010000004D169 R
(1784903365.850730) can0 12D#00000000000000BE R
(1784903365.850971) can0 12E#000000000000C0A5 R
(1784903365.860817) can0 12D#00000000000000D4 R
(1784903365.865661) can0 121#00A601CF04800052 R
(1784903365.866031) can0 129#000000010000005B R
(1784903365.866412) can0 120#000000000000005F R
(1784903365.867630) can0 541#000010000004D188 R
(1784903365.870753) can0 12D#0000000000000035 R
(1784903365.871022) can0 12E#000000000000C0CF R
(1784903365.880659) can0 12D#000000000000005F R
(1784903365.884829) can0 121#00A601CF04800067 R
(1784903365.885078) can0 129#000000010000006E R
(1784903365.885270) can0 540#000040100000ED00 R
(1784903365.885524) can0 5B0#100000000000006B R
(1784903365.886515) can0 120#000000000000006A R
(1784903365.887620) can0 541#000010000004D1BD R
(1784903365.888080) can0 450#0000000000002800 R
(1784903365.890874) can0 12D#000000000000006A R
(1784903365.891208) can0 12E#000000000000C02E R
(1784903365.891291) can0 12A#10050000000A003D R
(1784903365.891559) can0 5A0#0000000004000064 R
(1784903365.900625) can0 12D#000000000000008B R
(1784903365.905831) can0 121#00A601CF04800086 R
(1784903365.906223) can0 129#000000010000008F R
(1784903365.906418) can0 120#000000000000008B R
(1784903365.907685) can0 541#000010000004D1D7 R
(1784903365.910754) can0 12D#00000000000000BE R
(1784903365.911070) can0 12E#000000000000C044 R
(1784903365.920638) can0 12D#00000000000000D4 R
(1784903365.924829) can0 121#00A601CF048000B3 R
(1784903365.925077) can0 129#00000001000000BA R
(1784903365.926469) can0 120#00000000000000BE R
(1784903365.927666) can0 541#000010000004D136 R
(1784903365.930998) can0 12D#0000000000000035 R
(1784903365.931442) can0 12E#000000000000C071 R
(1784903365.937312) can0 450#0000000000002800 R
(1784903365.940676) can0 12D#000000000000005F R
(1784903365.940925) can0 12A#10050000000A0057 R
(1784903365.944854) can0 121#00A601CF048000D9 R
(1784903365.945120) can0 129#00000001000000D0 R
(1784903365.946483) can0 120#00000000000000D4 R
(1784903365.948068) can0 541#000010000004D15C R
(1784903365.951168) can0 12D#000000000000006A R
(1784903365.951558) can0 12E#000000000000C090 R
(1784903365.961101) can0 12D#000000000000008B R
(1784903365.965947) can0 121#00A601CF04800038 R
(1784903365.966267) can0 129#0000000100000031 R
(1784903365.966424) can0 120#0000000000000035 R
(1784903365.967638) can0 541#000010000004D169 R
(1784903365.970773) can0 12D#00000000000000BE R
(1784903365.971133) can0 12E#000000000000C0A5 R
(1784903365.980620) can0 12D#00000000000000D4 R
(1784903365.985333) can0 121#00A601CF04800052 R
(1784903365.985803) can0 129#000000010000005B R
(1784903365.985910) can0 540#000040100000ED00 R
(1784903365.986028) can0 5B0#100000000000008A R
(1784903365.986531) can0 120#000000000000005F R
(1784903365.987650) can0 541#000010000004D188 R
(1784903365.988053) can0 450#0000000000002800 R
(1784903365.991086) can0 12D#0000000000000035 R
(1784903365.991516) can0 12E#000000000000C0CF R
(1784903365.991636) can0 12A#10050000000A0062 R
(1784903365.991725) can0 5A0#0000000004000085 R
(1784903366.000665) can0 12D#000000000000005F R
(1784903366.005629) can0 121#00A601CF04800067 R
(1784903366.005956) can0 129#000000010000006E R
(1784903366.006913) can0 120#000000000000006A R
(1784903366.007669) can0 541#000010000004D1BD R
(1784903366.010763) can0 12D#000000000000006A R
(1784903366.011033) can0 12E#000000000000C02E R
(1784903366.020638) can0 12D#000000000000008B R
(1784903366.025587) can0 121#00A601CF04800086 R
(1784903366.025914) can0 129#000000010000008F R
(1784903366.026418) can0 120#000000000000008B R
(1784903366.027642) can0 541#000010000004D1D7 R
(1784903366.030731) can0 12D#00000000000000BE R
(1784903366.030985) can0 12E#000000000000C044 R
(1784903366.037310) can0 450#0000000000002800 R
(1784903366.040656) can0 12D#00000000000000D4 R
(1784903366.041051) can0 12A#10050000000A0083 R
(1784903366.044864) can0 121#00A601CF048000B3 R
(1784903366.045137) can0 129#00000001000000BA R
(1784903366.047523) can0 120#00000000000000BE R
(1784903366.047925) can0 541#000010000004D136 R
(1784903366.050784) can0 12D#0000000000000035 R
(1784903366.051161) can0 12E#000000000000C071 R
(1784903366.060653) can0 12D#000000000000005F R
(1784903366.065564) can0 121#00A601CF048000D9 R
(1784903366.065873) can0 129#00000001000000D0 R
(1784903366.066427) can0 120#00000000000000D4 R
(1784903366.067639) can0 541#000010000004D253 R
(1784903366.070774) can0 12D#000000000000006A R
(1784903366.071045) can0 12E#000000000000C090 R
(1784903366.080650) can0 12D#000000000000008B R
(1784903366.084861) can0 121#00A601CF04800038 R
(1784903366.085265) can0 129#0000000100000031 R
(1784903366.087470) can0 540#000040100000ED00 R
(1784903366.087704) can0 5B0#10000000000000BF R
(1784903366.087867) can0 120#0000000000000035 R
(1784903366.088018) can0 541#000010000004D266 R
(1784903366.088215) can0 450#0000000000002800 R
(1784903366.090977) can0 12D#00000000000000BE R
(1784903366.091362) can0 12E#000000000000C0A5 R
(1784903366.091457) can0 12A#10050000000A00B6 R
(1784903366.091737) can0 5A0#00000000040000B0 R
(1784903366.100639) can0 12D#00000000000000D4 R
(1784903366.104871) can0 121#00A601CF04800052 R
(1784903366.106522) can0 129#000000010000005B R
(1784903366.106965) can0 120#000000000000005F R
(1784903366.107652) can0 541#000010000004D287 R
(1784903366.110752) can0 12D#0000000000000035 R
(1784903366.111073) can0 12E#000000000000C0CF R
(1784903366.120636) can0 12D#000000000000005F R
(1784903366.124858) can0 121#00A601CF04800067 R
(1784903366.125097) can0 129#000000010000006E R
(1784903366.127242) can0 120#000000000000006A R
(1784903366.127667) can0 541#000010000004D2B2 R
(1784903366.130743) can0 12D#000000000000006A R
(1784903366.131124) can0 12E#000000000000C02E R
(1784903366.137313) can0 450#0000000000002800 R
(1784903366.140675) can0 12D#000000000000008B R
(1784903366.140998) can0 12A#10050000000A00DC R
(1784903366.144916) can0 121#00A601CF04800086 R
(1784903366.145180) can0 129#000000010000008F R
(1784903366.146556) can0 120#000000000000008B R
(1784903366.148341) can0 541#000010000004D2D8 R
(1784903366.151651) can0 12D#00000000000000BE R
(1784903366.152018) can0 12E#000000000000C044 R
(1784903366.160640) can0 12D#00000000000000D4 R
(1784903366.165906) can0 121#00A601CF048000B3 R
(1784903366.166248) can0 129#00000001000000BA R
(1784903366.167050) can0 120#00000000000000BE R
(1784903366.167713) can0 541#000010000004D239 R
(1784903366.170732) can0 12D#0000000000000035 R
(1784903366.171124) can0 12E#000000000000C071 R
(1784903366.180638) can0 12D#000000000000005F R
(1784903366.185396) can0 121#00A601CF048000D9 R
(1784903366.185824) can0 129#00000001000000D0 R
(1784903366.185919) can0 540#000040100000ED00 R
(1784903366.186031) can0 5B0#10000000000000D5 R
(1784903366.186537) can0 120#00000000000000D4 R
(1784903366.189418) can0 541#000010000004D253 R
(1784903366.189838) can0 450#0000000000002800 R
(1784903366.190841) can0 12D#000000000000006A R
(1784903366.191111) can0 12E#000000000000C090 R
(1784903366.191291) can0 12A#10050000000A003D R
(1784903366.191530) can0 5A0#00000000040000DA R
(1784903366.200630) can0 12D#000000000000008B R
(1784903366.205541) can0 121#00A601CF04800038 R
(1784903366.205861) can0 129#0000000100000031 R
(1784903366.206547) can0 120#0000000000000035 R
(1784903366.207751) can0 541#000010000004D266 R
(1784903366.210747) can0 12D#00000000000000BE R
(1784903366.211020) can0 12E#000000000000C0A5 R
(1784903366.220639) can0 12D#00000000000000D4 R
(1784903366.226001) can0 121#00A601CF04800052 R
(1784903366.226484) can0 129#000000010000005B R
(1784903366.226606) can0 120#000000000000005F R
(1784903366.227634) can0 541#000010000004D287 R
(1784903366.230775) can0 12D#0000000000000035 R
(1784903366.231026) can0 12E#000000000000C0CF R
(1784903366.237324) can0 450#0000000000002800 R
(1784903366.240666) can0 12D#000000000000005F R
(1784903366.241103) can0 12A#10050000000A0057 R
(1784903366.244839) can0 121#00A601CF04800067 R
(1784903366.245040) can0 129#000000010000006E R
(1784903366.246437) can0 120#000000000000006A R
(1784903366.247635) can0 541#000010000004D2B2 R
(1784903366.250716) can0 12D#000000000000006A R
(1784903366.250992) can0 12E#000000000000C02E R
(1784903366.260626) can0 12D#000000000000008B R
(1784903366.264875) can0 121#00A601CF04800086 R
(1784903366.265119) can0 129#000000010000008F R
(1784903366.267466) can0 120#000000000000008B R
(1784903366.267875) can0 541#000010000004D2D8 R
(1784903366.271439) can0 12D#00000000000000BE R
(1784903366.271775) can0 12E#000000000000C044 R
(1784903366.280645) can0 12D#00000000000000D4 R
(1784903366.285641) can0 121#00A601CF048000B3 R
(1784903366.285996) can0 129#00000001000000BA R
(1784903366.286092) can0 540#000040100000ED00 R
(1784903366.286278) can0 5B0#1000000000000034 R
(1784903366.286992) can0 120#00000000000000BE R
(1784903366.287723) can0 541#000010000004D239 R
(1784903366.288078) can0 450#0000000000002800 R
(1784903366.290883) can0 12D#0000000000000035 R
(1784903366.291135) can0 12E#000000000000C071 R
(1784903366.291277) can0 12A#10050000000A0062 R
(1784903366.291704) can0 5A0#000000000400003B R
(1784903366.300642) can0 12D#000000000000005F R
(1784903366.304900) can0 121#00A601CF048000D9 R
(1784903366.305171) can0 129#00000001000000D0 R
(1784903366.306465) can0 120#00000000000000D4 R
(1784903366.308612) can0 541#000010000004D253 R
(1784903366.310698) can0 12D#000000000000006A R
(1784903366.310927) can0 12E#000000000000C090 R
(1784903366.320613) can0 12D#000000000000008B R
(1784903366.325439) can0 121#00A601CF04800038 R
(1784903366.325749) can0 129#0000000100000031 R
(1784903366.326710) can0 120#0000000000000035 R
(1784903366.327635) can0 541#000010000004D266 R
(1784903366.330714) can0 12D#00000000000000BE R
(1784903366.330982) can0 12E#000000000000C0A5 R
(1784903366.337335) can0 450#0000000000002800 R
(1784903366.340672) can0 12D#00000000000000D4 R
(1784903366.341013) can0 12A#10050000000A0083 R
(1784903366.344867) can0 121#00A601CF04800052 R
(1784903366.345117) can0 129#000000010000005B R
(1784903366.347695) can0 120#000000000000005F R
(1784903366.348037) can0 541#000010000004D287 R
(1784903366.351224) can0 12D#0000000000000035 R
(1784903366.351560) can0 12E#000000000000C0CF R
(1784903366.360622) can0 12D#000000000000005F R
(1784903366.365670) can0 121#00A601CF04800067 R
(1784903366.366049) can0 129#000000010000006E R
(1784903366.366891) can0 120#000000000000006A R
(1784903366.367670) can0 541#000010000004D2B2 R
(1784903366.370745) can0 12D#000000000000006A R
(1784903366.371017) can0 12E#000000000000C02E R
(1784903366.380600) can0 12D#000000000000008B R
(1784903366.385424) can0 121#00A601CF04800086 R
(1784903366.385806) can0 129#000000010000008F R
(1784903366.385911) can0 540#000040100000ED00 R
(1784903366.386000) can0 5B0#100000000000005E R
(1784903366.386734) can0 120#000000000000008B R
(1784903366.387649) can0 541#000010000004D2D8 R
(1784903366.389968) can0 450#0000000000002800 R
(1784903366.390847) can0 12D#00000000000000BE R
(1784903366.391165) can0 12E#000000000000C044 R
(1784903366.391275) can0 12A#10050000000A00B6 R
(1784903366.391576) can0 5A0#0000000004000051 R
(1784903366.400714) can0 12D#00000000000000D4 R
(1784903366.404886) can0 121#00A601CF048000B3 R
(1784903366.405257) can0 129#00000001000000BA R
(1784903366.406456) can0 120#00000000000000BE R
(1784903366.408749) can0 541#000010000004D239 R
(1784903366.410722) can0 12D#0000000000000035 R
(1784903366.410956) can0 12E#000000000000C071 R
(1784903366.420660) can0 12D#000000000000005F R
(1784903366.425611) can0 121#00A601CF048000D9 R
(1784903366.425926) can0 129#00000001000000D0 R
(1784903366.427203) can0 120#00000000000000D4 R
(1784903366.427688) can0 541#000010000004D253 R
(1784903366.430762) can0 12D#000000000000006A R
(1784903366.431156) can0 12E#000000000000C090 R
(1784903366.437324) can0 450#0000000000002800 R
(1784903366.440678) can0 12D#000000000000008B R
(1784903366.440995) can0 12A#10050000000A00DC R
(1784903366.444878) can0 121#00A601CF04800038 R
(1784903366.445139) can0 129#0000000100000031 R
(1784903366.448077) can0 120#0000000000000035 R
(1784903366.448480) can0 541#000010000004D266 R
(1784903366.450699) can0 12D#00000000000000BE R
(1784903366.450863) can0 12E#000000000000C0A5 R
(1784903366.460626) can0 12D#00000000000000D4 R
(1784903366.465891) can0 121#00A601CF04800052 R
(1784903366.466267) can0 129#000000010000005B R
(1784903366.466485) can0 120#000000000000005F R
(1784903366.467660) can0 541#000010000004D287 R
(1784903366.470735) can0 12D#0000000000000035 R
(1784903366.470991) can0 12E#000000000000C0CF R
(1784903366.480633) can0 12D#000000000000005F R
(1784903366.485782) can0 121#00A601CF04800067 R
(1784903366.486105) can0 129#000000010000006E R
(1784903366.486192) can0 540#000040100000ED00 R
(1784903366.486376) can0 5B0#100000000000006B R
(1784903366.486590) can0 120#000000000000006A R
(1784903366.487666) can0 541#000010000004D2B2 R
(1784903366.488127) can0 450#0000000000002800 R
(1784903366.490897) can0 12D#000000000000006A R
(1784903366.491300) can0 12E#000000000000C02E R
(1784903366.491447) can0 12A#10050000000A003D R
(1784903366.491666) can0 5A0#0000000004000064 R
(1784903366.500621) can0 12D#000000000000008B R
(1784903366.505807) can0 121#00A601CF04800086 R
(1784903366.506145) can0 129#000000010000008F R
(1784903366.506453) can0 120#000000000000008B R
(1784903366.507684) can0 541#000010000004D2D8 R
(1784903366.510742) can0 12D#00000000000000BE R
(1784903366.511056) can0 12E#000000000000C044 R
(1784903366.520610) can0 12D#00000000000000D4 R
(1784903366.525412) can0 121#00A601CF048000B3 R
(1784903366.525729) can0 129#00000001000000BA R
(1784903366.526631) can0 120#00000000000000BE R
(1784903366.527677) can0 541#000010000004D239 R
(1784903366.530710) can0 12D#0000000000000035 R
(1784903366.530982) can0 12E#000000000000C071 R
(1784903366.537383) can0 450#0000000000002800 R
(1784903366.540624) can0 12D#000000000000005F R
(1784903366.540867) can0 12A#10050000000A0057 R
(1784903366.546131) can0 121#00A601CF048000D9 R
(1784903366.546463) can0 129#00000001000000D0 R
(1784903366.546671) can0 120#00000000000000D4 R
(1784903366.547743) can0 541#000010000004D253 R
(1784903366.550823) can0 12D#000000000000006A R
(1784903366.551242) can0 12E#000000000000C090 R
(1784903366.560615) can0 12D#000000000000008B R
(1784903366.565494) can0 121#00A601CF04800038 R
(1784903366.565842) can0 129#0000000100000031 R
(1784903366.566476) can0 120#0000000000000035 R
(1784903366.567650) can0 541#000010000004D266 R
(1784903366.570748) can0 12D#00000000000000BE R
(1784903366.571167) can0 12E#000000000000C0A5 R
(1784903366.581199) can0 12D#00000000000000D4 R
(1784903366.585813) can0 121#00A601CF04800052 R
(1784903366.586270) can0 129#000000010000005B R
(1784903366.586394) can0 540#000040100000ED00 R
(1784903366.587354) can0 5B0#100000000000008A R
(1784903366.587783) can0 120#000000000000005F R
(1784903366.588009) can0 541#000010000004D287 R
(1784903366.588135) can0 450#0000000000002800 R
(1784903366.591202) can0 12D#0000000000000035 R
(1784903366.591674) can0 12E#000000000000C0CF R
(1784903366.591788) can0 12A#10050000000A0062 R
(1784903366.591896) can0 5A0#0000000004000085 R
(1784903366.600645) can0 12D#000000000000005F R
(1784903366.604902) can0 121#00A601CF04800067 R
(1784903366.605155) can0 129#000000010000006E R
(1784903366.607494) can0 120#000000000000006A R
(1784903366.607852) can0 541#000010000004D2B2 R
(1784903366.611007) can0 12D#000000000000006A R
(1784903366.611382) can0 12E#000000000000C02E R
(1784903366.620640) can0 12D#000000000000008B R
(1784903366.624918) can0 121#00A601CF04800086 R
(1784903366.626590) can0 129#000000010000008F R
(1784903366.626917) can0 120#000000000000008B R
(1784903366.627705) can0 541#000010000004D2D8 R
(1784903366.630815) can0 12D#00000000000000BE R
(1784903366.631201) can0 12E#000000000000C044 R
(1784903366.637329) can0 450#0000000000002800 R
(1784903366.640627) can0 12D#00000000000000D4 R
(1784903366.640921) can0 12A#10050000000A0083 R
(1784903366.644892) can0 121#00A601CF048000B3 R
(1784903366.645152) can0 129#00000001000000BA R
(1784903366.647530) can0 120#00000000000000BE R
(1784903366.647921) can0 541#000010000004D239 R
(1784903366.650801) can0 12D#0000000000000035 R
(1784903366.651242) can0 12E#000000000000C071 R
(1784903366.660619) can0 12D#000000000000005F R
(1784903366.665566) can0 121#00A601CF048000D9 R
(1784903366.665928) can0 129#00000001000000D0 R
(1784903366.666476) can0 120#00000000000000D4 R
(1784903366.667874) can0 541#000010000004D253 R
(1784903366.670728) can0 12D#000000000000006A R
(1784903366.670896) can0 12E#000000000000C090 R
(1784903366.680582) can0 12D#000000000000008B R
(1784903366.685641) can0 121#00A601CF04800038 R
(1784903366.685992) can0 129#0000000100000031 R
(1784903366.686097) can0 540#000040100000ED00 R
(1784903366.686285) can0 5B0#10000000000000BF R
(1784903366.686566) can0 120#0000000000000035 R
(1784903366.687669) can0 541#000010000004D266 R
(1784903366.689977) can0 450#0000000000002800 R
(1784903366.690876) can0 12D#00000000000000BE R
(1784903366.691083) can0 12E#000000000000C0A5 R
(1784903366.691303) can0 12A#10050000000A00B6 R
(1784903366.691547) can0 5A0#00000000040000B0 R
(1784903366.700649) can0 12D#00000000000000D4 R
(1784903366.704921) can0 121#00A601CF04800052 R
(1784903366.705162) can0 129#000000010000005B R
(1784903366.706525) can0 120#000000000000005F R
(1784903366.708120) can0 541#000010000004D287 R
(1784903366.711558) can0 12D#0000000000000035 R
(1784903366.711870) can0 12E#000000000000C0CF R
(1784903366.720614) can0 12D#000000000000005F R
(1784903366.725455) can0 121#00A601CF04800067 R
(1784903366.725764) can0 129#000000010000006E R
(1784903366.726681) can0 120#000000000000006A R
(1784903366.727651) can0 541#000010000004D2B2 R
(1784903366.730689) can0 12D#000000000000006A R
(1784903366.730953) can0 12E#000000000000C02E R
(1784903366.737323) can0 450#0000000000002800 R
(1784903366.740715) can0 12D#000000000000008B R
(1784903366.741082) can0 12A#10050000000A00DC R
(1784903366.744920) can0 121#00A601CF04800086 R
(1784903366.745276) can0 129#000000010000008F R
(1784903366.746512) can0 120#000000000000008B R
(1784903366.748545) can0 541#000010000004D2D8 R
(1784903366.750693) can0 12D#00000000000000BE R
(1784903366.750946) can0 12E#000000000000C044 R
(1784903366.761001) can0 12D#00000000000000D4 R
(1784903366.764899) can0 121#00A601CF048000B3 R
(1784903366.765196) can0 129#00000001000000BA R
(1784903366.767931) can0 120#00000000000000BE R
(1784903366.768330) can0 541#000010000004D239 R
(1784903366.770697) can0 12D#0000000000000035 R
(1784903366.770896) can0 12E#000000000000C071 R
(1784903366.780746) can0 12D#000000000000005F R
(1784903366.785675) can0 121#00A601CF048000D9 R
(1784903366.786104) can0 129#00000001000000D0 R
(1784903366.786225) can0 540#000040100000ED00 R
(1784903366.786348) can0 5B0#10000000000000D5 R
(1784903366.786563) can0 120#00000000000000D4 R
(1784903366.787678) can0 541#000010000004D253 R
(1784903366.788094) can0 450#0000000000002800 R
(1784903366.790903) can0 12D#000000000000006A R
(1784903366.791189) can0 12E#000000000000C090 R
(1784903366.791263) can0 12A#10050000000A003D R
(1784903366.791658) can0 5A0#00000000040000DA R
(1784903366.800594) can0 12D#000000000000008B R
(1784903366.805708) can0 121#00A601CF04800038 R
(1784903366.806020) can0 129#0000000100000031 R
(1784903366.806891) can0 120#0000000000000035 R
(1784903366.807705) can0 541#000010000004D266 R
(1784903366.810678) can0 12D#00000000000000BE R
(1784903366.810881) can0 12E#000000000000C0A5 R
(1784903366.820609) can0 12D#00000000000000D4 R
(1784903366.825898) can0 121#00A601CF04800052 R
(1784903366.826221) can0 129#000000010000005B R
(1784903366.826545) can0 120#000000000000005F R
(1784903366.827675) can0 541#000010000004D287 R
(1784903366.830759) can0 12D#0000000000000035 R
(1784903366.831097) can0 12E#000000000000C0CF R
(1784903366.837341) can0 450#0000000000002800 R
(1784903366.840627) can0 12D#000000000000005F R
(1784903366.840930) can0 12A#10050000000A0057 R
(1784903366.844916) can0 121#00A601CF04800067 R
(1784903366.845183) can0 129#000000010000006E R
(1784903366.847579) can0 120#000000000000006A R
(1784903366.847973) can0 541#000010000004D2B2 R
(1784903366.850801) can0 12D#000000000000006A R
(1784903366.851188) can0 12E#000000000000C02E R
(1784903366.860624) can0 12D#000000000000008B R
(1784903366.865974) can0 121#00A601CF04800086 R
(1784903366.866303) can0 129#000000010000008F R
(1784903366.866497) can0 120#000000000000008B R
(1784903366.867750) can0 541#000010000004D2D8 R
(1784903366.870704) can0 12D#00000000000000BE R
(1784903366.870954) can0 12E#000000000000C044 R
(1784903366.880576) can0 12D#00000000000000D4 R
(1784903366.884910) can0 121#00A601CF048000B3 R
(1784903366.885295) can0 129#00000001000000BA R
(1784903366.885387) can0 540#000040100000ED00 R
(1784903366.885621) can0 5B0#1000000000000034 R
(1784903366.886646) can0 120#00000000000000BE R
(1784903366.889068) can0 541#000010000004D239 R
(1784903366.889482) can0 450#0000000000002800 R
(1784903366.890809) can0 12D#0000000000000035 R
(1784903366.890993) can0 12E#000000000000C071 R
(1784903366.891262) can0 12A#10050000000A0062 R
(1784903366.891506) can0 5A0#000000000400003B R
(1784903366.900649) can0 12D#000000000000005F R
(1784903366.904979) can0 121#00A601CF048000D9 R
(1784903366.905386) can0 129#00000001000000D0 R
(1784903366.907473) can0 120#00000000000000D4 R
(1784903366.907797) can0 541#000010000004D253 R
(1784903366.910699) can0 12D#000000000000006A R
(1784903366.910898) can0 12E#000000000000C090 R
(1784903366.920605) can0 12D#000000000000008B R
(1784903366.925465) can0 121#00A601CF04800038 R
(1784903366.925835) can0 129#0000000100000031 R
(1784903366.926876) can0 120#0000000000000035 R
(1784903366.927729) can0 541#000010000004D266 R
(1784903366.930735) can0 12D#00000000000000BE R
(1784903366.930988) can0 12E#000000000000C0A5 R
(1784903366.937333) can0 450#0000000000002800 R
(1784903366.940678) can0 12D#00000000000000D4 R
(1784903366.941034) can0 12A#10050000000A0083 R
(1784903366.944922) can0 121#00A601CF04800052 R
(1784903366.945235) can0 129#000000010000005B R
(1784903366.946550) can0 120#000000000000005F R
(1784903366.947716) can0 541#000010000004D287 R
(1784903366.951494) can0 12D#0000000000000035 R
(1784903366.951814) can0 12E#000000000000C0CF R
(1784903366.960589) can0 12D#000000000000005F R
(1784903366.965405) can0 121#00A601CF04800067 R
(1784903366.965772) can0 129#000000010000006E R
(1784903366.966623) can0 120#000000000000006A R
(1784903366.967667) can0 541#000010000004D2B2 R
(1784903366.970731) can0 12D#000000000000006A R
(1784903366.971052) can0 12E#000000000000C02E R
(1784903366.980631) can0 12D#000000000000008B R
(1784903366.984931) can0 121#00A601CF04800086 R
(1784903366.985391) can0 129#000000010000008F R
(1784903366.987362) can0 540#000040100000ED00 R
(1784903366.987736) can0 5B0#100000000000005E R
(1784903366.987842) can0 120#000000000000008B R
(1784903366.988075) can0 541#000010000004D2D8 R
(1784903366.988285) can0 450#0000000000002800 R
(1784903366.991106) can0 12D#00000000000000BE R
(1784903366.991513) can0 12E#000000000000C044 R
(1784903366.991716) can0 12A#10050000000A00B6 R
(1784903366.991844) can0 5A0#0000000004000051 R
(1784903367.001065) can0 12D#00000000000000D4 R
(1784903367.004915) can0 121#00A601CF048000B3 R
(1784903367.005184) can0 129#00000001000000BA R
(1784903367.006516) can0 120#00000000000000BE R
(1784903367.008739) can0 541#000010000004D239 R
(1784903367.010673) can0 12D#0000000000000035 R
(1784903367.010866) can0 12E#000000000000C071 R
(1784903367.020601) can0 12D#000000000000005F R
(1784903367.025624) can0 121#00A601CF048000D9 R
(1784903367.025981) can0 129#00000001000000D0 R
(1784903367.026995) can0 120#00000000000000D4 R
(1784903367.027756) can0 541#000010000004D253 R
(1784903367.030706) can0 12D#000000000000006A R
(1784903367.030973) can0 12E#000000000000C090 R
(1784903367.037334) can0 450#0000000000002800 R
(1784903367.040973) can0 12D#000000000000008B R
(1784903367.041399) can0 12A#10050000000A00DC R
(1784903367.044953) can0 121#00A601CF04800038 R
(1784903367.045220) can0 129#0000000100000031 R
(1784903367.046546) can0 120#0000000000000035 R
(1784903367.048195) can0 541#000010000004D266 R
(1784903367.050734) can0 12D#00000000000000BE R
(1784903367.052426) can0 12E#000000000000C0A5 R
(1784903367.060611) can0 12D#00000000000000D4 R
(1784903367.065719) can0 121#00A601CF04800052 R
(1784903367.066096) can0 129#000000010000005B R
(1784903367.066520) can0 120#000000000000005F R
(1784903367.067691) can0 541#000010000004D391 R
(1784903367.070713) can0 12D#0000000000000035 R
(1784903367.070981) can0 12E#000000000000C0CF R
(1784903367.080599) can0 12D#000000000000005F R
(1784903367.085479) can0 121#00A601CF04800067 R
(1784903367.085813) can0 129#000000010000006E R
(1784903367.085915) can0 540#000040100000ED00 R
(1784903367.086098) can0 5B0#100000000000006B R
(1784903367.086615) can0 120#000000000000006A R
(1784903367.087759) can0 541#000010000004D3A4 R
(1784903367.088117) can0 450#0000000000002800 R
(1784903367.090870) can0 12D#000000000000006A R
(1784903367.091108) can0 12E#000000000000C02E R
(1784903367.091244) can0 12A#10050000000A003D R
(1784903367.091717) can0 5A0#0000000004000064 R
(1784903367.101096) can0 12D#000000000000008B R
(1784903367.104925) can0 121#00A601CF04800086 R
(1784903367.105174) can0 129#000000010000008F R
(1784903367.107374) can0 120#000000000000008B R
(1784903367.107788) can0 541#000010000004D3CE R
(1784903367.110962) can0 12D#00000000000000BE R
(1784903367.111334) can0 12E#000000000000C044 R
(1784903367.120623) can0 12D#00000000000000D4 R
(1784903367.125652) can0 121#00A601CF048000B3 R
(1784903367.126030) can0 129#00000001000000BA R
(1784903367.126520) can0 120#00000000000000BE R
(1784903367.127656) can0 541#000010000004D32F R
(1784903367.130756) can0 12D#0000000000000035 R
(1784903367.131126) can0 12E#000000000000C071 R
(1784903367.137350) can0 450#0000000000002800 R
(1784903367.140644) can0 12D#000000000000005F R
(1784903367.140886) can0 12A#10050000000A0057 R
(1784903367.144983) can0 121#00A601CF048000D9 R
(1784903367.146794) can0 129#00000001000000D0 R
(1784903367.147116) can0 120#00000000000000D4 R
(1784903367.147665) can0 541#000010000004D345 R
(1784903367.150712) can0 12D#000000000000006A R
(1784903367.151079) can0 12E#000000000000C090 R
(1784903367.160589) can0 12D#000000000000008B R
(1784903367.164938) can0 121#00A601CF04800038 R
(1784903367.165246) can0 129#0000000100000031 R
(1784903367.166536) can0 120#0000000000000035 R
(1784903367.168143) can0 541#000010000004D370 R
(1784903367.171584) can0 12D#00000000000000BE R
(1784903367.171966) can0 12E#000000000000C0A5 R
(1784903367.180619) can0 12D#00000000000000D4 R
(1784903367.184939) can0 121#00A601CF04800052 R
(1784903367.185269) can0 129#000000010000005B R
(1784903367.185378) can0 540#000040100000ED00 R
(1784903367.186151) can0 5B0#100000000000008A R
(1784903367.186830) can0 120#000000000000005F R
(1784903367.189357) can0 541#000010000004D391 R
(1784903367.189766) can0 450#0000000000002800 R
(1784903367.190921) can0 12D#0000000000000035 R
(1784903367.191091) can0 12E#000000000000C0CF R
(1784903367.191243) can0 12A#10050000000A0062 R
(1784903367.191630) can0 5A0#0000000004000085 R
(1784903367.200620) can0 12D#000000000000005F R
(1784903367.204960) can0 121#00A601CF04800067 R
(1784903367.206647) can0 129#000000010000006E R
(1784903367.206802) can0 120#000000000000006A R
(1784903367.207702) can0 541#000010000004D3A4 R
(1784903367.210803) can0 12D#000000000000006A R
(1784903367.211071) can0 12E#000000000000C02E R
(1784903367.220581) can0 12D#000000000000008B R
(1784903367.225260) can0 121#00A601CF04800086 R
(1784903367.225674) can0 129#000000010000008F R
(1784903367.226581) can0 120#000000000000008B R
(1784903367.227666) can0 541#000010000004D3CE R
(1784903367.230689) can0 12D#00000000000000BE R
(1784903367.230940) can0 12E#000000000000C044 R
(1784903367.237358) can0 450#0000000000002800 R
(1784903367.240586) can0 12D#00000000000000D4 R
(1784903367.241053) can0 12A#10050000000A0083 R
(1784903367.244949) can0 121#00A601CF048000B3 R
(1784903367.245215) can0 129#00000001000000BA R
(1784903367.246586) can0 120#00000000000000BE R
(1784903367.248517) can0 541#000010000004D32F R
(1784903367.251415) can0 12D#0000000000000035 R
(1784903367.251729) can0 12E#000000000000C071 R
(1784903367.260627) can0 12D#000000000000005F R
(1784903367.264985) can0 121#00A601CF048000D9 R
(1784903367.266717) can0 129#00000001000000D0 R
(1784903367.267109) can0 120#00000000000000D4 R
(1784903367.267677) can0 541#000010000004D345 R
(1784903367.270706) can0 12D#000000000000006A R
(1784903367.270955) can0 12E#000000000000C090 R
(1784903367.280596) can0 12D#000000000000008B R
(1784903367.285734) can0 121#00A601CF04800038 R
(1784903367.286094) can0 129#0000000100000031 R
(1784903367.286193) can0 540#000040100000ED00 R
(1784903367.286365) can0 5B0#10000000000000BF R
(1784903367.287073) can0 120#0000000000000035 R
(1784903367.287726) can0 541#000010000004D370 R
(1784903367.288148) can0 450#0000000000002800 R
(1784903367.290879) can0 12D#00000000000000BE R
(1784903367.291136) can0 12E#000000000000C0A5 R
(1784903367.291233) can0 12A#10050000000A00B6 R
(1784903367.291633) can0 5A0#00000000040000B0 R
(1784903367.300597) can0 12D#00000000000000D4 R
(1784903367.305570) can0 121#00A601CF04800052 R
(1784903367.305890) can0 129#000000010000005B R
(1784903367.306822) can0 120#000000000000005F R
(1784903367.307777) can0 541#000010000004D391 R
(1784903367.310684) can0 12D#0000000000000035 R
(1784903367.310943) can0 12E#000000000000C0CF R
(1784903367.320608) can0 12D#000000000000005F R
(1784903367.325364) can0 121#00A601CF04800067 R
(1784903367.325699) can0 129#000000010000006E R
(1784903367.326644) can0 120#000000000000006A R
(1784903367.327789) can0 541#000010000004D3A4 R
(1784903367.330735) can0 12D#000000000000006A R
(1784903367.330972) can0 12E#000000000000C02E R
(1784903367.337350) can0 450#0000000000002800 R
(1784903367.340642) can0 12D#000000000000008B R
(1784903367.340981) can0 12A#10050000000A00DC R
(1784903367.345978) can0 121#00A601CF04800086 R
(1784903367.346346) can0 129#000000010000008F R
(1784903367.346614) can0 120#000000000000008B R
(1784903367.347714) can0 541#000010000004D3CE R
(1784903367.350708) can0 12D#00000000000000BE R
(1784903367.351020) can0 12E#000000000000C044 R
(1784903367.360577) can0 12D#00000000000000D4 R
(1784903367.366016) can0 121#00A601CF048000B3 R
(1784903367.366450) can0 129#00000001000000BA R
(1784903367.366557) can0 120#00000000000000BE R
(1784903367.367724) can0 541#000010000004D32F R
(1784903367.371044) can0 12D#0000000000000035 R
(1784903367.371445) can0 12E#000000000000C071 R
(1784903367.380577) can0 12D#000000000000005F R
(1784903367.385418) can0 121#00A601CF048000D9 R
(1784903367.385882) can0 129#00000001000000D0 R
(1784903367.385984) can0 540#000040100000ED00 R
(1784903367.386106) can0 5B0#10000000000000D5 R
(1784903367.386702) can0 120#00000000000000D4 R
(1784903367.387776) can0 541#000010000004D345 R
(1784903367.389809) can0 450#0000000000002800 R
(1784903367.390808) can0 12D#000000000000006A R
(1784903367.391033) can0 12E#000000000000C090 R
(1784903367.391289) can0 12A#10050000000A003D R
(1784903367.391522) can0 5A0#00000000040000DA R
(1784903367.400595) can0 12D#000000000000008B R
(1784903367.405517) can0 121#00A601CF04800038 R
(1784903367.405830) can0 129#0000000100000031 R
(1784903367.406536) can0 120#0000000000000035 R
(1784903367.407676) can0 541#000010000004D370 R
(1784903367.410727) can0 12D#00000000000000BE R
(1784903367.410986) can0 12E#000000000000C0A5 R
(1784903367.420616) can0 12D#00000000000000D4 R
(1784903367.424983) can0 121#00A601CF04800052 R
(1784903367.426798) can0 129#000000010000005B R
(1784903367.427107) can0 120#000000000000005F R
(1784903367.427676) can0 541#000010000004D391 R
(1784903367.430669) can0 12D#0000000000000035 R
(1784903367.430947) can0 12E#000000000000C0CF R
(1784903367.437352) can0 450#0000000000002800 R
(1784903367.440615) can0 12D#000000000000005F R
(1784903367.440919) can0 12A#10050000000A0057 R
(1784903367.446008) can0 121#00A601CF04800067 R
(1784903367.446351) can0 129#000000010000006E R
(1784903367.446536) can0 120#000000000000006A R
(1784903367.447789) can0 541#000010000004D3A4 R
(1784903367.450719) can0 12D#000000000000006A R
(1784903367.451092) can0 12E#000000000000C02E R
(1784903367.460612) can0 12D#000000000000008B R
(1784903367.465424) can0 121#00A601CF04800086 R
(1784903367.465775) can0 129#000000010000008F R
(1784903367.466629) can0 120#000000000000008B R
(1784903367.467786) can0 541#000010000004D3CE R
(1784903367.470734) can0 12D#00000000000000BE R
(1784903367.471117) can0 12E#000000000000C044 R
(1784903367.480600) can0 12D#00000000000000D4 R
(1784903367.486140) can0 121#00A601CF048000B3 R
(1784903367.486446) can0 129#00000001000000BA R
(1784903367.486550) can0 540#000040100000ED00 R
(1784903367.486731) can0 5B0#1000000000000034 R
(1784903367.486853) can0 120#00000000000000BE R
(1784903367.487702) can0 541#000010000004D32F R
(1784903367.488127) can0 450#0000000000002800 R
(1784903367.490865) can0 12D#0000000000000035 R
(1784903367.491251) can0 12E#000000000000C071 R
(1784903367.491347) can0 12A#10050000000A0062 R
(1784903367.491543) can0 5A0#000000000400003B R
(1784903367.500771) can0 12D#000000000000005F R
(1784903367.505741) can0 121#00A601CF048000D9 R
(1784903367.506100) can0 129#00000001000000D0 R
(1784903367.506547) can0 120#00000000000000D4 R
(1784903367.507687) can0 541#000010000004D345 R
(1784903367.510702) can0 12D#000000000000006A R
(1784903367.510989) can0 12E#000000000000C090 R
(1784903367.520562) can0 12D#000000000000008B R
(1784903367.524971) can0 121#00A601CF04800038 R
(1784903367.525222) can0 129#0000000100000031 R
(1784903367.527831) can0 120#0000000000000035 R
(1784903367.528186) can0 541#000010000004D370 R
(1784903367.531376) can0 12D#00000000000000BE R
(1784903367.531680) can0 12E#000000000000C0A5 R
(1784903367.538005) can0 450#0000000000002800 R
(1784903367.540635) can0 12D#00000000000000D4 R
(1784903367.540895) can0 12A#10050000000A0083 R
(1784903367.544975) can0 121#00A601CF04800052 R
(1784903367.546197) can0 129#000000010000005B R
(1784903367.546591) can0 120#000000000000005F R
(1784903367.547728) can0 541#000010000004D391 R
(1784903367.551040) can0 12D#0000000000000035 R
(1784903367.551444) can0 12E#000000000000C0CF R
(1784903367.560583) can0 12D#000000000000005F R
(1784903367.565355) can0 121#00A601CF04800067 R
(1784903367.565757) can0 129#000000010000006E R
(1784903367.566818) can0 120#000000000000006A R
(1784903367.567743) can0 541#000010000004D3A4 R
(1784903367.570668) can0 12D#000000000000006A R
(1784903367.571002) can0 12E#000000000000C02E R
(1784903367.580927) can0 12D#000000000000008B R
(1784903367.585023) can0 121#00A601CF04800086 R
(1784903367.585384) can0 129#000000010000008F R
(1784903367.585588) can0 540#000040100000ED00 R
(1784903367.588497) can0 5B0#100000000000005E R
(1784903367.588846) can0 120#000000000000008B R
(1784903367.589056) can0 541#000010000004D3CE R
(1784903367.589175) can0 450#0000000000002800 R
(1784903367.593457) can0 12D#00000000000000BE R
(1784903367.593808) can0 12E#000000000000C044 R
(1784903367.593979) can0 12A#10050000000A00B6 R
(1784903367.594086) can0 5A0#0000000004000051 R
(1784903367.601471) can0 12D#00000000000000D4 R
(1784903367.605023) can0 121#00A601CF048000B3 R
(1784903367.605342) can0 129#00000001000000BA R
(1784903367.606573) can0 120#00000000000000BE R
(1784903367.608993) can0 541#000010000004D32F R
(1784903367.610698) can0 12D#0000000000000035 R
(1784903367.610873) can0 12E#000000000000C071 R
(1784903367.620600) can0 12D#000000000000005F R
(1784903367.625907) can0 121#00A601CF048000D9 R
(1784903367.626234) can0 129#00000001000000D0 R
(1784903367.626543) can0 120#00000000000000D4 R
(1784903367.627696) can0 541#000010000004D345 R
(1784903367.631434) can0 12D#000000000000006A R
(1784903367.631797) can0 12E#000000000000C090 R
(1784903367.637362) can0 450#0000000000002800 R
(1784903367.640607) can0 12D#000000000000008B R
(1784903367.640866) can0 12A#10050000000A00DC R
(1784903367.645003) can0 121#00A601CF04800038 R
(1784903367.645437) can0 129#0000000100000031 R
(1784903367.646578) can0 120#0000000000000035 R
(1784903367.648904) can0 541#000010000004D370 R
(1784903367.650673) can0 12D#00000000000000BE R
(1784903367.650918) can0 12E#000000000000C0A5 R
(1784903367.660569) can0 12D#00000000000000D4 R
(1784903367.665740) can0 121#00A601CF04800052 R
(1784903367.666046) can0 129#000000010000005B R
(1784903367.666929) can0 120#000000000000005F R
(1784903367.667735) can0 541#000010000004D391 R
(1784903367.670726) can0 12D#0000000000000035 R
(1784903367.671200) can0 12E#000000000000C0CF R
(1784903367.680602) can0 12D#000000000000005F R
(1784903367.685504) can0 121#00A601CF04800067 R
(1784903367.685896) can0 129#000000010000006E R
(1784903367.686104) can0 540#000040100000ED00 R
(1784903367.686192) can0 5B0#100000000000006B R
(1784903367.686913) can0 120#000000000000006A R
(1784903367.687739) can0 541#000010000004D3A4 R
(1784903367.688203) can0 450#0000000000002800 R
(1784903367.690848) can0 12D#000000000000006A R
(1784903367.691236) can0 12E#000000000000C02E R
(1784903367.691516) can0 12A#10050000000A003D R
(1784903367.691661) can0 5A0#0000000004000064 R
(1784903367.700746) can0 12D#000000000000008B R
(1784903367.705513) can0 121#00A601CF04800086 R
(1784903367.705911) can0 129#000000010000008F R
(1784903367.706732) can0 120#000000000000008B R
(1784903367.707743) can0 541#000010000004D3CE R
(1784903367.710694) can0 12D#00000000000000BE R
(1784903367.711026) can0 12E#000000000000C044 R
(1784903367.720572) can0 12D#00000000000000D4 R
(1784903367.725522) can0 121#00A601CF048000B3 R
(1784903367.725880) can0 129#00000001000000BA R
(1784903367.726671) can0 120#00000000000000BE R
(1784903367.727704) can0 541#000010000004D32F R
(1784903367.730611) can0 12D#0000000000000035 R
(1784903367.730835) can0 12E#000000000000C071 R
(1784903367.737347) can0 450#0000000000002800 R
(1784903367.740611) can0 12D#000000000000005F R
(1784903367.740897) can0 12A#10050000000A0057 R
(1784903367.745968) can0 121#00A601CF048000D9 R
(1784903367.746291) can0 129#00000001000000D0 R
(1784903367.746537) can0 120#00000000000000D4 R
(1784903367.747710) can0 541#000010000004D345 R
(1784903367.750720) can0 12D#000000000000006A R
(1784903367.751132) can0 12E#000000000000C090 R
(1784903367.760605) can0 12D#000000000000008B R
(1784903367.765713) can0 121#00A601CF04800038 R
(1784903367.766036) can0 129#0000000100000031 R
(1784903367.766853) can0 120#0000000000000035 R
(1784903367.767694) can0 541#000010000004D370 R
(1784903367.770698) can0 12D#00000000000000BE R
(1784903367.770964) can0 12E#000000000000C0A5 R
(1784903367.780564) can0 12D#00000000000000D4 R
(1784903367.784990) can0 121#00A601CF04800052 R
(1784903367.785253) can0 129#000000010000005B R
(1784903367.785398) can0 540#000040100000ED00 R
(1784903367.785652) can0 5B0#100000000000008A R
(1784903367.787807) can0 120#000000000000005F R
(1784903367.787983) can0 541#000010000004D391 R
(1784903367.788134) can0 450#0000000000002800 R
(1784903367.791459) can0 12D#0000000000000035 R
(1784903367.791857) can0 12E#000000000000C0CF R
(1784903367.791946) can0 12A#10050000000A0062 R
(1784903367.792038) can0 5A0#0000000004000085 R
(1784903367.800583) can0 12D#000000000000005F R
(1784903367.805283) can0 121#00A601CF04800067 R
(1784903367.805662) can0 129#000000010000006E R
(1784903367.806642) can0 120#000000000000006A R
(1784903367.807700) can0 541#000010000004D3A4 R
(1784903367.810707) can0 12D#000000000000006A R
(1784903367.810977) can0 12E#000000000000C02E R
(1784903367.820588) can0 12D#000000000000008B R
(1784903367.824990) can0 121#00A601CF04800086 R
(1784903367.825355) can0 129#000000010000008F R
(1784903367.827252) can0 120#000000000000008B R
(1784903367.827768) can0 541#000010000004D3CE R
(1784903367.830686) can0 12D#00000000000000BE R
(1784903367.830883) can0 12E#000000000000C044 R
(1784903367.837373) can0 450#0000000000002800 R
(1784903367.840609) can0 12D#00000000000000D4 R
(1784903367.840855) can0 12A#10050000000A0083 R
(1784903367.845011) can0 121#00A601CF048000B3 R
(1784903367.845279) can0 129#00000001000000BA R
(1784903367.846598) can0 120#00000000000000BE R
(1784903367.849104) can0 541#000010000004D32F R
(1784903367.850664) can0 12D#0000000000000035 R
(1784903367.850904) can0 12E#000000000000C071 R
(1784903367.860572) can0 12D#000000000000005F R
(1784903367.865288) can0 121#00A601CF048000D9 R
(1784903367.865658) can0 129#00000001000000D0 R
(1784903367.866656) can0 120#00000000000000D4 R
(1784903367.867727) can0 541#000010000004D345 R
(1784903367.870681) can0 12D#000000000000006A R
(1784903367.870979) can0 12E#000000000000C090 R
(1784903367.880583) can0 12D#000000000000008B R
(1784903367.884998) can0 121#00A601CF04800038 R
(1784903367.885239) can0 129#0000000100000031 R
(1784903367.885421) can0 540#000040100000ED00 R
(1784903367.885683) can0 5B0#10000000000000BF R
(1784903367.888129) can0 120#0000000000000035 R
(1784903367.888530) can0 541#000010000004D370 R
(1784903367.888728) can0 450#0000000000002800 R
(1784903367.890872) can0 12D#00000000000000BE R
(1784903367.891272) can0 12E#000000000000C0A5 R
(1784903367.891469) can0 12A#10050000000A00B6 R
(1784903367.891586) can0 5A0#00000000040000B0 R
(1784903367.900588) can0 12D#00000000000000D4 R
(1784903367.906018) can0 121#00A601CF04800052 R
(1784903367.906394) can0 129#000000010000005B R
(1784903367.906607) can0 120#000000000000005F R
(1784903367.907752) can0 541#000010000004D391 R
(1784903367.910685) can0 12D#0000000000000035 R
(1784903367.911004) can0 12E#000000000000C0CF R
(1784903367.920580) can0 12D#000000000000005F R
(1784903367.925415) can0 121#00A601CF04800067 R
(1784903367.925799) can0 129#000000010000006E R
(1784903367.926668) can0 120#000000000000006A R
(1784903367.927743) can0 541#000010000004D3A4 R
(1784903367.930682) can0 12D#000000000000006A R
(1784903367.931164) can0 12E#000000000000C02E R
(1784903367.937389) can0 450#0000000000002800 R
(1784903367.940582) can0 12D#000000000000008B R
(1784903367.940948) can0 12A#10050000000A00DC R
(1784903367.945008) can0 121#00A601CF04800086 R
(1784903367.945284) can0 129#000000010000008F R
(1784903367.946895) can0 120#000000000000008B R
(1784903367.947788) can0 541#000010000004D3CE R
(1784903367.951331) can0 12D#00000000000000BE R
(1784903367.951690) can0 12E#000000000000C044 R
(1784903367.960592) can0 12D#00000000000000D4 R
(1784903367.965913) can0 121#00A601CF048000B3 R
(1784903367.966224) can0 129#00000001000000BA R
(1784903367.966579) can0 120#00000000000000BE R
(1784903367.967694) can0 541#000010000004D32F R
(1784903367.970712) can0 12D#0000000000000035 R
(1784903367.970980) can0 12E#000000000000C071 R
(1784903367.980584) can0 12D#000000000000005F R
(1784903367.985012) can0 121#00A601CF048000D9 R
(1784903367.985338) can0 129#00000001000000D0 R
(1784903367.985436) can0 540#000040100000ED00 R
(1784903367.985667) can0 5B0#10000000000000D5 R
(1784903367.986711) can0 120#00000000000000D4 R
(1784903367.989361) can0 541#000010000004D345 R
(1784903367.989767) can0 450#0000000000002800 R
(1784903367.990782) can0 12D#000000000000006A R
(1784903367.991008) can0 12E#000000000000C090 R
(1784903367.991215) can0 12A#10050000000A003D R
(1784903367.991470) can0 5A0#00000000040000DA R
(1784903368.000576) can0 12D#000000000000008B R
(1784903368.005562) can0 121#00A601CF04800038 R
(1784903368.005852) can0 129#0000000100000031 R
(1784903368.006662) can0 120#0000000000000035 R
(1784903368.007720) can0 541#000010000004D370 R
(1784903368.010689) can0 12D#00000000000000BE R
(1784903368.010946) can0 12E#000000000000C0A5 R
(1784903368.020583) can0 12D#00000000000000D4 R
(1784903368.025613) can0 121#00A601CF04800052 R
(1784903368.025928) can0 129#000000010000005B R
(1784903368.026614) can0 120#000000000000005F R
(1784903368.027702) can0 541#000010000004D391 R
(1784903368.030711) can0 12D#0000000000000035 R
(1784903368.030991) can0 12E#000000000000C0CF R
(1784903368.037371) can0 450#0000000000002800 R
(1784903368.040627) can0 12D#000000000000005F R
(1784903368.040998) can0 12A#10050000000A0057 R
(1784903368.045083) can0 121#00A601CF04800067 R
(1784903368.045347) can0 129#000000010000006E R
(1784903368.047948) can0 120#000000000000006A R
(1784903368.048343) can0 541#000010000004D3A4 R
(1784903368.050681) can0 12D#000000000000006A R
(1784903368.052374) can0 12E#000000000000C02E R
(1784903368.060552) can0 12D#000000000000008B R
(1784903368.065283) can0 121#00A601CF04800086 R
(1784903368.065616) can0 129#000000010000008F R
(1784903368.066888) can0 120#000000000000008B R
(1784903368.067770) can0 541#000010000004D4C6 R
(1784903368.070657) can0 12D#00000000000000BE R
(1784903368.070865) can0 12E#000000000000C044 R
(1784903368.080536) can0 12D#00000000000000D4 R
(1784903368.085022) can0 121#00A601CF048000B3 R
(1784903368.085285) can0 129#00000001000000BA R
(1784903368.085468) can0 540#000040100000ED00 R
(1784903368.085701) can0 5B0#1000000000000034 R
(1784903368.088027) can0 120#00000000000000BE R
(1784903368.088419) can0 541#000010000004D427 R
(1784903368.088623) can0 450#0000000000002800 R
(1784903368.091788) can0 12D#0000000000000035 R
(1784903368.092200) can0 12E#000000000000C071 R
(1784903368.092296) can0 12A#10050000000A0062 R
(1784903368.092490) can0 5A0#000000000400003B R
(1784903368.100596) can0 12D#000000000000005F R
(1784903368.105328) can0 121#00A601CF048000D9 R
(1784903368.105752) can0 129#00000001000000D0 R
(1784903368.106723) can0 120#00000000000000D4 R
(1784903368.107713) can0 541#000010000004D44D R
(1784903368.110717) can0 12D#000000000000006A R
(1784903368.111039) can0 12E#000000000000C090 R
(1784903368.120581) can0 12D#000000000000008B R
(1784903368.126053) can0 121#00A601CF04800038 R
(1784903368.126377) can0 129#0000000100000031 R
(1784903368.126595) can0 120#0000000000000035 R
(1784903368.127756) can0 541#000010000004D478 R
(1784903368.130668) can0 12D#00000000000000BE R
(1784903368.131072) can0 12E#000000000000C0A5 R
(1784903368.137369) can0 450#0000000000002800 R
(1784903368.140586) can0 12D#00000000000000D4 R
(1784903368.140828) can0 12A#10050000000A0083 R
(1784903368.145037) can0 121#00A601CF04800052 R
(1784903368.145484) can0 129#000000010000005B R
(1784903368.147428) can0 120#000000000000005F R
(1784903368.147696) can0 541#000010000004D499 R
(1784903368.150843) can0 12D#0000000000000035 R
(1784903368.151228) can0 12E#000000000000C0CF R
(1784903368.160594) can0 12D#000000000000005F R
(1784903368.165477) can0 121#00A601CF04800067 R
(1784903368.165807) can0 129#000000010000006E R
(1784903368.166625) can0 120#000000000000006A R
(1784903368.167691) can0 541#000010000004D4AC R
(1784903368.170708) can0 12D#000000000000006A R
(1784903368.171101) can0 12E#000000000000C02E R
(1784903368.180596) can0 12D#000000000000008B R
(1784903368.185586) can0 121#00A601CF04800086 R
(1784903368.185952) can0 129#000000010000008F R
(1784903368.186060) can0 540#000040100000ED00 R
(1784903368.186162) can0 5B0#100000000000005E R
(1784903368.187157) can0 120#000000000000008B R
(1784903368.188031) can0 541#000010000004D4C6 R
(1784903368.190208) can0 450#0000000000002800 R
(1784903368.190845) can0 12D#00000000000000BE R
(1784903368.191152) can0 12E#000000000000C044 R
(1784903368.191318) can0 12A#10050000000A00B6 R
(1784903368.191478) can0 5A0#0000000004000051 R
(1784903368.200558) can0 12D#00000000000000D4 R
(1784903368.205032) can0 121#00A601CF048000B3 R
(1784903368.205294) can0 129#00000001000000BA R
(1784903368.206635) can0 120#00000000000000BE R
(1784903368.208071) can0 541#000010000004D427 R
(1784903368.210665) can0 12D#0000000000000035 R
(1784903368.212257) can0 12E#000000000000C071 R
(1784903368.220575) can0 12D#000000000000005F R
(1784903368.225391) can0 121#00A601CF048000D9 R
(1784903368.225749) can0 129#00000001000000D0 R
(1784903368.226633) can0 120#00000000000000D4 R
(1784903368.227789) can0 541#000010000004D44D R
(1784903368.230699) can0 12D#000000000000006A R
(1784903368.230970) can0 12E#000000000000C090 R
(1784903368.237373) can0 450#0000000000002800 R
(1784903368.240593) can0 12D#000000000000008B R
(1784903368.240846) can0 12A#10050000000A00DC R
(1784903368.245057) can0 121#00A601CF04800038 R
(1784903368.245320) can0 129#0000000100000031 R
(1784903368.248060) can0 120#0000000000000035 R
(1784903368.248447) can0 541#000010000004D478 R
(1784903368.251302) can0 12D#00000000000000BE R
(1784903368.251661) can0 12E#000000000000C0A5 R
(1784903368.260562) can0 12D#00000000000000D4 R
(1784903368.265460) can0 121#00A601CF04800052 R
(1784903368.265782) can0 129#000000010000005B R
(1784903368.266675) can0 120#000000000000005F R
(1784903368.267740) can0 541#000010000004D499 R
(1784903368.270671) can0 12D#0000000000000035 R
(1784903368.270932) can0 12E#000000000000C0CF R
(1784903368.280559) can0 12D#000000000000005F R
(1784903368.285659) can0 121#00A601CF04800067 R
(1784903368.285995) can0 129#000000010000006E R
(1784903368.286185) can0 540#000040100000ED00 R
(1784903368.286274) can0 5B0#100000000000006B R
(1784903368.286689) can0 120#000000000000006A R
(1784903368.287731) can0 541#000010000004D4AC R
(1784903368.288180) can0 450#0000000000002800 R
(1784903368.290789) can0 12D#000000000000006A R
(1784903368.291127) can0 12E#000000000000C02E R
(1784903368.291242) can0 12A#10050000000A003D R
(1784903368.291471) can0 5A0#0000000004000064 R
(1784903368.300697) can0 12D#000000000000008B R
(1784903368.306086) can0 121#00A601CF04800086 R
(1784903368.306471) can0 129#000000010000008F R
(1784903368.306598) can0 120#000000000000008B R
(1784903368.307804) can0 541#000010000004D4C6 R
(1784903368.310720) can0 12D#00000000000000BE R
(1784903368.311029) can0 12E#000000000000C044 R
(1784903368.320570) can0 12D#00000000000000D4 R
(1784903368.325520) can0 121#00A601CF048000B3 R
(1784903368.325825) can0 129#00000001000000BA R
(1784903368.326892) can0 120#00000000000000BE R
(1784903368.327784) can0 541#000010000004D427 R
(1784903368.330664) can0 12D#0000000000000035 R
(1784903368.330984) can0 12E#000000000000C071 R
(1784903368.337362) can0 450#0000000000002800 R
(1784903368.340588) can0 12D#000000000000005F R
(1784903368.340833) can0 12A#10050000000A0057 R
(1784903368.345043) can0 121#00A601CF048000D9 R
(1784903368.345304) can0 129#00000001000000D0 R
(1784903368.346633) can0 120#00000000000000D4 R
(1784903368.348252) can0 541#000010000004D44D R
(1784903368.351666) can0 12D#000000000000006A R
(1784903368.352045) can0 12E#000000000000C090 R
(1784903368.360546) can0 12D#000000000000008B R
(1784903368.366139) can0 121#00A601CF04800038 R
(1784903368.366456) can0 129#0000000100000031 R
(1784903368.366626) can0 120#0000000000000035 R
(1784903368.367761) can0 541#000010000004D478 R
(1784903368.370704) can0 12D#00000000000000BE R
(1784903368.370980) can0 12E#000000000000C0A5 R
(1784903368.380591) can0 12D#00000000000000D4 R
(1784903368.385704) can0 121#00A601CF04800052 R
(1784903368.386081) can0 129#000000010000005B R
(1784903368.386184) can0 540#000040100000ED00 R
(1784903368.386268) can0 5B0#100000000000008A R
(1784903368.387029) can0 120#000000000000005F R
(1784903368.387780) can0 541#000010000004D499 R
(1784903368.388433) can0 450#0000000000002800 R
(1784903368.390823) can0 12D#0000000000000035 R
(1784903368.391101) can0 12E#000000000000C0CF R
(1784903368.391235) can0 12A#10050000000A0062 R
(1784903368.391478) can0 5A0#0000000004000085 R
(1784903368.400564) can0 12D#000000000000005F R
(1784903368.405046) can0 121#00A601CF04800067 R
(1784903368.405461) can0 129#000000010000006E R
(1784903368.407431) can0 120#000000000000006A R
(1784903368.407842) can0 541#000010000004D4AC R
(1784903368.410728) can0 12D#000000000000006A R
(1784903368.411132) can0 12E#000000000000C02E R
(1784903368.420541) can0 12D#000000000000008B R
(1784903368.425101) can0 121#00A601CF04800086 R
(1784903368.425381) can0 129#000000010000008F R
(1784903368.427402) can0 120#000000000000008B R
(1784903368.427817) can0 541#000010000004D4C6 R
(1784903368.430715) can0 12D#00000000000000BE R
(1784903368.431010) can0 12E#000000000000C044 R
(1784903368.437386) can0 450#0000000000002800 R
(1784903368.440589) can0 12D#00000000000000D4 R
(1784903368.440865) can0 12A#10050000000A0083 R
(1784903368.445229) can0 121#00A601CF048000B3 R
(1784903368.445503) can0 129#00000001000000BA R
(1784903368.446825) can0 120#00000000000000BE R
(1784903368.447770) can0 541#000010000004D427 R
(1784903368.450672) can0 12D#0000000000000035 R
(1784903368.450931) can0 12E#000000000000C071 R
(1784903368.460598) can0 12D#000000000000005F R
(1784903368.465084) can0 121#00A601CF048000D9 R
(1784903368.465464) can0 129#00000001000000D0 R
(1784903368.467593) can0 120#00000000000000D4 R
(1784903368.467947) can0 541#000010000004D44D R
(1784903368.471453) can0 12D#000000000000006A R
(1784903368.471749) can0 12E#000000000000C090 R
(1784903368.480552) can0 12D#000000000000008B R
(1784903368.485416) can0 121#00A601CF04800038 R
(1784903368.485747) can0 129#0000000100000031 R
(1784903368.485958) can0 540#000040100000ED00 R
(1784903368.486044) can0 5B0#10000000000000BF R
(1784903368.486805) can0 120#0000000000000035 R
(1784903368.487773) can0 541#000010000004D478 R
(1784903368.488198) can0 450#0000000000002800 R
(1784903368.490800) can0 12D#00000000000000BE R
(1784903368.491024) can0 12E#000000000000C0A5 R
(1784903368.491173) can0 12A#10050000000A00B6 R
(1784903368.491644) can0 5A0#00000000040000B0 R
(1784903368.501105) can0 12D#00000000000000D4 R
(1784903368.505970) can0 121#00A601CF04800052 R
(1784903368.506427) can0 129#000000010000005B R
(1784903368.506649) can0 120#000000000000005F R
(1784903368.507746) can0 541#000010000004D499 R
(1784903368.510705) can0 12D#0000000000000035 R
(1784903368.511025) can0 12E#000000000000C0CF R
(1784903368.520582) can0 12D#000000000000005F R
(1784903368.525304) can0 121#00A601CF04800067 R
(1784903368.525676) can0 129#000000010000006E R
(1784903368.526676) can0 120#000000000000006A R
(1784903368.527723) can0 541#000010000004D4AC R
(1784903368.530668) can0 12D#000000000000006A R
(1784903368.530985) can0 12E#000000000000C02E R
(1784903368.537384) can0 450#0000000000002800 R
(1784903368.540607) can0 12D#000000000000008B R
(1784903368.541038) can0 12A#10050000000A00DC R
(1784903368.545057) can0 121#00A601CF04800086 R
(1784903368.545332) can0 129#000000010000008F R
(1784903368.546690) can0 120#000000000000008B R
(1784903368.548393) can0 541#000010000004D4C6 R
(1784903368.550652) can0 12D#00000000000000BE R
(1784903368.550857) can0 12E#000000000000C044 R
(1784903368.560548) can0 12D#00000000000000D4 R
(1784903368.565057) can0 121#00A601CF048000B3 R
(1784903368.565470) can0 129#00000001000000BA R
(1784903368.567523) can0 120#00000000000000BE R
(1784903368.567833) can0 541#000010000004D427 R
(1784903368.570660) can0 12D#0000000000000035 R
(1784903368.570935) can0 12E#000000000000C071 R
(1784903368.580586) can0 12D#000000000000005F R
(1784903368.585121) can0 121#00A601CF048000D9 R
(1784903368.585536) can0 129#00000001000000D0 R
(1784903368.585688) can0 540#000040100000ED00 R
(1784903368.585795) can0 5B0#10000000000000D5 R
(1784903368.588968) can0 120#00000000000000D4 R
(1784903368.589337) can0 541#000010000004D44D R
(1784903368.589423) can0 450#0000000000002800 R
(1784903368.593154) can0 12D#000000000000006A R
(1784903368.593457) can0 12E#000000000000C090 R
(1784903368.593534) can0 12A#10050000000A003D R
(1784903368.593620) can0 5A0#00000000040000DA R
(1784903368.600585) can0 12D#000000000000008B R
(1784903368.605159) can0 121#00A601CF04800038 R
(1784903368.605431) can0 129#0000000100000031 R
(1784903368.607798) can0 120#0000000000000035 R
(1784903368.608297) can0 541#000010000004D478 R
(1784903368.611471) can0 12D#00000000000000BE R
(1784903368.611772) can0 12E#000000000000C0A5 R
(1784903368.620557) can0 12D#00000000000000D4 R
(1784903368.625867) can0 121#00A601CF04800052 R
(1784903368.626235) can0 129#000000010000005B R
(1784903368.626653) can0 120#000000000000005F R
(1784903368.627744) can0 541#000010000004D499 R
(1784903368.630666) can0 12D#0000000000000035 R
(1784903368.630928) can0 12E#000000000000C0CF R
(1784903368.637390) can0 450#0000000000002800 R
(1784903368.640544) can0 12D#000000000000005F R
(1784903368.640797) can0 12A#10050000000A0057 R
(1784903368.645065) can0 121#00A601CF04800067 R
(1784903368.645474) can0 129#000000010000006E R
(1784903368.647377) can0 120#000000000000006A R
(1784903368.647702) can0 541#000010000004D4AC R
(1784903368.650656) can0 12D#000000000000006A R
(1784903368.650872) can0 12E#000000000000C02E R
(1784903368.660586) can0 12D#000000000000008B R
(1784903368.665255) can0 121#00A601CF04800086 R
(1784903368.665630) can0 129#000000010000008F R
(1784903368.666675) can0 120#000000000000008B R
(1784903368.667889) can0 541#000010000004D4C6 R
(1784903368.670687) can0 12D#00000000000000BE R
(1784903368.670938) can0 12E#000000000000C044 R
(1784903368.680537) can0 12D#00000000000000D4 R
(1784903368.685753) can0 121#00A601CF048000B3 R
(1784903368.686073) can0 129#00000001000000BA R
(1784903368.686165) can0 540#000040100000ED00 R
(1784903368.686351) can0 5B0#1000000000000034 R
(1784903368.686754) can0 120#00000000000000BE R
(1784903368.687779) can0 541#000010000004D427 R
(1784903368.688215) can0 450#0000000000002800 R
(1784903368.690899) can0 12D#0000000000000035 R
(1784903368.691178) can0 12E#000000000000C071 R
(1784903368.691252) can0 12A#10050000000A0062 R
(1784903368.691445) can0 5A0#000000000400003B R
(1784903368.700568) can0 12D#000000000000005F R
(1784903368.705100) can0 121#00A601CF048000D9 R
(1784903368.706775) can0 129#00000001000000D0 R
(1784903368.706995) can0 120#00000000000000D4 R
(1784903368.707766) can0 541#000010000004D44D R
(1784903368.710724) can0 12D#000000000000006A R
(1784903368.711236) can0 12E#000000000000C090 R
(1784903368.720789) can0 12D#000000000000008B R
(1784903368.725629) can0 121#00A601CF04800038 R
(1784903368.725948) can0 129#0000000100000031 R
(1784903368.726663) can0 120#0000000000000035 R
(1784903368.727722) can0 541#000010000004D478 R
(1784903368.730682) can0 12D#00000000000000BE R
(1784903368.730940) can0 12E#000000000000C0A5 R
(1784903368.737384) can0 450#0000000000002800 R
(1784903368.740606) can0 12D#00000000000000D4 R
(1784903368.740968) can0 12A#10050000000A0083 R
(1784903368.745069) can0 121#00A601CF04800052 R
(1784903368.745348) can0 129#000000010000005B R
(1784903368.747253) can0 120#000000000000005F R
(1784903368.747699) can0 541#000010000004D499 R
(1784903368.751482) can0 12D#0000000000000035 R
(1784903368.751793) can0 12E#000000000000C0CF R
(1784903368.760524) can0 12D#000000000000005F R
(1784903368.765495) can0 121#00A601CF04800067 R
(1784903368.765871) can0 129#000000010000006E R
(1784903368.766688) can0 120#000000000000006A R
(1784903368.767736) can0 541#000010000004D4AC R
(1784903368.770637) can0 12D#000000000000006A R
(1784903368.770911) can0 12E#000000000000C02E R
(1784903368.780551) can0 12D#000000000000008B R
(1784903368.785236) can0 121#00A601CF04800086 R
(1784903368.785670) can0 129#000000010000008F R
(1784903368.785776) can0 540#000040100000ED00 R
(1784903368.785876) can0 5B0#100000000000005E R
(1784903368.786790) can0 120#000000000000008B R
(1784903368.787865) can0 541#000010000004D4C6 R
(1784903368.788175) can0 450#0000000000002800 R
(1784903368.790870) can0 12D#00000000000000BE R
(1784903368.791157) can0 12E#000000000000C044 R
(1784903368.791241) can0 12A#10050000000A00B6 R
(1784903368.791463) can0 5A0#0000000004000051 R
(1784903368.800575) can0 12D#00000000000000D4 R
(1784903368.805176) can0 121#00A601CF048000B3 R
(1784903368.805431) can0 129#00000001000000BA R
(1784903368.806776) can0 120#00000000000000BE R
(1784903368.808504) can0 541#000010000004D427 R
(1784903368.810673) can0 12D#0000000000000035 R
(1784903368.811033) can0 12E#000000000000C071 R
(1784903368.820581) can0 12D#000000000000005F R
(1784903368.825394) can0 121#00A601CF048000D9 R
(1784903368.825770) can0 129#00000001000000D0 R
(1784903368.826906) can0 120#00000000000000D4 R
(1784903368.829202) can0 541#000010000004D44D R
(1784903368.830667) can0 12D#000000000000006A R
(1784903368.830938) can0 12E#000000000000C090 R
(1784903368.837398) can0 450#0000000000002800 R
(1784903368.840546) can0 12D#000000000000008B R
(1784903368.840842) can0 12A#10050000000A00DC R
(1784903368.845085) can0 121#00A601CF04800038 R
(1784903368.845357) can0 129#0000000100000031 R
(1784903368.848163) can0 120#0000000000000035 R
(1784903368.848549) can0 541#000010000004D478 R
(1784903368.850621) can0 12D#00000000000000BE R
(1784903368.850884) can0 12E#000000000000C0A5 R
(1784903368.860596) can0 12D#00000000000000D4 R
(1784903368.866105) can0 121#00A601CF04800052 R
(1784903368.866452) can0 129#000000010000005B R
(1784903368.866762) can0 120#000000000000005F R
(1784903368.867779) can0 541#000010000004D499 R
(1784903368.870705) can0 12D#0000000000000035 R
(1784903368.871076) can0 12E#000000000000C0CF R
(1784903368.880553) can0 12D#000000000000005F R
(1784903368.885077) can0 121#00A601CF04800067 R
(1784903368.885325) can0 129#000000010000006E R
(1784903368.885488) can0 540#000040100000ED00 R
(1784903368.885771) can0 5B0#100000000000006B R
(1784903368.888183) can0 120#000000000000006A R
(1784903368.888574) can0 541#000010000004D4AC R
(1784903368.888765) can0 450#0000000000002800 R
(1784903368.891796) can0 12D#000000000000006A R
(1784903368.892220) can0 12E#000000000000C02E R
(1784903368.892304) can0 12A#10050000000A003D R
(1784903368.892523) can0 5A0#0000000004000064 R
(1784903368.900546) can0 12D#000000000000008B R
(1784903368.905099) can0 121#00A601CF04800086 R
(1784903368.905404) can0 129#000000010000008F R
(1784903368.907976) can0 120#000000000000008B R
(1784903368.908394) can0 541#000010000004D4C6 R
(1784903368.910927) can0 12D#00000000000000BE R
(1784903368.911371) can0 12E#000000000000C044 R
(1784903368.920516) can0 12D#00000000000000D4 R
(1784903368.925241) can0 121#00A601CF048000B3 R
(1784903368.925626) can0 129#00000001000000BA R
(1784903368.926717) can0 120#00000000000000BE R
(1784903368.927716) can0 541#000010000004D427 R
(1784903368.930653) can0 12D#0000000000000035 R
(1784903368.930843) can0 12E#000000000000C071 R
(1784903368.937394) can0 450#0000000000002800 R
(1784903368.940599) can0 12D#000000000000005F R
(1784903368.940930) can0 12A#10050000000A0057 R
(1784903368.945976) can0 121#00A601CF048000D9 R
(1784903368.946297) can0 129#00000001000000D0 R
(1784903368.947162) can0 120#00000000000000D4 R
(1784903368.947719) can0 541#000010000004D44D R
(1784903368.950684) can0 12D#000000000000006A R
(1784903368.951045) can0 12E#000000000000C090 R
(1784903368.960562) can0 12D#000000000000008B R
(1784903368.965990) can0 121#00A601CF04800038 R
(1784903368.966448) can0 129#0000000100000031 R
(1784903368.966665) can0 120#0000000000000035 R
(1784903368.967729) can0 541#000010000004D478 R
(1784903368.970673) can0 12D#00000000000000BE R
(1784903368.971075) can0 12E#000000000000C0A5 R
(1784903368.980547) can0 12D#00000000000000D4 R
(1784903368.986180) can0 121#00A601CF04800052 R
(1784903368.986544) can0 129#000000010000005B R
(1784903368.986629) can0 540#000040100000ED00 R
(1784903368.986756) can0 5B0#100000000000008A R
(1784903368.986853) can0 120#000000000000005F R
(1784903368.987794) can0 541#000010000004D499 R
(1784903368.988226) can0 450#0000000000002800 R
(1784903368.990805) can0 12D#0000000000000035 R
(1784903368.991278) can0 12E#000000000000C0CF R
(1784903368.991422) can0 12A#10050000000A0062 R
(1784903368.991593) can0 5A0#0000000004000085 R
(1784903369.000564) can0 12D#000000000000005F R
(1784903369.006525) can0 121#00A601CF04800067 R
(1784903369.006843) can0 129#000000010000006E R
(1784903369.006946) can0 120#000000000000006A R
(1784903369.007764) can0 541#000010000004D4AC R
(1784903369.011560) can0 12D#000000000000006A R
(1784903369.011868) can0 12E#000000000000C02E R
(1784903369.020567) can0 12D#000000000000008B R
(1784903369.025307) can0 121#00A601CF04800086 R
(1784903369.025706) can0 129#000000010000008F R
(1784903369.026755) can0 120#000000000000008B R
(1784903369.027747) can0 541#000010000004D4C6 R
(1784903369.030667) can0 12D#00000000000000BE R
(1784903369.030929) can0 12E#000000000000C044 R
(1784903369.037388) can0 450#0000000000002800 R
(1784903369.040532) can0 12D#00000000000000D4 R
(1784903369.040832) can0 12A#10050000000A0083 R
(1784903369.045112) can0 121#00A601CF048000B3 R
(1784903369.046745) can0 129#00000001000000BA R
(1784903369.046977) can0 120#00000000000000BE R
(1784903369.047725) can0 541#000010000004D427 R
(1784903369.050664) can0 12D#0000000000000035 R
(1784903369.051073) can0 12E#000000000000C071 R
(1784903369.060546) can0 12D#000000000000005F R
(1784903369.065318) can0 121#00A601CF048000D9 R
(1784903369.065704) can0 129#00000001000000D0 R
(1784903369.066717) can0 120#00000000000000D4 R
(1784903369.067733) can0 541#000010000004D55B R
(1784903369.070661) can0 12D#000000000000006A R
(1784903369.070933) can0 12E#000000000000C090 R
(1784903369.080537) can0 12D#000000000000008B R
(1784903369.086194) can0 121#00A601CF04800038 R
(1784903369.086575) can0 129#0000000100000031 R
(1784903369.086662) can0 540#000040100000ED00 R
(1784903369.086866) can0 5B0#10000000000000BF R
(1784903369.086999) can0 120#0000000000000035 R
(1784903369.087831) can0 541#000010000004D56E R
(1784903369.088581) can0 450#0000000000002800 R
(1784903369.090832) can0 12D#00000000000000BE R
(1784903369.090988) can0 12E#000000000000C0A5 R
(1784903369.091203) can0 12A#10050000000A00B6 R
(1784903369.091525) can0 5A0#00000000040000B0 R
(1784903369.101071) can0 12D#00000000000000D4 R
(1784903369.105896) can0 121#00A601CF04800052 R
(1784903369.106222) can0 129#000000010000005B R
(1784903369.107181) can0 120#000000000000005F R
(1784903369.108077) can0 541#000010000004D58F R
(1784903369.111809) can0 12D#0000000000000035 R
(1784903369.112172) can0 12E#000000000000C0CF R
(1784903369.120540) can0 12D#000000000000005F R
(1784903369.125201) can0 121#00A601CF04800067 R
(1784903369.125594) can0 129#000000010000006E R
(1784903369.126737) can0 120#000000000000006A R
(1784903369.127758) can0 541#000010000004D5BA R
(1784903369.130641) can0 12D#000000000000006A R
(1784903369.130919) can0 12E#000000000000C02E R
(1784903369.137398) can0 450#0000000000002800 R
(1784903369.140572) can0 12D#000000000000008B R
(1784903369.140819) can0 12A#10050000000A00DC R
(1784903369.145114) can0 121#00A601CF04800086 R
(1784903369.145528) can0 129#000000010000008F R
(1784903369.147411) can0 120#000000000000008B R
(1784903369.147796) can0 541#000010000004D5D0 R
(1784903369.151344) can0 12D#00000000000000BE R
(1784903369.151644) can0 12E#000000000000C044 R
(1784903369.160545) can0 12D#00000000000000D4 R
(1784903369.165100) can0 121#00A601CF048000B3 R
(1784903369.165396) can0 129#00000001000000BA R
(1784903369.167860) can0 120#00000000000000BE R
(1784903369.168280) can0 541#000010000004D531 R
(1784903369.170839) can0 12D#0000000000000035 R
(1784903369.171245) can0 12E#000000000000C071 R
(1784903369.180541) can0 12D#000000000000005F R
(1784903369.185504) can0 121#00A601CF048000D9 R
(1784903369.185951) can0 129#00000001000000D0 R
(1784903369.186048) can0 540#000040100000ED00 R
(1784903369.186150) can0 5B0#10000000000000D5 R
(1784903369.186911) can0 120#00000000000000D4 R
(1784903369.187785) can0 541#000010000004D55B R
(1784903369.188258) can0 450#0000000000002800 R
(1784903369.190772) can0 12D#000000000000006A R
(1784903369.191230) can0 12E#000000000000C090 R
(1784903369.191334) can0 12A#10050000000A003D R
(1784903369.191509) can0 5A0#00000000040000DA R
(1784903369.200538) can0 12D#000000000000008B R
(1784903369.206271) can0 121#00A601CF04800038 R
(1784903369.206576) can0 129#0000000100000031 R
(1784903369.206902) can0 120#0000000000000035 R
(1784903369.207882) can0 541#000010000004D56E R
(1784903369.210785) can0 12D#00000000000000BE R
(1784903369.211174) can0 12E#000000000000C0A5 R
(1784903369.220571) can0 12D#00000000000000D4 R
(1784903369.225823) can0 121#00A601CF04800052 R
(1784903369.226161) can0 129#000000010000005B R
(1784903369.226694) can0 120#000000000000005F R
(1784903369.227728) can0 541#000010000004D58F R
(1784903369.230671) can0 12D#0000000000000035 R
(1784903369.230951) can0 12E#000000000000C0CF R
(1784903369.237396) can0 450#0000000000002800 R
(1784903369.240576) can0 12D#000000000000005F R
(1784903369.241026) can0 12A#10050000000A0057 R
(1784903369.246082) can0 121#00A601CF04800067 R
(1784903369.246407) can0 129#000000010000006E R
(1784903369.247348) can0 120#000000000000006A R
(1784903369.247783) can0 541#000010000004D5BA R
(1784903369.250646) can0 12D#000000000000006A R
(1784903369.251027) can0 12E#000000000000C02E R
(1784903369.260513) can0 12D#000000000000008B R
(1784903369.265106) can0 121#00A601CF04800086 R
(1784903369.265352) can0 129#000000010000008F R
(1784903369.266713) can0 120#000000000000008B R
(1784903369.268439) can0 541#000010000004D5D0 R
(1784903369.270621) can0 12D#00000000000000BE R
(1784903369.272136) can0 12E#000000000000C044 R
(1784903369.280529) can0 12D#00000000000000D4 R
(1784903369.285268) can0 121#00A601CF048000B3 R
(1784903369.285636) can0 129#00000001000000BA R
(1784903369.285748) can0 540#000040100000ED00 R
(1784903369.285935) can0 5B0#1000000000000034 R
(1784903369.286826) can0 120#00000000000000BE R
(1784903369.289548) can0 541#000010000004D531 R
(1784903369.289924) can0 450#0000000000002800 R
(1784903369.290795) can0 12D#0000000000000035 R
(1784903369.291045) can0 12E#000000000000C071 R
(1784903369.291236) can0 12A#10050000000A0062 R
(1784903369.291519) can0 5A0#000000000400003B R
(1784903369.300843) can0 12D#000000000000005F R
(1784903369.305112) can0 121#00A601CF048000D9 R
(1784903369.305354) can0 129#00000001000000D0 R
(1784903369.307793) can0 120#00000000000000D4 R
(1784903369.308185) can0 541#000010000004D55B R
(1784903369.311042) can0 12D#000000000000006A R
(1784903369.311369) can0 12E#000000000000C090 R
(1784903369.320992) can0 12D#000000000000008B R
(1784903369.325121) can0 121#00A601CF04800038 R
(1784903369.325447) can0 129#0000000100000031 R
(1784903369.327501) can0 120#0000000000000035 R
(1784903369.327875) can0 541#000010000004D56E R
(1784903369.330703) can0 12D#00000000000000BE R
(1784903369.331093) can0 12E#000000000000C0A5 R
(1784903369.337639) can0 450#0000000000002800 R
(1784903369.340549) can0 12D#00000000000000D4 R
(1784903369.340787) can0 12A#10050000000A0083 R
(1784903369.345169) can0 121#00A601CF04800052 R
(1784903369.346387) can0 129#000000010000005B R
(1784903369.346732) can0 120#000000000000005F R
(1784903369.347985) can0 541#000010000004D58F R
(1784903369.350657) can0 12D#0000000000000035 R
(1784903369.352330) can0 12E#000000000000C0CF R
(1784903369.360556) can0 12D#000000000000005F R
(1784903369.365361) can0 121#00A601CF04800067 R
(1784903369.365791) can0 129#000000010000006E R
(1784903369.366753) can0 120#000000000000006A R
(1784903369.367721) can0 541#000010000004D5BA R
(1784903369.370632) can0 12D#000000000000006A R
(1784903369.372846) can0 12E#000000000000C02E R
(1784903369.380541) can0 12D#000000000000008B R
(1784903369.385284) can0 121#00A601CF04800086 R
(1784903369.385719) can0 129#000000010000008F R
(1784903369.385832) can0 540#000040100000ED00 R
(1784903369.385926) can0 5B0#100000000000005E R
(1784903369.386821) can0 120#000000000000008B R
(1784903369.387806) can0 541#000010000004D5D0 R
(1784903369.390010) can0 450#0000000000002800 R
(1784903369.390715) can0 12D#00000000000000BE R
(1784903369.391073) can0 12E#000000000000C044 R
(1784903369.391240) can0 12A#10050000000A00B6 R
(1784903369.391405) can0 5A0#0000000004000051 R
(1784903369.400671) can0 12D#00000000000000D4 R
(1784903369.405512) can0 121#00A601CF048000B3 R
(1784903369.405835) can0 129#00000001000000BA R
(1784903369.406748) can0 120#00000000000000BE R
(1784903369.407756) can0 541#000010000004D531 R
(1784903369.410630) can0 12D#0000000000000035 R
(1784903369.410884) can0 12E#000000000000C071 R
(1784903369.420534) can0 12D#000000000000005F R
(1784903369.425417) can0 121#00A601CF048000D9 R
(1784903369.425813) can0 129#00000001000000D0 R
(1784903369.426742) can0 120#00000000000000D4 R
(1784903369.427752) can0 541#000010000004D55B R
(1784903369.430641) can0 12D#000000000000006A R
(1784903369.430901) can0 12E#000000000000C090 R
(1784903369.437436) can0 450#0000000000002800 R
(1784903369.440554) can0 12D#000000000000008B R
(1784903369.440857) can0 12A#10050000000A00DC R
(1784903369.445128) can0 121#00A601CF04800038 R
(1784903369.445451) can0 129#0000000100000031 R
(1784903369.447494) can0 120#0000000000000035 R
(1784903369.447882) can0 541#000010000004D56E R
(1784903369.451329) can0 12D#00000000000000BE R
(1784903369.451648) can0 12E#000000000000C0A5 R
(1784903369.460532) can0 12D#00000000000000D4 R
(1784903369.465605) can0 121#00A601CF04800052 R
(1784903369.465907) can0 129#000000010000005B R
(1784903369.467088) can0 120#000000000000005F R
(1784903369.467810) can0 541#000010000004D58F R
(1784903369.470562) can0 12D#0000000000000035 R
(1784903369.470765) can0 12E#000000000000C0CF R
(1784903369.480527) can0 12D#000000000000005F R
(1784903369.485271) can0 121#00A601CF04800067 R
(1784903369.485658) can0 129#000000010000006E R
(1784903369.485763) can0 540#000040100000ED00 R
(1784903369.485948) can0 5B0#100000000000006B R
(1784903369.486850) can0 120#000000000000006A R
(1784903369.489236) can0 541#000010000004D5BA R
(1784903369.489629) can0 450#0000000000002800 R
(1784903369.490777) can0 12D#000000000000006A R
(1784903369.491010) can0 12E#000000000000C02E R
(1784903369.491200) can0 12A#10050000000A003D R
(1784903369.491722) can0 5A0#0000000004000064 R
(1784903369.500566) can0 12D#000000000000008B R
(1784903369.506028) can0 121#00A601CF04800086 R
(1784903369.506339) can0 129#000000010000008F R
(1784903369.507272) can0 120#000000000000008B R
(1784903369.507751) can0 541#000010000004D5D0 R
(1784903369.510665) can0 12D#00000000000000BE R
(1784903369.511040) can0 12E#000000000000C044 R
(1784903369.520524) can0 12D#00000000000000D4 R
(1784903369.525492) can0 121#00A601CF048000B3 R
(1784903369.525854) can0 129#00000001000000BA R
(1784903369.526809) can0 120#00000000000000BE R
(1784903369.527791) can0 541#000010000004D531 R
(1784903369.530647) can0 12D#0000000000000035 R
(1784903369.530920) can0 12E#000000000000C071 R
(1784903369.537402) can0 450#0000000000002800 R
(1784903369.540550) can0 12D#000000000000005F R
(1784903369.540802) can0 12A#10050000000A0057 R
(1784903369.545136) can0 121#00A601CF048000D9 R
(1784903369.545518) can0 129#00000001000000D0 R
(1784903369.547507) can0 120#00000000000000D4 R
(1784903369.547904) can0 541#000010000004D55B R
(1784903369.550854) can0 12D#000000000000006A R
(1784903369.551258) can0 12E#000000000000C090 R
(1784903369.560523) can0 12D#000000000000008B R
(1784903369.565517) can0 121#00A601CF04800038 R
(1784903369.565955) can0 129#0000000100000031 R
(1784903369.566900) can0 120#0000000000000035 R
(1784903369.567847) can0 541#000010000004D56E R
(1784903369.570665) can0 12D#00000000000000BE R
(1784903369.570978) can0 12E#000000000000C0A5 R
(1784903369.580568) can0 12D#00000000000000D4 R
(1784903369.586105) can0 121#00A601CF04800052 R
(1784903369.586584) can0 129#000000010000005B R
(1784903369.586741) can0 540#000040100000ED00 R
(1784903369.586838) can0 5B0#100000000000008A R
(1784903369.587589) can0 120#000000000000005F R
(1784903369.588042) can0 541#000010000004D58F R
(1784903369.588237) can0 450#0000000000002800 R
(1784903369.592669) can0 12D#0000000000000035 R
(1784903369.593105) can0 12E#000000000000C0CF R
(1784903369.593325) can0 12A#10050000000A0062 R
(1784903369.593441) can0 5A0#0000000004000085 R
(1784903369.602951) can0 12D#000000000000005F R
(1784903369.606865) can0 121#00A601CF04800067 R
(1784903369.607239) can0 129#000000010000006E R
(1784903369.607459) can0 120#000000000000006A R
(1784903369.607787) can0 541#000010000004D5BA R
(1784903369.610639) can0 12D#000000000000006A R
(1784903369.611019) can0 12E#000000000000C02E R
(1784903369.620498) can0 12D#000000000000008B R
(1784903369.625524) can0 121#00A601CF04800086 R
(1784903369.625869) can0 129#000000010000008F R
(1784903369.626860) can0 120#000000000000008B R
(1784903369.627933) can0 541#000010000004D5D0 R
(1784903369.630666) can0 12D#00000000000000BE R
(1784903369.631029) can0 12E#000000000000C044 R
(1784903369.637404) can0 450#0000000000002800 R
(1784903369.640566) can0 12D#00000000000000D4 R
(1784903369.640832) can0 12A#10050000000A0083 R
(1784903369.645154) can0 121#00A601CF048000B3 R
(1784903369.647476) can0 129#00000001000000BA R
(1784903369.647871) can0 120#00000000000000BE R
(1784903369.648003) can0 541#000010000004D531 R
(1784903369.651389) can0 12D#0000000000000035 R
(1784903369.651802) can0 12E#000000000000C071 R
(1784903369.660528) can0 12D#000000000000005F R
(1784903369.665218) can0 121#00A601CF048000D9 R
(1784903369.665662) can0 129#00000001000000D0 R
(1784903369.666777) can0 120#00000000000000D4 R
(1784903369.667796) can0 541#000010000004D55B R
(1784903369.670619) can0 12D#000000000000006A R
(1784903369.670882) can0 12E#000000000000C090 R
(1784903369.680517) can0 12D#000000000000008B R
(1784903369.685159) can0 121#00A601CF04800038 R
(1784903369.685421) can0 129#0000000100000031 R
(1784903369.685592) can0 540#000040100000ED00 R
(1784903369.685821) can0 5B0#10000000000000BF R
(1784903369.687747) can0 120#0000000000000035 R
(1784903369.688273) can0 541#000010000004D56E R
(1784903369.688435) can0 450#0000000000002800 R
(1784903369.691778) can0 12D#00000000000000BE R
(1784903369.692096) can0 12E#000000000000C0A5 R
(1784903369.692291) can0 12A#10050000000A00B6 R
(1784903369.692382) can0 5A0#00000000040000B0 R
(1784903369.700538) can0 12D#00000000000000D4 R
(1784903369.705279) can0 121#00A601CF04800052 R
(1784903369.705737) can0 129#000000010000005B R
(1784903369.706767) can0 120#000000000000005F R
(1784903369.707754) can0 541#000010000004D58F R
(1784903369.710662) can0 12D#0000000000000035 R
(1784903369.711041) can0 12E#000000000000C0CF R
(1784903369.720546) can0 12D#000000000000005F R
(1784903369.726053) can0 121#00A601CF04800067 R
(1784903369.726446) can0 129#000000010000006E R
(1784903369.727738) can0 120#000000000000006A R
(1784903369.728537) can0 541#000010000004D5BA R
(1784903369.730666) can0 12D#000000000000006A R
(1784903369.731141) can0 12E#000000000000C02E R
(1784903369.737404) can0 450#0000000000002800 R
(1784903369.740520) can0 12D#000000000000008B R
(1784903369.740833) can0 12A#10050000000A00DC R
(1784903369.746227) can0 121#00A601CF04800086 R
(1784903369.746552) can0 129#000000010000008F R
(1784903369.746737) can0 120#000000000000008B R
(1784903369.747786) can0 541#000010000004D5D0 R
(1784903369.750637) can0 12D#00000000000000BE R
(1784903369.751030) can0 12E#000000000000C044 R
(1784903369.760507) can0 12D#00000000000000D4 R
(1784903369.765608) can0 121#00A601CF048000B3 R
(1784903369.765914) can0 129#00000001000000BA R
(1784903369.766756) can0 120#00000000000000BE R
(1784903369.767774) can0 541#000010000004D531 R
(1784903369.770620) can0 12D#0000000000000035 R
(1784903369.770888) can0 12E#000000000000C071 R
(1784903369.780539) can0 12D#000000000000005F R
(1784903369.785540) can0 121#00A601CF048000D9 R
(1784903369.785890) can0 129#00000001000000D0 R
(1784903369.785999) can0 540#000040100000ED00 R
(1784903369.786090) can0 5B0#10000000000000D5 R
(1784903369.786882) can0 120#00000000000000D4 R
(1784903369.787805) can0 541#000010000004D55B R
(1784903369.789837) can0 450#0000000000002800 R
(1784903369.790727) can0 12D#000000000000006A R
(1784903369.790962) can0 12E#000000000000C090 R
(1784903369.791191) can0 12A#10050000000A003D R
(1784903369.791433) can0 5A0#00000000040000DA R
(1784903369.800935) can0 12D#000000000000008B R
(1784903369.805153) can0 121#00A601CF04800038 R
(1784903369.805394) can0 129#0000000100000031 R
(1784903369.807832) can0 120#0000000000000035 R
(1784903369.808330) can0 541#000010000004D56E R
(1784903369.811225) can0 12D#00000000000000BE R
(1784903369.811544) can0 12E#000000000000C0A5 R
(1784903369.820506) can0 12D#00000000000000D4 R
(1784903369.825900) can0 121#00A601CF04800052 R
(1784903369.826190) can0 129#000000010000005B R
(1784903369.826747) can0 120#000000000000005F R
(1784903369.827787) can0 541#000010000004D58F R
(1784903369.830667) can0 12D#0000000000000035 R
(1784903369.831078) can0 12E#000000000000C0CF R
(1784903369.837412) can0 450#0000000000002800 R
(1784903369.840564) can0 12D#000000000000005F R
(1784903369.840833) can0 12A#10050000000A0057 R
(1784903369.845158) can0 121#00A601CF04800067 R
(1784903369.845483) can0 129#000000010000006E R
(1784903369.847738) can0 120#000000000000006A R
(1784903369.848127) can0 541#000010000004D5BA R
(1784903369.851096) can0 12D#000000000000006A R
(1784903369.851495) can0 12E#000000000000C02E R
(1784903369.860515) can0 12D#000000000000008B R
(1784903369.865304) can0 121#00A601CF04800086 R
(1784903369.865682) can0 129#000000010000008F R
(1784903369.866778) can0 120#000000000000008B R
(1784903369.867778) can0 541#000010000004D5D0 R
(1784903369.870650) can0 12D#00000000000000BE R
(1784903369.870973) can0 12E#000000000000C044 R
(1784903369.880500) can0 12D#00000000000000D4 R
(1784903369.885157) can0 121#00A601CF048000B3 R
(1784903369.885412) can0 129#00000001000000BA R
