(1784905738.016324) can0 12E#000000000000C0A5 R
(1784905738.023603) can0 12D#00000000000000D4 R
(1784905738.025014) can0 12A#10050000000A0083 R
(1784905738.028885) can0 121#00A601CF04800086 R
(1784905738.029377) can0 129#000000010000008F R
(1784905738.029472) can0 540#000040100000ED00 R
(1784905738.029605) can0 5B0#100000000000005E R
(1784905738.029734) can0 120#000000000000008B R
(1784905738.030763) can0 541#00001000000E15DF R
(1784905738.033653) can0 12D#0000000000000035 R
(1784905738.034010) can0 12E#000000000000C0CF R
(1784905738.043538) can0 12D#000000000000005F R
(1784905738.048625) can0 121#00A601CF048000B3 R
(1784905738.048981) can0 129#00000001000000BA R
(1784905738.051375) can0 120#00000000000000BE R
(1784905738.055725) can0 541#00001000000E153E R
(1784905738.059198) can0 450#0000000000002800 R
(1784905738.059580) can0 12D#000000000000006A R
(1784905738.059680) can0 12E#000000000000C02E R
(1784905738.063889) can0 12D#000000000000008B R
(1784905738.068169) can0 121#00A601CF048000D9 R
(1784905738.071799) can0 129#00000001000000D0 R
(1784905738.072474) can0 120#00000000000000D4 R
(1784905738.072913) can0 541#00001000000E165B R
(1784905738.074942) can0 12D#00000000000000BE R
(1784905738.075221) can0 12E#000000000000C044 R
(1784905738.075308) can0 12A#10050000000A00B6 R
(1784905738.075516) can0 5A0#0000000004000051 R
(1784905738.083561) can0 12D#00000000000000D4 R
(1784905738.088475) can0 121#00A601CF04800038 R
(1784905738.088813) can0 129#0000000100000031 R
(1784905738.091259) can0 120#0000000000000035 R
(1784905738.092470) can0 541#00001000000E166E R
(1784905738.093676) can0 12D#0000000000000035 R
(1784905738.094138) can0 12E#000000000000C071 R
(1784905738.100289) can0 450#0000000000002800 R
(1784905738.103929) can0 12D#000000000000005F R
(1784905738.108477) can0 121#00A601CF04800052 R
(1784905738.109576) can0 129#000000010000005B R
(1784905738.109888) can0 120#000000000000005F R
(1784905738.111709) can0 541#00001000000E168F R
(1784905738.113636) can0 12D#000000000000006A R
(1784905738.114098) can0 12E#000000000000C090 R
(1784905738.123601) can0 12D#000000000000008B R
(1784905738.124052) can0 12A#10050000000A00DC R
(1784905738.128302) can0 121#00A601CF04800067 R
(1784905738.128793) can0 129#000000010000006E R
(1784905738.128908) can0 540#000040100000ED00 R
(1784905738.129035) can0 5B0#100000000000006B R
(1784905738.130026) can0 120#000000000000006A R
(1784905738.133556) can0 541#00001000000E16BA R
(1784905738.133898) can0 12D#00000000000000BE R
(1784905738.133973) can0 12E#000000000000C0A5 R
(1784905738.143581) can0 12D#00000000000000D4 R
(1784905738.149411) can0 121#00A601CF04800086 R
(1784905738.149807) can0 129#000000010000008F R
(1784905738.149914) can0 120#000000000000008B R
(1784905738.151617) can0 541#00001000000E16D0 R
(1784905738.151996) can0 450#0000000000002800 R
(1784905738.156004) can0 12D#0000000000000035 R
(1784905738.156408) can0 12E#000000000000C0CF R
(1784905738.163552) can0 12D#000000000000005F R
(1784905738.168226) can0 121#00A601CF048000B3 R
(1784905738.168649) can0 129#00000001000000BA R
(1784905738.171446) can0 120#00000000000000BE R
(1784905738.173787) can0 541#00001000000E1631 R
(1784905738.175813) can0 12D#000000000000006A R
(1784905738.175937) can0 12E#000000000000C02E R
(1784905738.176125) can0 12A#10050000000A003D R
(1784905738.176288) can0 5A0#0000000004000064 R
(1784905738.183573) can0 12D#000000000000008B R
(1784905738.189532) can0 121#00A601CF048000D9 R
(1784905738.190052) can0 129#00000001000000D0 R
(1784905738.190212) can0 120#00000000000000D4 R
(1784905738.190883) can0 541#00001000000E165B R
(1784905738.194575) can0 12D#00000000000000BE R
(1784905738.195066) can0 12E#000000000000C044 R
(1784905738.203153) can0 450#0000000000002800 R
(1784905738.203536) can0 12D#00000000000000D4 R
(1784905738.208083) can0 121#00A601CF04800038 R
(1784905738.208519) can0 129#0000000100000031 R
(1784905738.211643) can0 120#0000000000000035 R
(1784905738.212042) can0 541#00001000000E166E R
(1784905738.215573) can0 12D#0000000000000035 R
(1784905738.216000) can0 12E#000000000000C071 R
(1784905738.224236) can0 12D#000000000000005F R
(1784905738.224631) can0 12A#10050000000A0057 R
(1784905738.229260) can0 121#00A601CF04800052 R
(1784905738.229694) can0 129#000000010000005B R
(1784905738.233567) can0 540#000040100000ED00 R
(1784905738.233953) can0 5B0#100000000000008A R
(1784905738.234110) can0 120#000000000000005F R
(1784905738.234223) can0 541#00001000000E168F R
(1784905738.234321) can0 12D#000000000000006A R
(1784905738.238239) can0 12E#000000000000C090 R
(1784905738.243627) can0 12D#000000000000008B R
(1784905738.248084) can0 121#00A601CF04800067 R
(1784905738.248470) can0 129#000000010000006E R
(1784905738.249693) can0 120#000000000000006A R
(1784905738.253418) can0 541#00001000000E16BA R
(1784905738.253837) can0 450#0000000000002800 R
(1784905738.253975) can0 12D#00000000000000BE R
(1784905738.254205) can0 12E#000000000000C0A5 R
(1784905738.264325) can0 12D#00000000000000D4 R
(1784905738.269051) can0 121#00A601CF04800086 R
(1784905738.269475) can0 129#000000010000008F R
(1784905738.269684) can0 120#000000000000008B R
(1784905738.270902) can0 541#00001000000E16D0 R
(1784905738.275097) can0 12D#0000000000000035 R
(1784905738.275457) can0 12E#000000000000C0CF R
(1784905738.279140) can0 12A#10050000000A0062 R
(1784905738.279490) can0 5A0#0000000004000085 R
(1784905738.283585) can0 12D#000000000000005F R
(1784905738.289356) can0 121#00A601CF048000B3 R
(1784905738.290546) can0 129#00000001000000BA R
(1784905738.290661) can0 120#00000000000000BE R
(1784905738.290758) can0 541#00001000000E1631 R
(1784905738.293709) can0 12D#000000000000006A R
(1784905738.294056) can0 12E#000000000000C02E R
(1784905738.303045) can0 450#0000000000002800 R
(1784905738.307661) can0 12D#000000000000008B R
(1784905738.308154) can0 121#00A601CF048000D9 R
(1784905738.308259) can0 129#00000001000000D0 R
(1784905738.309972) can0 120#00000000000000D4 R
(1784905738.311700) can0 541#00001000000E165B R
(1784905738.313855) can0 12D#00000000000000BE R
(1784905738.314194) can0 12E#000000000000C044 R
(1784905738.323522) can0 12D#00000000000000D4 R
(1784905738.324062) can0 12A#10050000000A0083 R
(1784905738.328191) can0 121#00A601CF04800038 R
(1784905738.330364) can0 129#0000000100000031 R
(1784905738.330667) can0 540#000040100000ED00 R
(1784905738.330909) can0 5B0#10000000000000BF R
(1784905738.331705) can0 120#0000000000000035 R
(1784905738.332005) can0 541#00001000000E166E R
(1784905738.335246) can0 12D#0000000000000035 R
(1784905738.335708) can0 12E#000000000000C071 R
(1784905738.343802) can0 12D#000000000000005F R
(1784905738.348091) can0 121#00A601CF04800052 R
(1784905738.348467) can0 129#000000010000005B R
(1784905738.349662) can0 120#000000000000005F R
(1784905738.350797) can0 541#00001000000E168F R
(1784905738.351396) can0 450#0000000000002800 R
(1784905738.354525) can0 12D#000000000000006A R
(1784905738.354937) can0 12E#000000000000C090 R
(1784905738.363620) can0 12D#000000000000008B R
(1784905738.368127) can0 121#00A601CF04800067 R
(1784905738.368625) can0 129#000000010000006E R
(1784905738.373160) can0 120#000000000000006A R
(1784905738.373573) can0 541#00001000000E16BA R
(1784905738.373761) can0 12D#00000000000000BE R
(1784905738.373957) can0 12E#000000000000C0A5 R
(1784905738.374183) can0 12A#10050000000A00B6 R
(1784905738.377890) can0 5A0#00000000040000B0 R
(1784905738.383525) can0 12D#00000000000000D4 R
(1784905738.388096) can0 121#00A601CF04800086 R
(1784905738.388475) can0 129#000000010000008F R
(1784905738.391876) can0 120#000000000000008B R
(1784905738.392247) can0 541#00001000000E16D0 R
(1784905738.396669) can0 12D#0000000000000035 R
(1784905738.397071) can0 12E#000000000000C0CF R
(1784905738.400305) can0 450#0000000000002800 R
(1784905738.403905) can0 12D#000000000000005F R
(1784905738.408116) can0 121#00A601CF048000B3 R
(1784905738.408485) can0 129#00000001000000BA R
(1784905738.412548) can0 120#00000000000000BE R
(1784905738.413064) can0 541#00001000000E1631 R
(1784905738.425256) can0 12D#000000000000008B R
(1784905738.425785) can0 12A#10050000000A00DC R
(1784905738.428067) can0 121#00A601CF048000D9 R
(1784905738.431070) can0 129#00000001000000D0 R
(1784905738.431491) can0 540#000040100000ED00 R
(1784905738.431740) can0 5B0#10000000000000D5 R
(1784905738.431857) can0 120#00000000000000D4 R
(1784905738.431985) can0 541#00001000000E165B R
(1784905738.434657) can0 12D#00000000000000BE R
(1784905738.437023) can0 12E#000000000000C044 R
(1784905738.443526) can0 12D#00000000000000D4 R
(1784905738.448317) can0 121#00A601CF04800038 R
(1784905738.449642) can0 129#0000000100000031 R
(1784905738.449920) can0 120#0000000000000035 R
(1784905738.452327) can0 541#00001000000E166E R
(1784905738.452743) can0 450#0000000000002800 R
(1784905738.463728) can0 12D#000000000000005F R
(1784905738.468101) can0 121#00A601CF04800052 R
(1784905738.473736) can0 120#000000000000005F R
(1784905738.483935) can0 12D#000000000000008B R
(1784905738.488702) can0 121#00A601CF04800067 R
(1784905738.489850) can0 129#000000010000006E R
(1784905738.489958) can0 120#000000000000006A R
(1784905738.491165) can0 541#00001000000E16BA R
(1784905738.493953) can0 12D#00000000000000BE R
(1784905738.494327) can0 12E#000000000000C0A5 R
(1784905738.501065) can0 450#0000000000002800 R
(1784905738.505823) can0 12D#00000000000000D4 R
(1784905738.510168) can0 121#00A601CF04800086 R
(1784905738.510582) can0 129#000000010000008F R
(1784905738.510676) can0 120#000000000000008B R
(1784905738.510851) can0 541#00001000000E16D0 R
(1784905738.524091) can0 12D#000000000000005F R
(1784905738.524498) can0 12A#10050000000A0057 R
(1784905738.530413) can0 121#00A601CF048000B3 R
(1784905738.530816) can0 129#00000001000000BA R
(1784905738.531022) can0 540#000040100000ED00 R
(1784905738.531156) can0 5B0#1000000000000034 R
(1784905738.531274) can0 120#00000000000000BE R
(1784905738.536394) can0 12D#000000000000006A R
(1784905738.536745) can0 12E#000000000000C02E R
(1784905738.543742) can0 12D#000000000000008B R
(1784905738.548142) can0 121#00A601CF048000D9 R
(1784905738.553728) can0 12D#00000000000000BE R
(1784905738.564143) can0 12D#00000000000000D4 R
(1784905738.569129) can0 121#00A601CF04800038 R
(1784905738.571205) can0 129#0000000100000031 R
(1784905738.573775) can0 12D#0000000000000035 R
(1784905738.577555) can0 12E#000000000000C071 R
(1784905738.583595) can0 12D#000000000000005F R
(1784905738.588161) can0 121#00A601CF04800052 R
(1784905738.592419) can0 129#000000010000005B R
(1784905738.596663) can0 12D#000000000000006A R
(1784905738.604348) can0 12D#000000000000008B R
(1784905738.610624) can0 121#00A601CF04800067 R
(1784905738.611038) can0 129#000000010000006E R
(1784905738.615051) can0 12D#00000000000000BE R
(1784905738.615487) can0 12E#000000000000C0A5 R
(1784905738.624128) can0 12D#00000000000000D4 R
(1784905738.624539) can0 12A#10050000000A0083 R
(1784905738.629875) can0 121#00A601CF04800086 R
(1784905738.632108) can0 129#000000010000008F R
(1784905738.632413) can0 540#000040100000ED00 R
(1784905738.632531) can0 5B0#100000000000005E R
(1784905738.632640) can0 120#000000000000008B R
(1784905738.632785) can0 541#00001000000E16D0 R
(1784905738.633631) can0 12D#0000000000000035 R
(1784905738.633910) can0 12E#000000000000C0CF R
(1784905738.643559) can0 12D#000000000000005F R
(1784905738.650313) can0 121#00A601CF048000B3 R
(1784905738.650698) can0 129#00000001000000BA R
(1784905738.650800) can0 120#00000000000000BE R
(1784905738.654738) can0 12D#000000000000006A R
(1784905738.664022) can0 12D#000000000000008B R
(1784905738.669887) can0 121#00A601CF048000D9 R
(1784905738.674998) can0 12D#00000000000000BE R
(1784905738.683520) can0 12D#00000000000000D4 R
(1784905738.688533) can0 121#00A601CF04800038 R
(1784905738.688908) can0 129#0000000100000031 R
(1784905738.691883) can0 120#0000000000000035 R
(1784905738.692364) can0 541#00001000000E166E R
(1784905738.700706) can0 450#0000000000002800 R
(1784905738.703573) can0 12D#000000000000005F R
(1784905738.708219) can0 121#00A601CF04800052 R
(1784905738.708704) can0 129#000000010000005B R
(1784905738.723534) can0 12D#000000000000008B R
(1784905738.728128) can0 121#00A601CF04800067 R
(1784905738.729763) can0 120#000000000000006A R
(1784905738.730710) can0 541#00001000000E16BA R
(1784905738.734769) can0 12D#00000000000000BE R
(1784905738.737149) can0 12E#000000000000C0A5 R
(1784905738.743550) can0 12D#00000000000000D4 R
(1784905738.748435) can0 121#00A601CF04800086 R
(1784905738.748847) can0 129#000000010000008F R
(1784905738.749715) can0 120#000000000000008B R
(1784905738.753981) can0 450#0000000000002800 R
(1784905738.764721) can0 12D#000000000000005F R
(1784905738.769842) can0 121#00A601CF048000B3 R
(1784905738.770284) can0 129#00000001000000BA R
(1784905738.770378) can0 120#00000000000000BE R
(1784905738.775470) can0 12D#000000000000006A R
(1784905738.775842) can0 12E#000000000000C02E R
(1784905738.783531) can0 12D#000000000000008B R
(1784905738.788180) can0 121#00A601CF048000D9 R
(1784905738.788656) can0 129#00000001000000D0 R
(1784905738.789959) can0 120#00000000000000D4 R
(1784905738.802294) can0 450#0000000000002800 R
(1784905738.806830) can0 12D#00000000000000D4 R
(1784905738.811088) can0 121#00A601CF04800038 R
(1784905738.811566) can0 129#0000000100000031 R
(1784905738.816126) can0 12D#0000000000000035 R
(1784905738.825134) can0 12D#000000000000005F R
(1784905738.825557) can0 12A#10050000000A0057 R
(1784905738.830196) can0 121#00A601CF04800052 R
(1784905738.830592) can0 129#000000010000005B R
(1784905738.831087) can0 120#000000000000005F R
(1784905738.834142) can0 12D#000000000000006A R
(1784905738.843653) can0 12D#000000000000008B R
(1784905738.848187) can0 121#00A601CF04800067 R
(1784905738.848389) can0 129#000000010000006E R
(1784905738.850455) can0 120#000000000000006A R
(1784905738.851706) can0 541#00001000000E16BA R
(1784905738.852033) can0 450#0000000000002800 R
(1784905738.854831) can0 12D#00000000000000BE R
(1784905738.863599) can0 12D#00000000000000D4 R
(1784905738.868258) can0 121#00A601CF04800086 R
(1784905738.868657) can0 129#000000010000008F R
(1784905738.871575) can0 120#000000000000008B R
(1784905738.874666) can0 12D#0000000000000035 R
(1784905738.886127) can0 12D#000000000000005F R
(1784905738.888281) can0 121#00A601CF048000B3 R
(1784905738.888720) can0 129#00000001000000BA R
(1784905738.889932) can0 120#00000000000000BE R
(1784905738.902998) can0 450#0000000000002800 R
(1784905738.903504) can0 12D#000000000000008B R
(1784905738.924284) can0 12D#00000000000000D4 R
(1784905738.924679) can0 12A#10050000000A0083 R
(1784905738.930958) can0 121#00A601CF04800038 R
(1784905738.945276) can0 12D#000000000000005F R
(1784905738.949385) can0 121#00A601CF04800052 R
(1784905738.949805) can0 129#000000010000005B R
(1784905738.964795) can0 12D#000000000000008B R
(1784905738.969233) can0 121#00A601CF04800067 R
(1784905738.969697) can0 129#000000010000006E R
(1784905738.972902) can0 120#000000000000006A R
(1784905738.973327) can0 541#00001000000E16BA R
(1784905738.983507) can0 12D#00000000000000D4 R
(1784905738.988142) can0 121#00A601CF04800086 R
(1784905738.988529) can0 129#000000010000008F R
(1784905738.989731) can0 120#000000000000008B R
(1784905738.994598) can0 12D#0000000000000035 R
(1784905739.003730) can0 12D#000000000000005F R
(1784905739.008144) can0 121#00A601CF048000B3 R
(1784905739.016585) can0 12D#000000000000006A R
(1784905739.025269) can0 12D#000000000000008B R
(1784905739.028212) can0 121#00A601CF048000D9 R
(1784905739.034897) can0 12D#00000000000000BE R
(1784905739.035388) can0 12E#000000000000C044 R
(1784905739.043525) can0 12D#00000000000000D4 R
(1784905739.050477) can0 121#00A601CF04800038 R
(1784905739.050977) can0 129#0000000100000031 R
(1784905739.051146) can0 120#0000000000000035 R
(1784905739.051245) can0 541#00001000000E166E R
(1784905739.053659) can0 12D#0000000000000035 R
(1784905739.065548) can0 12D#000000000000005F R
(1784905739.070646) can0 121#00A601CF04800052 R
(1784905739.071133) can0 129#000000010000005B R
(1784905739.071257) can0 120#000000000000005F R
(1784905739.071397) can0 541#00001000000E1799 R
(1784905739.076893) can0 12D#000000000000006A R
(1784905739.079148) can0 12E#000000000000C090 R
(1784905739.082813) can0 12A#10050000000A003D R
(1784905739.083133) can0 5A0#00000000040000DA R
(1784905739.083485) can0 12D#000000000000008B R
(1784905739.088333) can0 121#00A601CF04800067 R
(1784905739.088732) can0 129#000000010000006E R
(1784905739.089732) can0 120#000000000000006A R
(1784905739.090849) can0 541#00001000000E17AC R
(1784905739.094060) can0 12D#00000000000000BE R
(1784905739.100451) can0 450#0000000000002800 R
(1784905739.104161) can0 12D#00000000000000D4 R
(1784905739.108333) can0 121#00A601CF04800086 R
(1784905739.108730) can0 129#000000010000008F R
(1784905739.109870) can0 120#000000000000008B R
(1784905739.113200) can0 541#00001000000E17C6 R
(1784905739.123514) can0 12D#000000000000005F R
(1784905739.128220) can0 121#00A601CF048000B3 R
(1784905739.128481) can0 129#00000001000000BA R
(1784905739.129854) can0 120#00000000000000BE R
(1784905739.130951) can0 541#00001000000E1727 R
(1784905739.143531) can0 12D#000000000000008B R
(1784905739.149560) can0 121#00A601CF048000D9 R
(1784905739.150023) can0 129#00000001000000D0 R
(1784905739.150123) can0 120#00000000000000D4 R
(1784905739.152575) can0 541#00001000000E174D R
(1784905739.165403) can0 12D#00000000000000D4 R
(1784905739.168199) can0 121#00A601CF04800038 R
(1784905739.172280) can0 120#0000000000000035 R
(1784905739.183851) can0 12D#000000000000005F R
(1784905739.188467) can0 121#00A601CF04800052 R
(1784905739.188862) can0 129#000000010000005B R
(1784905739.192865) can0 120#000000000000005F R
(1784905739.200390) can0 450#0000000000002800 R
(1784905739.203826) can0 12D#000000000000008B R
(1784905739.208872) can0 121#00A601CF04800067 R
(1784905739.223493) can0 12D#00000000000000D4 R
(1784905739.228199) can0 121#00A601CF04800086 R
(1784905739.231499) can0 129#000000010000008F R
(1784905739.231728) can0 540#000040100000ED00 R
(1784905739.236908) can0 12D#0000000000000035 R
(1784905739.237291) can0 12E#000000000000C0CF R
(1784905739.243506) can0 12D#000000000000005F R
(1784905739.249692) can0 121#00A601CF048000B3 R
(1784905739.250116) can0 129#00000001000000BA R
(1784905739.250233) can0 120#00000000000000BE R
(1784905739.250864) can0 541#00001000000E1727 R
(1784905739.251244) can0 450#0000000000002800 R
(1784905739.254636) can0 12D#000000000000006A R
(1784905739.254856) can0 12E#000000000000C02E R
(1784905739.263531) can0 12D#000000000000008B R
(1784905739.269698) can0 121#00A601CF048000D9 R
(1784905739.270100) can0 129#00000001000000D0 R
(1784905739.270198) can0 120#00000000000000D4 R
(1784905739.274000) can0 541#00001000000E174D R
(1784905739.274339) can0 12D#00000000000000BE R
(1784905739.274446) can0 12E#000000000000C044 R
(1784905739.274587) can0 12A#10050000000A00B6 R
(1784905739.283884) can0 12D#00000000000000D4 R
(1784905739.288534) can0 121#00A601CF04800038 R
(1784905739.288924) can0 129#0000000100000031 R
(1784905739.293452) can0 120#0000000000000035 R
(1784905739.293954) can0 12D#0000000000000035 R
(1784905739.300733) can0 450#0000000000002800 R
(1784905739.303693) can0 12D#000000000000005F R
(1784905739.311135) can0 121#00A601CF04800052 R
(1784905739.311486) can0 129#000000010000005B R
(1784905739.313808) can0 12D#000000000000006A R
(1784905739.323500) can0 12D#000000000000008B R
(1784905739.323877) can0 12A#10050000000A00DC R
(1784905739.328160) can0 121#00A601CF04800067 R
(1784905739.334425) can0 540#000040100000ED00 R
(1784905739.343517) can0 12D#00000000000000D4 R
(1784905739.348275) can0 121#00A601CF04800086 R
(1784905739.348632) can0 129#000000010000008F R
(1784905739.350908) can0 120#000000000000008B R
(1784905739.353271) can0 541#00001000000E17C6 R
(1784905739.353385) can0 450#0000000000002800 R
(1784905739.353622) can0 12D#0000000000000035 R
(1784905739.363485) can0 12D#000000000000005F R
(1784905739.368514) can0 121#00A601CF048000B3 R
(1784905739.368970) can0 129#00000001000000BA R
(1784905739.373400) can0 120#00000000000000BE R
(1784905739.373735) can0 541#00001000000E1727 R
(1784905739.373839) can0 12D#000000000000006A R
(1784905739.386720) can0 12D#000000000000008B R
(1784905739.389388) can0 121#00A601CF048000D9 R
(1784905739.393334) can0 129#00000001000000D0 R
(1784905739.393723) can0 120#00000000000000D4 R
(1784905739.400342) can0 450#0000000000002800 R
(1784905739.404375) can0 12D#00000000000000D4 R
(1784905739.408184) can0 121#00A601CF04800038 R
(1784905739.408647) can0 129#0000000100000031 R
(1784905739.411267) can0 120#0000000000000035 R
(1784905739.411728) can0 541#00001000000E1778 R
(1784905739.423685) can0 12D#000000000000005F R
(1784905739.424093) can0 12A#10050000000A0057 R
(1784905739.428668) can0 129#000000010000005B R
(1784905739.443822) can0 12D#000000000000008B R
(1784905739.449229) can0 121#00A601CF04800067 R
(1784905739.450468) can0 129#000000010000006E R
(1784905739.450741) can0 120#000000000000006A R
(1784905739.450888) can0 541#00001000000E17AC R
(1784905739.451375) can0 450#0000000000002800 R
(1784905739.453861) can0 12D#00000000000000BE R
(1784905739.454228) can0 12E#000000000000C0A5 R
(1784905739.463531) can0 12D#00000000000000D4 R
(1784905739.469578) can0 121#00A601CF04800086 R
(1784905739.469953) can0 129#000000010000008F R
(1784905739.470056) can0 120#000000000000008B R
(1784905739.475943) can0 5A0#0000000004000085 R
(1784905739.488218) can0 121#00A601CF048000B3 R
(1784905739.490630) can0 129#00000001000000BA R
(1784905739.500318) can0 450#0000000000002800 R
(1784905739.503498) can0 12D#000000000000008B R
(1784905739.509558) can0 121#00A601CF048000D9 R
(1784905739.510057) can0 129#00000001000000D0 R
(1784905739.510170) can0 120#00000000000000D4 R
(1784905739.510689) can0 541#00001000000E174D R
(1784905739.515390) can0 12D#00000000000000BE R
(1784905739.517709) can0 12E#000000000000C044 R
(1784905739.526603) can0 12D#00000000000000D4 R
(1784905739.530519) can0 121#00A601CF04800038 R
(1784905739.543505) can0 12D#000000000000005F R
(1784905739.548192) can0 121#00A601CF04800052 R
(1784905739.548591) can0 129#000000010000005B R
(1784905739.553283) can0 120#000000000000005F R
(1784905739.563482) can0 12D#000000000000008B R
(1784905739.568172) can0 121#00A601CF04800067 R
(1784905739.568608) can0 129#000000010000006E R
(1784905739.571547) can0 120#000000000000006A R
(1784905739.571775) can0 541#00001000000E17AC R
(1784905739.585997) can0 12D#00000000000000D4 R
(1784905739.588174) can0 121#00A601CF04800086 R
(1784905739.588445) can0 129#000000010000008F R
(1784905739.592228) can0 120#000000000000008B R
(1784905739.592640) can0 541#00001000000E17C6 R
(1784905739.597059) can0 12D#0000000000000035 R
(1784905739.606873) can0 12D#000000000000005F R
(1784905739.609662) can0 121#00A601CF048000B3 R
(1784905739.610098) can0 129#00000001000000BA R
(1784905739.616056) can0 12D#000000000000006A R
(1784905739.623521) can0 12D#000000000000008B R
(1784905739.629220) can0 121#00A601CF048000D9 R
(1784905739.634206) can0 120#00000000000000D4 R
(1784905739.643478) can0 12D#00000000000000D4 R
(1784905739.649881) can0 121#00A601CF04800038 R
(1784905739.650392) can0 129#0000000100000031 R
(1784905739.650529) can0 120#0000000000000035 R
(1784905739.650683) can0 541#00001000000E1778 R
(1784905739.666127) can0 12D#000000000000005F R
(1784905739.670753) can0 121#00A601CF04800052 R
(1784905739.671137) can0 129#000000010000005B R
(1784905739.672089) can0 120#000000000000005F R
(1784905739.683667) can0 12D#000000000000008B R
(1784905739.691786) can0 121#00A601CF04800067 R
(1784905739.692148) can0 129#000000010000006E R
(1784905739.692359) can0 120#000000000000006A R
(1784905739.692456) can0 541#00001000000E17AC R
(1784905739.696356) can0 12D#00000000000000BE R
(1784905739.696666) can0 12E#000000000000C0A5 R
(1784905739.700590) can0 450#0000000000002800 R
(1784905739.704870) can0 12D#00000000000000D4 R
(1784905739.708265) can0 121#00A601CF04800086 R
(1784905739.708762) can0 129#000000010000008F R
(1784905739.713084) can0 120#000000000000008B R
(1784905739.723514) can0 12D#000000000000005F R
(1784905739.727351) can0 12A#10050000000A0057 R
(1784905739.731339) can0 121#00A601CF048000B3 R
(1784905739.731839) can0 129#00000001000000BA R
(1784905739.731933) can0 540#000040100000ED00 R
(1784905739.743731) can0 12D#000000000000008B R
(1784905739.748249) can0 121#00A601CF048000D9 R
(1784905739.752211) can0 129#00000001000000D0 R
(1784905739.752538) can0 541#00001000000E174D R
(1784905739.753719) can0 12D#00000000000000BE R
(1784905739.763607) can0 12D#00000000000000D4 R
(1784905739.768229) can0 121#00A601CF04800038 R
(1784905739.768632) can0 129#0000000100000031 R
(1784905739.769821) can0 120#0000000000000035 R
(1784905739.773998) can0 541#00001000000E1778 R
(1784905739.774387) can0 12D#0000000000000035 R
(1784905739.774507) can0 12E#000000000000C071 R
(1784905739.774719) can0 12A#10050000000A0062 R
(1784905739.774885) can0 5A0#000000000400003B R
(1784905739.783511) can0 12D#000000000000005F R
(1784905739.788387) can0 121#00A601CF04800052 R
(1784905739.788788) can0 129#000000010000005B R
(1784905739.789781) can0 120#000000000000005F R
(1784905739.790723) can0 541#00001000000E1799 R
(1784905739.794606) can0 12D#000000000000006A R
(1784905739.794982) can0 12E#000000000000C090 R
(1784905739.803989) can0 450#0000000000002800 R
(1784905739.804416) can0 12D#000000000000008B R
(1784905739.810006) can0 121#00A601CF04800067 R
(1784905739.810408) can0 129#000000010000006E R
(1784905739.814730) can0 12D#00000000000000BE R
(1784905739.823845) can0 12D#00000000000000D4 R
(1784905739.827603) can0 12A#10050000000A0083 R
(1784905739.829905) can0 120#000000000000008B R
(1784905739.843455) can0 12D#000000000000005F R
(1784905739.848245) can0 121#00A601CF048000B3 R
(1784905739.848708) can0 129#00000001000000BA R
(1784905739.851023) can0 120#00000000000000BE R
(1784905739.853625) can0 12D#000000000000006A R
(1784905739.855534) can0 12E#000000000000C02E R
(1784905739.863474) can0 12D#000000000000008B R
(1784905739.868224) can0 121#00A601CF048000D9 R
(1784905739.868477) can0 129#00000001000000D0 R
(1784905739.872762) can0 120#00000000000000D4 R
(1784905739.885518) can0 12D#00000000000000D4 R
(1784905739.893392) can0 120#0000000000000035 R
(1784905739.900368) can0 450#0000000000002800 R
(1784905739.906033) can0 12D#000000000000005F R
(1784905739.908967) can0 121#00A601CF04800052 R
(1784905739.909453) can0 129#000000010000005B R
(1784905739.930570) can0 12D#000000000000008B R
(1784905739.930950) can0 12A#10050000000A00DC R
(1784905739.931372) can0 540#000040100000ED00 R
(1784905739.944501) can0 12D#00000000000000D4 R
(1784905739.949561) can0 121#00A601CF04800086 R
(1784905739.949889) can0 129#000000010000008F R
(1784905739.949989) can0 120#000000000000008B R
(1784905739.951309) can0 541#00001000000E17C6 R
(1784905739.951627) can0 450#0000000000002800 R
(1784905739.954304) can0 12D#0000000000000035 R
(1784905739.963494) can0 12D#000000000000005F R
(1784905739.968224) can0 121#00A601CF048000B3 R
(1784905739.972702) can0 129#00000001000000BA R
(1784905739.973937) can0 120#00000000000000BE R
(1784905739.974240) can0 541#00001000000E1727 R
(1784905739.974345) can0 12D#000000000000006A R
(1784905739.986584) can0 12D#000000000000008B R
(1784905739.988323) can0 121#00A601CF048000D9 R
(1784905739.988633) can0 129#00000001000000D0 R
(1784905739.991707) can0 120#00000000000000D4 R
(1784905739.992045) can0 541#00001000000E174D R
(1784905739.993647) can0 12D#00000000000000BE R
(1784905740.003525) can0 12D#00000000000000D4 R
(1784905740.010724) can0 541#00001000000E1778 R
(1784905740.023577) can0 12D#000000000000005F R
(1784905740.028371) can0 121#00A601CF04800052 R
(1784905740.037047) can0 12D#000000000000006A R
(1784905740.043644) can0 12D#000000000000008B R
(1784905740.051641) can0 121#00A601CF04800067 R
(1784905740.052139) can0 129#000000010000006E R
(1784905740.056266) can0 120#000000000000006A R
(1784905740.065224) can0 12D#00000000000000D4 R
(1784905740.068265) can0 121#00A601CF04800086 R
(1784905740.070459) can0 129#000000010000008F R
(1784905740.070581) can0 120#000000000000008B R
(1784905740.070681) can0 541#00001000000E18C0 R
(1784905740.075097) can0 12D#0000000000000035 R
(1784905740.083487) can0 12D#000000000000005F R
(1784905740.088509) can0 121#00A601CF048000B3 R
(1784905740.088862) can0 129#00000001000000BA R
(1784905740.090175) can0 120#00000000000000BE R
(1784905740.094844) can0 541#00001000000E1821 R
(1784905740.102961) can0 450#0000000000002800 R
(1784905740.103488) can0 12D#000000000000008B R
(1784905740.108238) can0 121#00A601CF048000D9 R
(1784905740.111844) can0 120#00000000000000D4 R
(1784905740.123521) can0 12D#00000000000000D4 R
(1784905740.127345) can0 12A#10050000000A0083 R
(1784905740.128183) can0 121#00A601CF04800038 R
(1784905740.128451) can0 129#0000000100000031 R
(1784905740.131497) can0 540#000040100000ED00 R
(1784905740.131952) can0 5B0#10000000000000BF R
(1784905740.136906) can0 12D#0000000000000035 R
(1784905740.145292) can0 12D#000000000000005F R
(1784905740.155600) can0 121#00A601CF04800052 R
(1784905740.156051) can0 129#000000010000005B R
(1784905740.156155) can0 120#000000000000005F R
(1784905740.156335) can0 541#00001000000E189F R
(1784905740.163488) can0 12D#000000000000008B R
(1784905740.168886) can0 121#00A601CF04800067 R
(1784905740.169264) can0 129#000000010000006E R
(1784905740.172893) can0 120#000000000000006A R
(1784905740.173292) can0 541#00001000000E18AA R
(1784905740.174080) can0 12D#00000000000000BE R
(1784905740.174373) can0 12E#000000000000C0A5 R
(1784905740.174602) can0 12A#10050000000A00B6 R
(1784905740.174700) can0 5A0#00000000040000B0 R
(1784905740.186455) can0 12D#00000000000000D4 R
(1784905740.189845) can0 121#00A601CF04800086 R
(1784905740.190252) can0 129#000000010000008F R
(1784905740.195130) can0 12D#0000000000000035 R
(1784905740.200358) can0 450#0000000000002800 R
(1784905740.203719) can0 12D#000000000000005F R
(1784905740.209135) can0 121#00A601CF048000B3 R
(1784905740.210729) can0 541#00001000000E1821 R
(1784905740.223443) can0 12D#000000000000008B R
(1784905740.223941) can0 12A#10050000000A00DC R
(1784905740.228419) can0 121#00A601CF048000D9 R
(1784905740.228793) can0 129#00000001000000D0 R
(1784905740.229082) can0 5B0#10000000000000D5 R
(1784905740.245041) can0 12D#00000000000000D4 R
(1784905740.248230) can0 121#00A601CF04800038 R
(1784905740.252132) can0 129#0000000100000031 R
(1784905740.252414) can0 120#0000000000000035 R
(1784905740.256164) can0 12D#0000000000000035 R
(1784905740.263489) can0 12D#000000000000005F R
(1784905740.268346) can0 121#00A601CF04800052 R
(1784905740.268701) can0 129#000000010000005B R
(1784905740.272320) can0 120#000000000000005F R
(1784905740.272705) can0 541#00001000000E189F R
(1784905740.276790) can0 12D#000000000000006A R
(1784905740.285719) can0 12D#000000000000008B R
(1784905740.288496) can0 121#00A601CF04800067 R
(1784905740.290611) can0 129#000000010000006E R
(1784905740.301576) can0 450#0000000000002800 R
(1784905740.312630) can0 541#00001000000E18C0 R
(1784905740.323470) can0 12D#000000000000005F R
(1784905740.323863) can0 12A#10050000000A0057 R
(1784905740.328285) can0 121#00A601CF048000B3 R
(1784905740.332635) can0 129#00000001000000BA R
(1784905740.337260) can0 12D#000000000000006A R
(1784905740.345587) can0 12D#000000000000008B R
(1784905740.353607) can0 12D#00000000000000BE R
(1784905740.363505) can0 12D#00000000000000D4 R
(1784905740.368294) can0 121#00A601CF04800038 R
(1784905740.368675) can0 129#0000000100000031 R
(1784905740.371551) can0 120#0000000000000035 R
(1784905740.371962) can0 541#00001000000E187E R
(1784905740.374940) can0 12D#0000000000000035 R
(1784905740.375311) can0 12E#000000000000C071 R
(1784905740.375494) can0 12A#10050000000A0062 R
(1784905740.383496) can0 12D#000000000000005F R
(1784905740.388490) can0 121#00A601CF04800052 R
(1784905740.388929) can0 129#000000010000005B R
(1784905740.389918) can0 120#000000000000005F R
(1784905740.394085) can0 12D#000000000000006A R
(1784905740.402579) can0 450#0000000000002800 R
(1784905740.410288) can0 121#00A601CF04800067 R
(1784905740.423460) can0 12D#00000000000000D4 R
(1784905740.423950) can0 12A#10050000000A0083 R
(1784905740.430379) can0 121#00A601CF04800086 R
(1784905740.432613) can0 129#000000010000008F R
(1784905740.443476) can0 12D#000000000000005F R
(1784905740.448493) can0 121#00A601CF048000B3 R
(1784905740.452538) can0 129#00000001000000BA R
(1784905740.452653) can0 120#00000000000000BE R
(1784905740.452805) can0 541#00001000000E1821 R
(1784905740.456461) can0 12D#000000000000006A R
(1784905740.463528) can0 12D#000000000000008B R
(1784905740.468239) can0 121#00A601CF048000D9 R
(1784905740.468604) can0 129#00000001000000D0 R
(1784905740.469901) can0 120#00000000000000D4 R
(1784905740.473891) can0 541#00001000000E184B R
(1784905740.474336) can0 12D#00000000000000BE R
(1784905740.474452) can0 12E#000000000000C044 R
(1784905740.474547) can0 12A#10050000000A00B6 R
(1784905740.478055) can0 5A0#0000000004000051 R
(1784905740.483496) can0 12D#00000000000000D4 R
(1784905740.490609) can0 121#00A601CF04800038 R
(1784905740.490975) can0 129#0000000100000031 R
(1784905740.495122) can0 12D#0000000000000035 R
(1784905740.500362) can0 450#0000000000002800 R
(1784905740.504212) can0 12D#000000000000005F R
(1784905740.510198) can0 121#00A601CF04800052 R
(1784905740.510630) can0 129#000000010000005B R
(1784905740.515147) can0 12D#000000000000006A R
(1784905740.515700) can0 12E#000000000000C090 R
(1784905740.523445) can0 12D#000000000000008B R
(1784905740.523809) can0 12A#10050000000A00DC R
(1784905740.528267) can0 121#00A601CF04800067 R
(1784905740.528755) can0 129#000000010000006E R
(1784905740.528893) can0 540#000040100000ED00 R
(1784905740.529002) can0 5B0#100000000000006B R
(1784905740.529907) can0 120#000000000000006A R
(1784905740.530722) can0 541#00001000000E18AA R
(1784905740.534811) can0 12D#00000000000000BE R
(1784905740.535158) can0 12E#000000000000C0A5 R
(1784905740.543791) can0 12D#00000000000000D4 R
(1784905740.549890) can0 121#00A601CF04800086 R
(1784905740.554098) can0 129#000000010000008F R
(1784905740.554413) can0 120#000000000000008B R
(1784905740.554618) can0 541#00001000000E18C0 R
(1784905740.554826) can0 12D#0000000000000035 R
(1784905740.563920) can0 12D#000000000000005F R
(1784905740.568400) can0 121#00A601CF048000B3 R
(1784905740.569658) can0 129#00000001000000BA R
(1784905740.569966) can0 120#00000000000000BE R
(1784905740.573627) can0 12D#000000000000006A R
(1784905740.573943) can0 12E#000000000000C02E R
(1784905740.574151) can0 12A#10050000000A003D R
(1784905740.574347) can0 5A0#0000000004000064 R
(1784905740.586164) can0 12D#000000000000008B R
(1784905740.588362) can0 121#00A601CF048000D9 R
(1784905740.588857) can0 129#00000001000000D0 R
(1784905740.590959) can0 120#00000000000000D4 R
(1784905740.593602) can0 12D#00000000000000BE R
(1784905740.605931) can0 12D#00000000000000D4 R
(1784905740.614085) can0 12D#0000000000000035 R
(1784905740.624892) can0 12D#000000000000005F R
(1784905740.628295) can0 121#00A601CF04800052 R
(1784905740.628650) can0 129#000000010000005B R
(1784905740.628731) can0 540#000040100000ED00 R
(1784905740.633554) can0 12D#000000000000006A R
(1784905740.633943) can0 12E#000000000000C090 R
(1784905740.643467) can0 12D#000000000000008B R
(1784905740.648587) can0 121#00A601CF04800067 R
(1784905740.649680) can0 129#000000010000006E R
(1784905740.651445) can0 541#00001000000E18AA R
(1784905740.664219) can0 12D#00000000000000D4 R
(1784905740.668267) can0 121#00A601CF04800086 R
(1784905740.673682) can0 12D#0000000000000035 R
(1784905740.685779) can0 12D#000000000000005F R
(1784905740.690864) can0 121#00A601CF048000B3 R
(1784905740.691215) can0 129#00000001000000BA R
(1784905740.691320) can0 120#00000000000000BE R
(1784905740.691522) can0 541#00001000000E1821 R
(1784905740.700586) can0 450#0000000000002800 R
(1784905740.706803) can0 12D#000000000000008B R
(1784905740.709692) can0 121#00A601CF048000D9 R
(1784905740.714551) can0 12D#00000000000000BE R
(1784905740.723460) can0 12D#00000000000000D4 R
(1784905740.723857) can0 12A#10050000000A0083 R
(1784905740.732028) can0 541#00001000000E187E R
(1784905740.743505) can0 12D#000000000000005F R
(1784905740.750243) can0 121#00A601CF04800052 R
(1784905740.750712) can0 129#000000010000005B R
(1784905740.750823) can0 120#000000000000005F R
(1784905740.756353) can0 12D#000000000000006A R
(1784905740.756715) can0 12E#000000000000C090 R
(1784905740.768654) can0 121#00A601CF04800067 R
(1784905740.772844) can0 120#000000000000006A R
(1784905740.776297) can0 12A#10050000000A00B6 R
(1784905740.785683) can0 12D#00000000000000D4 R
(1784905740.791178) can0 121#00A601CF04800086 R
(1784905740.791621) can0 129#000000010000008F R
(1784905740.791730) can0 120#000000000000008B R
(1784905740.791835) can0 541#00001000000E18C0 R
(1784905740.793826) can0 12D#0000000000000035 R
(1784905740.800361) can0 450#0000000000002800 R
(1784905740.805199) can0 12D#000000000000005F R
(1784905740.809575) can0 121#00A601CF048000B3 R
(1784905740.823428) can0 12D#000000000000008B R
(1784905740.827206) can0 12A#10050000000A00DC R
(1784905740.828311) can0 121#00A601CF048000D9 R
(1784905740.828585) can0 129#00000001000000D0 R
(1784905740.828707) can0 540#000040100000ED00 R
(1784905740.833558) can0 12D#00000000000000BE R
(1784905740.843434) can0 12D#00000000000000D4 R
(1784905740.850057) can0 121#00A601CF04800038 R
(1784905740.850622) can0 129#0000000100000031 R
(1784905740.856123) can0 12D#0000000000000035 R
(1784905740.864518) can0 12D#000000000000005F R
(1784905740.868541) can0 121#00A601CF04800052 R
(1784905740.868967) can0 129#000000010000005B R
(1784905740.872140) can0 120#000000000000005F R
(1784905740.873765) can0 12D#000000000000006A R
(1784905740.884202) can0 12D#000000000000008B R
(1784905740.889721) can0 121#00A601CF04800067 R
(1784905740.890122) can0 129#000000010000006E R
(1784905740.890227) can0 120#000000000000006A R
(1784905740.890752) can0 541#00001000000E18AA R
(1784905740.894035) can0 12D#00000000000000BE R
(1784905740.894331) can0 12E#000000000000C0A5 R
(1784905740.902914) can0 450#0000000000002800 R
(1784905740.910901) can0 121#00A601CF04800086 R
(1784905740.926277) can0 12D#000000000000005F R
(1784905740.928865) can0 121#00A601CF048000B3 R
(1784905740.944270) can0 12D#000000000000008B R
(1784905740.950379) can0 121#00A601CF048000D9 R
(1784905740.950761) can0 129#00000001000000D0 R
(1784905740.950836) can0 120#00000000000000D4 R
(1784905740.951047) can0 541#00001000000E184B R
(1784905740.954498) can0 12D#00000000000000BE R
(1784905740.963470) can0 12D#00000000000000D4 R
(1784905740.968505) can0 121#00A601CF04800038 R
(1784905740.970750) can0 129#0000000100000031 R
(1784905740.983585) can0 12D#000000000000005F R
(1784905740.989044) can0 121#00A601CF04800052 R
(1784905740.989509) can0 129#000000010000005B R
(1784905740.992392) can0 120#000000000000005F R
(1784905740.992773) can0 541#00001000000E189F R
(1784905740.993544) can0 12D#000000000000006A R
(1784905741.000613) can0 450#0000000000002800 R
(1784905741.005846) can0 12D#000000000000008B R
(1784905741.009501) can0 129#000000010000006E R
(1784905741.015281) can0 12D#00000000000000BE R
(1784905741.024478) can0 12D#00000000000000D4 R
(1784905741.024829) can0 12A#10050000000A0083 R
(1784905741.029183) can0 121#00A601CF04800086 R
(1784905741.029580) can0 129#000000010000008F R
(1784905741.033632) can0 541#00001000000E18C0 R
(1784905741.044415) can0 12D#000000000000005F R
(1784905741.049284) can0 121#00A601CF048000B3 R
(1784905741.052339) can0 129#00000001000000BA R
(1784905741.052584) can0 120#00000000000000BE R
(1784905741.052711) can0 541#00001000000E1821 R
(1784905741.052840) can0 450#0000000000002800 R
(1784905741.063420) can0 12D#000000000000008B R
(1784905741.069352) can0 121#00A601CF048000D9 R
(1784905741.074172) can0 12D#00000000000000BE R
(1784905741.083737) can0 12D#00000000000000D4 R
(1784905741.088742) can0 121#00A601CF04800038 R
(1784905741.089760) can0 129#0000000100000031 R
(1784905741.090019) can0 120#0000000000000035 R
(1784905741.090752) can0 541#00001000000E1968 R
(1784905741.093525) can0 12D#0000000000000035 R
(1784905741.093886) can0 12E#000000000000C071 R
(1784905741.100365) can0 450#0000000000002800 R
(1784905741.104675) can0 12D#000000000000005F R
(1784905741.109019) can0 121#00A601CF04800052 R
(1784905741.109366) can0 129#000000010000005B R
(1784905741.110325) can0 120#000000000000005F R
(1784905741.110743) can0 541#00001000000E1989 R
(1784905741.113541) can0 12D#000000000000006A R
(1784905741.113904) can0 12E#000000000000C090 R
(1784905741.124094) can0 12D#000000000000008B R
(1784905741.124568) can0 12A#10050000000A00DC R
(1784905741.128306) can0 121#00A601CF04800067 R
(1784905741.128783) can0 129#000000010000006E R
(1784905741.128926) can0 540#000040100000ED00 R
(1784905741.129058) can0 5B0#100000000000006B R
(1784905741.132985) can0 120#000000000000006A R
(1784905741.143432) can0 12D#00000000000000D4 R
(1784905741.148955) can0 121#00A601CF04800086 R
(1784905741.149323) can0 129#000000010000008F R
(1784905741.153587) can0 120#000000000000008B R
(1784905741.154036) can0 541#00001000000E19D6 R
(1784905741.154147) can0 450#0000000000002800 R
(1784905741.163431) can0 12D#000000000000005F R
(1784905741.168496) can0 121#00A601CF048000B3 R
(1784905741.168736) can0 129#00000001000000BA R
(1784905741.172119) can0 120#00000000000000BE R
(1784905741.173739) can0 12D#000000000000006A R
(1784905741.183917) can0 12D#000000000000008B R
(1784905741.188328) can0 121#00A601CF048000D9 R
(1784905741.188844) can0 129#00000001000000D0 R
(1784905741.190144) can0 120#00000000000000D4 R
(1784905741.190739) can0 541#00001000000E195D R
(1784905741.194105) can0 12D#00000000000000BE R
(1784905741.194564) can0 12E#000000000000C044 R
(1784905741.201680) can0 450#0000000000002800 R
(1784905741.205813) can0 12D#00000000000000D4 R
(1784905741.210486) can0 121#00A601CF04800038 R
(1784905741.226190) can0 12D#000000000000005F R
(1784905741.226567) can0 12A#10050000000A0057 R
(1784905741.229986) can0 121#00A601CF04800052 R
(1784905741.230459) can0 129#000000010000005B R
(1784905741.230554) can0 540#000040100000ED00 R
(1784905741.230753) can0 5B0#100000000000008A R
(1784905741.233527) can0 12D#000000000000006A R
(1784905741.243390) can0 12D#000000000000008B R
(1784905741.248333) can0 121#00A601CF04800067 R
(1784905741.248736) can0 129#000000010000006E R
(1784905741.251976) can0 120#000000000000006A R
(1784905741.252372) can0 541#00001000000E19BC R
(1784905741.253535) can0 12D#00000000000000BE R
(1784905741.263398) can0 12D#00000000000000D4 R
(1784905741.268316) can0 121#00A601CF04800086 R
(1784905741.268805) can0 129#000000010000008F R
(1784905741.269909) can0 120#000000000000008B R
(1784905741.273643) can0 12D#0000000000000035 R
(1784905741.283470) can0 12D#000000000000005F R
(1784905741.288310) can0 121#00A601CF048000B3 R
(1784905741.288692) can0 129#00000001000000BA R
(1784905741.290001) can0 120#00000000000000BE R
(1784905741.292372) can0 541#00001000000E1937 R
(1784905741.293569) can0 12D#000000000000006A R
(1784905741.301239) can0 450#0000000000002800 R
(1784905741.303951) can0 12D#000000000000008B R
(1784905741.308467) can0 121#00A601CF048000D9 R
(1784905741.311010) can0 129#00000001000000D0 R
(1784905741.323429) can0 12D#00000000000000D4 R
(1784905741.329349) can0 121#00A601CF04800038 R
(1784905741.336197) can0 12D#0000000000000035 R
(1784905741.344492) can0 12D#000000000000005F R
(1784905741.349205) can0 121#00A601CF04800052 R
(1784905741.364357) can0 12D#000000000000008B R
(1784905741.368616) can0 121#00A601CF04800067 R
(1784905741.369015) can0 129#000000010000006E R
(1784905741.370055) can0 120#000000000000006A R
(1784905741.374819) can0 12D#00000000000000BE R
(1784905741.383723) can0 12D#00000000000000D4 R
(1784905741.388370) can0 121#00A601CF04800086 R
(1784905741.394609) can0 12D#0000000000000035 R
(1784905741.400072) can0 12E#000000000000C0CF R
(1784905741.400455) can0 450#0000000000002800 R
(1784905741.403713) can0 12D#000000000000005F R
(1784905741.410136) can0 121#00A601CF048000B3 R
(1784905741.410492) can0 129#00000001000000BA R
(1784905741.410596) can0 120#00000000000000BE R
(1784905741.410700) can0 541#00001000000E1937 R
(1784905741.424419) can0 12D#000000000000008B R
(1784905741.424842) can0 12A#10050000000A00DC R
(1784905741.429325) can0 121#00A601CF048000D9 R
(1784905741.429671) can0 129#00000001000000D0 R
(1784905741.429762) can0 540#000040100000ED00 R
(1784905741.433587) can0 5B0#10000000000000D5 R
(1784905741.445207) can0 12D#00000000000000D4 R
(1784905741.451678) can0 541#00001000000E1968 R
(1784905741.463650) can0 12D#000000000000005F R
(1784905741.468885) can0 121#00A601CF04800052 R
(1784905741.469320) can0 129#000000010000005B R
(1784905741.469912) can0 120#000000000000005F R
(1784905741.473305) can0 541#00001000000E1989 R
(1784905741.483557) can0 12D#000000000000008B R
(1784905741.490235) can0 121#00A601CF04800067 R
(1784905741.493597) can0 12D#00000000000000BE R
(1784905741.501752) can0 450#0000000000002800 R
(1784905741.503463) can0 12D#00000000000000D4 R
(1784905741.508350) can0 121#00A601CF04800086 R
(1784905741.513734) can0 12D#0000000000000035 R
(1784905741.526351) can0 12D#000000000000005F R
(1784905741.526756) can0 12A#10050000000A0057 R
(1784905741.528387) can0 121#00A601CF048000B3 R
(1784905741.528695) can0 129#00000001000000BA R
(1784905741.533333) can0 120#00000000000000BE R
(1784905741.546048) can0 12D#000000000000008B R
(1784905741.548565) can0 121#00A601CF048000D9 R
(1784905741.551879) can0 120#00000000000000D4 R
(1784905741.556458) can0 12D#00000000000000BE R
(1784905741.556956) can0 12E#000000000000C044 R
(1784905741.563539) can0 12D#00000000000000D4 R
(1784905741.569834) can0 121#00A601CF04800038 R
(1784905741.571405) can0 129#0000000100000031 R
(1784905741.571759) can0 120#0000000000000035 R
(1784905741.583623) can0 12D#000000000000005F R
(1784905741.588348) can0 121#00A601CF04800052 R
(1784905741.590062) can0 120#000000000000005F R
(1784905741.594375) can0 12E#000000000000C090 R
(1784905741.601306) can0 450#0000000000002800 R
(1784905741.604421) can0 12D#000000000000008B R
(1784905741.608361) can0 121#00A601CF04800067 R
(1784905741.608769) can0 129#000000010000006E R
(1784905741.612490) can0 120#000000000000006A R
(1784905741.612924) can0 541#00001000000E19BC R
(1784905741.615614) can0 12D#00000000000000BE R
(1784905741.616043) can0 12E#000000000000C0A5 R
(1784905741.625534) can0 12D#00000000000000D4 R
(1784905741.625960) can0 12A#10050000000A0083 R
(1784905741.628656) can0 121#00A601CF04800086 R
(1784905741.629061) can0 129#000000010000008F R
(1784905741.629282) can0 540#000040100000ED00 R
(1784905741.629433) can0 5B0#100000000000005E R
(1784905741.630027) can0 120#000000000000008B R
(1784905741.643750) can0 12D#000000000000005F R
(1784905741.648491) can0 121#00A601CF048000B3 R
(1784905741.652764) can0 129#00000001000000BA R
(1784905741.652883) can0 120#00000000000000BE R
(1784905741.652998) can0 541#00001000000E1937 R
(1784905741.653199) can0 450#0000000000002800 R
(1784905741.664122) can0 12D#000000000000008B R
(1784905741.668551) can0 121#00A601CF048000D9 R
(1784905741.672299) can0 120#00000000000000D4 R
(1784905741.677813) can0 12A#10050000000A00B6 R
(1784905741.686240) can0 12D#00000000000000D4 R
(1784905741.690968) can0 121#00A601CF04800038 R
(1784905741.691359) can0 129#0000000100000031 R
(1784905741.701879) can0 450#0000000000002800 R
(1784905741.704073) can0 12D#000000000000005F R
(1784905741.708439) can0 121#00A601CF04800052 R
(1784905741.709574) can0 129#000000010000005B R
(1784905741.712258) can0 120#000000000000005F R
(1784905741.724566) can0 12D#000000000000008B R
(1784905741.728634) can0 12A#10050000000A00DC R
(1784905741.728812) can0 121#00A601CF04800067 R
(1784905741.729215) can0 5B0#100000000000006B R
(1784905741.744713) can0 12D#00000000000000D4 R
(1784905741.749077) can0 121#00A601CF04800086 R
(1784905741.749482) can0 129#000000010000008F R
(1784905741.750269) can0 120#000000000000008B R
(1784905741.750777) can0 541#00001000000E19D6 R
(1784905741.753137) can0 450#0000000000002800 R
(1784905741.753601) can0 12D#0000000000000035 R
(1784905741.763463) can0 12D#000000000000005F R
(1784905741.771320) can0 121#00A601CF048000B3 R
(1784905741.773726) can0 129#00000001000000BA R
(1784905741.783439) can0 12D#000000000000008B R
(1784905741.788352) can0 121#00A601CF048000D9 R
(1784905741.788729) can0 129#00000001000000D0 R
(1784905741.791217) can0 120#00000000000000D4 R
(1784905741.795923) can0 12D#00000000000000BE R
(1784905741.803957) can0 12D#00000000000000D4 R
(1784905741.808411) can0 121#00A601CF04800038 R
(1784905741.813790) can0 12D#0000000000000035 R
(1784905741.823422) can0 12D#000000000000005F R
(1784905741.826665) can0 12A#10050000000A0057 R
(1784905741.831159) can0 541#00001000000E1989 R
(1784905741.843453) can0 12D#000000000000008B R
(1784905741.849649) can0 121#00A601CF04800067 R
(1784905741.850069) can0 129#000000010000006E R
(1784905741.850155) can0 120#000000000000006A R
(1784905741.865937) can0 12D#00000000000000D4 R
(1784905741.868661) can0 121#00A601CF04800086 R
(1784905741.869071) can0 129#000000010000008F R
(1784905741.869934) can0 120#000000000000008B R
(1784905741.870777) can0 541#00001000000E19D6 R
(1784905741.875683) can0 12D#0000000000000035 R
(1784905741.876057) can0 12E#000000000000C0CF R
(1784905741.876151) can0 12A#10050000000A0062 R
(1784905741.876388) can0 5A0#0000000004000085 R
(1784905741.884450) can0 12D#000000000000005F R
(1784905741.888717) can0 121#00A601CF048000B3 R
(1784905741.889127) can0 129#00000001000000BA R
(1784905741.893716) can0 12D#000000000000006A R
(1784905741.900383) can0 450#0000000000002800 R
(1784905741.903618) can0 12D#000000000000008B R
(1784905741.909490) can0 121#00A601CF048000D9 R
(1784905741.927951) can0 12D#00000000000000D4 R
(1784905741.930881) can0 540#000040100000ED00 R
(1784905741.935355) can0 12D#0000000000000035 R
(1784905741.946159) can0 12D#000000000000005F R
(1784905741.948811) can0 121#00A601CF04800052 R
(1784905741.966396) can0 12D#000000000000008B R
(1784905741.971122) can0 121#00A601CF04800067 R
(1784905741.971539) can0 129#000000010000006E R
(1784905741.971752) can0 120#000000000000006A R
(1784905741.971897) can0 541#00001000000E19BC R
(1784905741.975998) can0 12D#00000000000000BE R
(1784905741.978448) can0 12E#000000000000C0A5 R
(1784905741.979590) can0 12A#10050000000A00B6 R
(1784905741.979707) can0 5A0#00000000040000B0 R
(1784905741.985110) can0 12D#00000000000000D4 R
(1784905741.988796) can0 121#00A601CF04800086 R
(1784905741.989270) can0 129#000000010000008F R
(1784905741.990842) can0 120#000000000000008B R
(1784905741.996767) can0 12D#0000000000000035 R
(1784905742.004355) can0 12D#000000000000005F R
(1784905742.008622) can0 121#00A601CF048000B3 R
(1784905742.012085) can0 129#00000001000000BA R
(1784905742.012225) can0 120#00000000000000BE R
(1784905742.012449) can0 541#00001000000E1937 R
(1784905742.013526) can0 12D#000000000000006A R
(1784905742.013741) can0 12E#000000000000C02E R
(1784905742.023618) can0 12D#000000000000008B R
(1784905742.027448) can0 12A#10050000000A00DC R
(1784905742.029569) can0 121#00A601CF048000D9 R
(1784905742.034210) can0 541#00001000000E195D R
(1784905742.043387) can0 12D#00000000000000D4 R
(1784905742.049368) can0 121#00A601CF04800038 R
(1784905742.051927) can0 129#0000000100000031 R
(1784905742.053628) can0 12D#0000000000000035 R
(1784905742.063429) can0 12D#000000000000005F R
(1784905742.069054) can0 121#00A601CF04800052 R
(1784905742.073899) can0 12E#000000000000C090 R
(1784905742.085877) can0 12D#000000000000008B R
(1784905742.091134) can0 121#00A601CF04800067 R
(1784905742.091518) can0 129#000000010000006E R
(1784905742.091722) can0 120#000000000000006A R
(1784905742.091853) can0 541#00001000000E1AB3 R
(1784905742.095681) can0 12D#00000000000000BE R
(1784905742.100737) can0 450#0000000000002800 R
(1784905742.108408) can0 121#00A601CF04800086 R
(1784905742.108666) can0 129#000000010000008F R
(1784905742.109969) can0 120#000000000000008B R
(1784905742.113329) can0 541#00001000000E1AD9 R
(1784905742.113748) can0 12D#0000000000000035 R
(1784905742.113982) can0 12E#000000000000C0CF R
(1784905742.123469) can0 12D#000000000000005F R
(1784905742.127402) can0 12A#10050000000A0057 R
(1784905742.129622) can0 121#00A601CF048000B3 R
(1784905742.130101) can0 129#00000001000000BA R
(1784905742.130212) can0 540#000040100000ED00 R
(1784905742.131378) can0 5B0#1000000000000034 R
(1784905742.131621) can0 120#00000000000000BE R
(1784905742.146884) can0 12D#000000000000008B R
(1784905742.148381) can0 121#00A601CF048000D9 R
(1784905742.148628) can0 129#00000001000000D0 R
(1784905742.152855) can0 120#00000000000000D4 R
(1784905742.163389) can0 12D#00000000000000D4 R
(1784905742.168450) can0 121#00A601CF04800038 R
(1784905742.168803) can0 129#0000000100000031 R
(1784905742.171062) can0 120#0000000000000035 R
(1784905742.172195) can0 541#00001000000E1A67 R
(1784905742.174559) can0 12D#0000000000000035 R
(1784905742.183439) can0 12D#000000000000005F R
(1784905742.188947) can0 121#00A601CF04800052 R
(1784905742.189965) can0 129#000000010000005B R
(1784905742.190226) can0 120#000000000000005F R
(1784905742.192660) can0 541#00001000000E1A86 R
(1784905742.200385) can0 450#0000000000002800 R
(1784905742.208424) can0 121#00A601CF04800067 R
(1784905742.210026) can0 120#000000000000006A R
(1784905742.211707) can0 541#00001000000E1AB3 R
(1784905742.225373) can0 12D#00000000000000D4 R
(1784905742.225832) can0 12A#10050000000A0083 R
(1784905742.229628) can0 121#00A601CF04800086 R
(1784905742.230025) can0 129#000000010000008F R
(1784905742.230215) can0 540#000040100000ED00 R
(1784905742.234449) can0 541#00001000000E1AD9 R
(1784905742.243409) can0 12D#000000000000005F R
(1784905742.248646) can0 121#00A601CF048000B3 R
(1784905742.252683) can0 450#0000000000002800 R
(1784905742.263414) can0 12D#000000000000008B R
(1784905742.268506) can0 121#00A601CF048000D9 R
(1784905742.268882) can0 129#00000001000000D0 R
(1784905742.269991) can0 120#00000000000000D4 R
(1784905742.279092) can0 5A0#0000000004000051 R
(1784905742.283389) can0 12D#00000000000000D4 R
(1784905742.289145) can0 121#00A601CF04800038 R
(1784905742.292590) can0 129#0000000100000031 R
(1784905742.293080) can0 120#0000000000000035 R
(1784905742.300672) can0 450#0000000000002800 R
(1784905742.308638) can0 121#00A601CF04800052 R
(1784905742.312994) can0 541#00001000000E1A86 R
(1784905742.324101) can0 12D#000000000000008B R
(1784905742.324503) can0 12A#10050000000A00DC R
(1784905742.328618) can0 121#00A601CF04800067 R
(1784905742.329086) can0 129#000000010000006E R
(1784905742.329189) can0 540#000040100000ED00 R
(1784905742.332711) can0 5B0#100000000000006B R
(1784905742.343429) can0 12D#00000000000000D4 R
(1784905742.348452) can0 121#00A601CF04800086 R
(1784905742.348872) can0 129#000000010000008F R
(1784905742.350213) can0 120#000000000000008B R
(1784905742.350637) can0 450#0000000000002800 R
(1784905742.354361) can0 541#00001000000E1AD9 R
(1784905742.354694) can0 12D#0000000000000035 R
(1784905742.358721) can0 12E#000000000000C0CF R
(1784905742.363434) can0 12D#000000000000005F R
(1784905742.368598) can0 121#00A601CF048000B3 R
(1784905742.368966) can0 129#00000001000000BA R
(1784905742.370093) can0 120#00000000000000BE R
(1784905742.373619) can0 541#00001000000E1A38 R
(1784905742.373931) can0 12D#000000000000006A R
(1784905742.383400) can0 12D#000000000000008B R
(1784905742.388425) can0 121#00A601CF048000D9 R
(1784905742.388829) can0 129#00000001000000D0 R
(1784905742.391690) can0 120#00000000000000D4 R
(1784905742.392159) can0 541#00001000000E1A52 R
(1784905742.393588) can0 12D#00000000000000BE R
(1784905742.401233) can0 450#0000000000002800 R
(1784905742.406219) can0 12D#00000000000000D4 R
(1784905742.409312) can0 121#00A601CF04800038 R
(1784905742.409718) can0 129#0000000100000031 R
(1784905742.410017) can0 120#0000000000000035 R
(1784905742.415676) can0 12D#0000000000000035 R
(1784905742.425254) can0 12D#000000000000005F R
(1784905742.427762) can0 12A#10050000000A0057 R
(1784905742.428585) can0 121#00A601CF04800052 R
(1784905742.428806) can0 129#000000010000005B R
(1784905742.428911) can0 540#000040100000ED00 R
(1784905742.429095) can0 5B0#100000000000008A R
(1784905742.437510) can0 12E#000000000000C090 R
(1784905742.443486) can0 12D#000000000000008B R
(1784905742.448423) can0 121#00A601CF04800067 R
(1784905742.448947) can0 129#000000010000006E R
(1784905742.452006) can0 120#000000000000006A R
(1784905742.464896) can0 12D#00000000000000D4 R
(1784905742.469400) can0 121#00A601CF04800086 R
(1784905742.469846) can0 129#000000010000008F R
(1784905742.469969) can0 120#000000000000008B R
(1784905742.471722) can0 541#00001000000E1AD9 R
(1784905742.476683) can0 12D#0000000000000035 R
(1784905742.477094) can0 12E#000000000000C0CF R
(1784905742.477172) can0 12A#10050000000A0062 R
(1784905742.477396) can0 5A0#0000000004000085 R
(1784905742.484489) can0 12D#000000000000005F R
(1784905742.491182) can0 121#00A601CF048000B3 R
(1784905742.491538) can0 129#00000001000000BA R
(1784905742.491762) can0 120#00000000000000BE R
(1784905742.491874) can0 541#00001000000E1A38 R
(1784905742.493708) can0 12D#000000000000006A R
(1784905742.500400) can0 450#0000000000002800 R
(1784905742.503423) can0 12D#000000000000008B R
(1784905742.508415) can0 121#00A601CF048000D9 R
(1784905742.508827) can0 129#00000001000000D0 R
(1784905742.512507) can0 120#00000000000000D4 R
(1784905742.512927) can0 541#00001000000E1A52 R
(1784905742.513634) can0 12D#00000000000000BE R
(1784905742.513872) can0 12E#000000000000C044 R
(1784905742.523378) can0 12D#00000000000000D4 R
(1784905742.523744) can0 12A#10050000000A0083 R
(1784905742.528422) can0 121#00A601CF04800038 R
(1784905742.528838) can0 129#0000000100000031 R
(1784905742.528966) can0 540#000040100000ED00 R
(1784905742.529059) can0 5B0#10000000000000BF R
(1784905742.531998) can0 120#0000000000000035 R
(1784905742.533514) can0 12D#0000000000000035 R
(1784905742.543431) can0 12D#000000000000005F R
(1784905742.549578) can0 121#00A601CF04800052 R
(1784905742.550005) can0 129#000000010000005B R
(1784905742.551807) can0 541#00001000000E1A86 R
(1784905742.563354) can0 12D#000000000000008B R
(1784905742.568555) can0 121#00A601CF04800067 R
(1784905742.572405) can0 129#000000010000006E R
(1784905742.572762) can0 120#000000000000006A R
(1784905742.573576) can0 12D#00000000000000BE R
(1784905742.574422) can0 12A#10050000000A00B6 R
(1784905742.583395) can0 12D#00000000000000D4 R
(1784905742.588419) can0 121#00A601CF04800086 R
(1784905742.588823) can0 129#000000010000008F R
(1784905742.590091) can0 120#000000000000008B R
(1784905742.592482) can0 541#00001000000E1AD9 R
(1784905742.596738) can0 12D#0000000000000035 R
(1784905742.599099) can0 12E#000000000000C0CF R
(1784905742.603664) can0 450#0000000000002800 R
(1784905742.603990) can0 12D#000000000000005F R
(1784905742.609221) can0 121#00A601CF048000B3 R
(1784905742.609672) can0 129#00000001000000BA R
(1784905742.610722) can0 120#00000000000000BE R
(1784905742.616362) can0 541#00001000000E1A38 R
(1784905742.616724) can0 12D#000000000000006A R
(1784905742.616840) can0 12E#000000000000C02E R
(1784905742.625492) can0 12D#000000000000008B R
(1784905742.625992) can0 12A#10050000000A00DC R
(1784905742.630377) can0 121#00A601CF048000D9 R
(1784905742.630737) can0 129#00000001000000D0 R
(1784905742.630828) can0 540#000040100000ED00 R
(1784905742.632872) can0 5B0#10000000000000D5 R
(1784905742.639040) can0 120#00000000000000D4 R
(1784905742.640198) can0 541#00001000000E1A52 R
(1784905742.640495) can0 12D#00000000000000BE R
(1784905742.643928) can0 12D#00000000000000D4 R
(1784905742.648426) can0 121#00A601CF04800038 R
(1784905742.648961) can0 129#0000000100000031 R
(1784905742.650049) can0 120#0000000000000035 R
(1784905742.665399) can0 12D#000000000000005F R
(1784905742.669802) can0 121#00A601CF04800052 R
(1784905742.674538) can0 541#00001000000E1A86 R
(1784905742.675198) can0 12E#000000000000C090 R
(1784905742.684767) can0 12D#000000000000008B R
(1784905742.688613) can0 121#00A601CF04800067 R
(1784905742.689040) can0 129#000000010000006E R
(1784905742.694090) can0 120#000000000000006A R
(1784905742.694445) can0 541#00001000000E1AB3 R
(1784905742.694539) can0 12D#00000000000000BE R
(1784905742.703112) can0 450#0000000000002800 R
(1784905742.703513) can0 12D#00000000000000D4 R
(1784905742.709157) can0 121#00A601CF04800086 R
(1784905742.709511) can0 129#000000010000008F R
(1784905742.713954) can0 120#000000000000008B R
(1784905742.723381) can0 12D#000000000000005F R
(1784905742.723793) can0 12A#10050000000A0057 R
(1784905742.729080) can0 121#00A601CF048000B3 R
(1784905742.729582) can0 129#00000001000000BA R
(1784905742.729712) can0 540#000040100000ED00 R
(1784905742.729806) can0 5B0#1000000000000034 R
(1784905742.730210) can0 120#00000000000000BE R
(1784905742.731739) can0 541#00001000000E1A38 R
(1784905742.734954) can0 12D#000000000000006A R
(1784905742.735336) can0 12E#000000000000C02E R
(1784905742.746275) can0 12D#000000000000008B R
(1784905742.751357) can0 121#00A601CF048000D9 R
(1784905742.751751) can0 129#00000001000000D0 R
(1784905742.751845) can0 120#00000000000000D4 R
(1784905742.752066) can0 450#0000000000002800 R
(1784905742.752261) can0 541#00001000000E1A52 R
(1784905742.753730) can0 12D#00000000000000BE R
(1784905742.754125) can0 12E#000000000000C044 R
(1784905742.766378) can0 12D#00000000000000D4 R
(1784905742.768430) can0 121#00A601CF04800038 R
(1784905742.768623) can0 129#0000000100000031 R
(1784905742.772544) can0 120#0000000000000035 R
(1784905742.772920) can0 541#00001000000E1A67 R
(1784905742.777075) can0 12D#0000000000000035 R
(1784905742.777485) can0 12E#000000000000C071 R
(1784905742.777682) can0 12A#10050000000A0062 R
(1784905742.777823) can0 5A0#000000000400003B R
(1784905742.783398) can0 12D#000000000000005F R
(1784905742.792117) can0 121#00A601CF04800052 R
(1784905742.792498) can0 129#000000010000005B R
(1784905742.792593) can0 120#000000000000005F R
(1784905742.792684) can0 541#00001000000E1A86 R
(1784905742.796439) can0 12D#000000000000006A R
(1784905742.802324) can0 450#0000000000002800 R
(1784905742.803375) can0 12D#000000000000008B R
(1784905742.809187) can0 121#00A601CF04800067 R
(1784905742.810894) can0 120#000000000000006A R
(1784905742.823358) can0 12D#00000000000000D4 R
(1784905742.830521) can0 121#00A601CF04800086 R
(1784905742.830908) can0 129#000000010000008F R
(1784905742.843556) can0 12D#000000000000005F R
(1784905742.848438) can0 121#00A601CF048000B3 R
(1784905742.853131) can0 120#00000000000000BE R
(1784905742.866320) can0 12D#000000000000008B R
(1784905742.869484) can0 121#00A601CF048000D9 R
(1784905742.875690) can0 541#00001000000E1A52 R
(1784905742.876156) can0 12D#00000000000000BE R
(1784905742.888446) can0 121#00A601CF04800038 R
(1784905742.892201) can0 541#00001000000E1A67 R
(1784905742.895532) can0 12D#0000000000000035 R
(1784905742.904287) can0 12D#000000000000005F R
(1784905742.925368) can0 12D#000000000000008B R
(1784905742.928640) can0 121#00A601CF04800067 R
(1784905742.929754) can0 129#000000010000006E R
(1784905742.929888) can0 540#000040100000ED00 R
(1784905742.937730) can0 12E#000000000000C0A5 R
(1784905742.943364) can0 12D#00000000000000D4 R
(1784905742.953377) can0 541#00001000000E1AD9 R
(1784905742.966748) can0 12D#000000000000005F R
(1784905742.971661) can0 121#00A601CF048000B3 R
(1784905742.972467) can0 129#00000001000000BA R
(1784905742.976430) can0 541#00001000000E1A38 R
(1784905742.985933) can0 12D#000000000000008B R
(1784905742.988756) can0 121#00A601CF048000D9 R
(1784905742.989321) can0 129#00000001000000D0 R
(1784905742.990330) can0 120#00000000000000D4 R
(1784905742.992964) can0 541#00001000000E1A52 R
(1784905743.000846) can0 450#0000000000002800 R
(1784905743.010079) can0 121#00A601CF04800038 R
(1784905743.012403) can0 129#0000000100000031 R
(1784905743.023384) can0 12D#000000000000005F R
(1784905743.023816) can0 12A#10050000000A0057 R
(1784905743.028566) can0 121#00A601CF04800052 R
(1784905743.030192) can0 120#000000000000005F R
(1784905743.031922) can0 541#00001000000E1A86 R
(1784905743.043710) can0 12D#000000000000008B R
(1784905743.048584) can0 121#00A601CF04800067 R
(1784905743.049019) can0 129#000000010000006E R
(1784905743.053163) can0 120#000000000000006A R
(1784905743.063319) can0 12D#00000000000000D4 R
(1784905743.068644) can0 121#00A601CF04800086 R
(1784905743.069042) can0 129#000000010000008F R
(1784905743.070339) can0 120#000000000000008B R
(1784905743.074419) can0 541#00001000000E1BCF R
(1784905743.074729) can0 12D#0000000000000035 R
(1784905743.074823) can0 12E#000000000000C0CF R
(1784905743.083400) can0 12D#000000000000005F R
(1784905743.088453) can0 121#00A601CF048000B3 R
(1784905743.088884) can0 129#00000001000000BA R
(1784905743.100433) can0 450#0000000000002800 R
(1784905743.103359) can0 12D#000000000000008B R
(1784905743.108691) can0 121#00A601CF048000D9 R
(1784905743.109064) can0 129#00000001000000D0 R
(1784905743.113106) can0 120#00000000000000D4 R
(1784905743.113506) can0 541#00001000000E1B44 R
(1784905743.113589) can0 12D#00000000000000BE R
(1784905743.113784) can0 12E#000000000000C044 R
(1784905743.123314) can0 12D#00000000000000D4 R
(1784905743.123712) can0 12A#10050000000A0083 R
(1784905743.128488) can0 121#00A601CF04800038 R
(1784905743.128934) can0 129#0000000100000031 R
(1784905743.129056) can0 540#000040100000ED00 R
(1784905743.129148) can0 5B0#10000000000000BF R
(1784905743.133515) can0 12D#0000000000000035 R
(1784905743.133819) can0 12E#000000000000C071 R
(1784905743.143378) can0 12D#000000000000005F R
(1784905743.150652) can0 121#00A601CF04800052 R
(1784905743.151122) can0 129#000000010000005B R
(1784905743.151209) can0 120#000000000000005F R
(1784905743.152151) can0 541#00001000000E1B90 R
(1784905743.163613) can0 12D#000000000000008B R
(1784905743.168482) can0 121#00A601CF04800067 R
(1784905743.170166) can0 120#000000000000006A R
(1784905743.174613) can0 541#00001000000E1BA5 R
(1784905743.183778) can0 12D#00000000000000D4 R
(1784905743.188479) can0 121#00A601CF04800086 R
(1784905743.192126) can0 120#000000000000008B R
(1784905743.200982) can0 450#0000000000002800 R
(1784905743.205490) can0 12D#000000000000005F R
(1784905743.210528) can0 121#00A601CF048000B3 R
(1784905743.214978) can0 129#00000001000000BA R
(1784905743.215364) can0 120#00000000000000BE R
(1784905743.223378) can0 12D#000000000000008B R
(1784905743.228486) can0 121#00A601CF048000D9 R
(1784905743.233476) can0 12D#00000000000000BE R
(1784905743.233909) can0 12E#000000000000C044 R
(1784905743.243383) can0 12D#00000000000000D4 R
(1784905743.248499) can0 121#00A601CF04800038 R
(1784905743.248965) can0 129#0000000100000031 R
(1784905743.250628) can0 120#0000000000000035 R
(1784905743.251081) can0 450#0000000000002800 R
(1784905743.254045) can0 541#00001000000E1B71 R
(1784905743.254532) can0 12D#0000000000000035 R
(1784905743.265659) can0 12D#000000000000005F R
(1784905743.271923) can0 120#000000000000005F R
(1784905743.283346) can0 12D#000000000000008B R
(1784905743.288494) can0 121#00A601CF04800067 R
(1784905743.290758) can0 129#000000010000006E R
(1784905743.290878) can0 120#000000000000006A R
(1784905743.291738) can0 541#00001000000E1BA5 R
(1784905743.296043) can0 12D#00000000000000BE R
(1784905743.296462) can0 12E#000000000000C0A5 R
(1784905743.304821) can0 12D#00000000000000D4 R
(1784905743.312449) can0 120#000000000000008B R
(1784905743.323353) can0 12D#000000000000005F R
(1784905743.323723) can0 12A#10050000000A0057 R
(1784905743.330719) can0 121#00A601CF048000B3 R
(1784905743.346400) can0 12D#000000000000008B R
(1784905743.350922) can0 121#00A601CF048000D9 R
(1784905743.351336) can0 129#00000001000000D0 R
(1784905743.351434) can0 120#00000000000000D4 R
(1784905743.351721) can0 450#0000000000002800 R
(1784905743.351888) can0 541#00001000000E1B44 R
(1784905743.356409) can0 12D#00000000000000BE R
(1784905743.356819) can0 12E#000000000000C044 R
(1784905743.363372) can0 12D#00000000000000D4 R
(1784905743.368782) can0 121#00A601CF04800038 R
(1784905743.369141) can0 129#0000000100000031 R
(1784905743.373055) can0 120#0000000000000035 R
(1784905743.373447) can0 541#00001000000E1B71 R
(1784905743.373538) can0 12D#0000000000000035 R
(1784905743.373793) can0 12E#000000000000C071 R
(1784905743.374103) can0 12A#10050000000A0062 R
(1784905743.384935) can0 12D#000000000000005F R
(1784905743.389502) can0 121#00A601CF04800052 R
(1784905743.390056) can0 129#000000010000005B R
(1784905743.390184) can0 120#000000000000005F R
(1784905743.391758) can0 541#00001000000E1B90 R
(1784905743.395277) can0 12D#000000000000006A R
(1784905743.395707) can0 12E#000000000000C090 R
(1784905743.400405) can0 450#0000000000002800 R
(1784905743.405082) can0 12D#000000000000008B R
(1784905743.409621) can0 121#00A601CF04800067 R
(1784905743.410066) can0 129#000000010000006E R
(1784905743.410169) can0 120#000000000000006A R
(1784905743.414541) can0 541#00001000000E1BA5 R
(1784905743.415061) can0 12D#00000000000000BE R
(1784905743.423336) can0 12D#00000000000000D4 R
(1784905743.423816) can0 12A#10050000000A0083 R
(1784905743.428556) can0 121#00A601CF04800086 R
(1784905743.428953) can0 129#000000010000008F R
(1784905743.429059) can0 540#000040100000ED00 R
(1784905743.429244) can0 5B0#100000000000005E R
(1784905743.430465) can0 120#000000000000008B R
(1784905743.434246) can0 541#00001000000E1BCF R
(1784905743.434507) can0 12D#0000000000000035 R
(1784905743.434698) can0 12E#000000000000C0CF R
(1784905743.443381) can0 12D#000000000000005F R
(1784905743.452066) can0 121#00A601CF048000B3 R
(1784905743.452422) can0 129#00000001000000BA R
(1784905743.452555) can0 120#00000000000000BE R
(1784905743.456919) can0 450#0000000000002800 R
(1784905743.457132) can0 541#00001000000E1B2E R
(1784905743.457243) can0 12D#000000000000006A R
(1784905743.460012) can0 12E#000000000000C02E R
(1784905743.468554) can0 121#00A601CF048000D9 R
(1784905743.475224) can0 12D#00000000000000BE R
(1784905743.477929) can0 5A0#0000000004000051 R
(1784905743.488504) can0 121#00A601CF04800038 R
(1784905743.494880) can0 12E#000000000000C071 R
(1784905743.500585) can0 450#0000000000002800 R
(1784905743.504403) can0 12D#000000000000005F R
(1784905743.509021) can0 121#00A601CF04800052 R
(1784905743.513972) can0 120#000000000000005F R
(1784905743.518370) can0 12E#000000000000C090 R
(1784905743.523368) can0 12D#000000000000008B R
(1784905743.532009) can0 129#000000010000006E R
(1784905743.543352) can0 12D#00000000000000D4 R
(1784905743.548511) can0 121#00A601CF04800086 R
(1784905743.548931) can0 129#000000010000008F R
(1784905743.553775) can0 120#000000000000008B R
(1784905743.554181) can0 450#0000000000002800 R
(1784905743.554264) can0 541#00001000000E1BCF R
(1784905743.554481) can0 12D#0000000000000035 R
(1784905743.554591) can0 12E#000000000000C0CF R
(1784905743.563395) can0 12D#000000000000005F R
(1784905743.568923) can0 121#00A601CF048000B3 R
(1784905743.569399) can0 129#00000001000000BA R
(1784905743.570301) can0 120#00000000000000BE R
(1784905743.573243) can0 541#00001000000E1B2E R
(1784905743.577008) can0 12D#000000000000006A R
(1784905743.577292) can0 12E#000000000000C02E R
(1784905743.585908) can0 12D#000000000000008B R
(1784905743.589894) can0 121#00A601CF048000D9 R
(1784905743.594877) can0 541#00001000000E1B44 R
(1784905743.595408) can0 12E#000000000000C044 R
(1784905743.600397) can0 450#0000000000002800 R
(1784905743.604214) can0 12D#00000000000000D4 R
(1784905743.608537) can0 121#00A601CF04800038 R
(1784905743.608893) can0 129#0000000100000031 R
(1784905743.610156) can0 120#0000000000000035 R
(1784905743.613575) can0 541#00001000000E1B71 R
(1784905743.614035) can0 12D#0000000000000035 R
(1784905743.614132) can0 12E#000000000000C071 R
(1784905743.623323) can0 12D#000000000000005F R
(1784905743.623741) can0 12A#10050000000A0057 R
(1784905743.631421) can0 121#00A601CF04800052 R
(1784905743.631802) can0 129#000000010000005B R
(1784905743.631996) can0 540#000040100000ED00 R
(1784905743.632126) can0 5B0#100000000000008A R
(1784905743.632234) can0 120#000000000000005F R
(1784905743.643355) can0 12D#000000000000008B R
(1784905743.649583) can0 121#00A601CF04800067 R
(1784905743.650778) can0 129#000000010000006E R
(1784905743.651061) can0 120#000000000000006A R
(1784905743.663442) can0 12D#00000000000000D4 R
(1784905743.668602) can0 121#00A601CF04800086 R
(1784905743.669011) can0 129#000000010000008F R
(1784905743.673734) can0 120#000000000000008B R
(1784905743.674247) can0 541#00001000000E1BCF R
(1784905743.674457) can0 12E#000000000000C0CF R
(1784905743.683339) can0 12D#000000000000005F R
(1784905743.688584) can0 121#00A601CF048000B3 R
(1784905743.689077) can0 129#00000001000000BA R
(1784905743.690096) can0 120#00000000000000BE R
(1784905743.694229) can0 541#00001000000E1B2E R
(1784905743.694625) can0 12D#000000000000006A R
(1784905743.694817) can0 12E#000000000000C02E R
(1784905743.700478) can0 450#0000000000002800 R
(1784905743.704329) can0 12D#000000000000008B R
(1784905743.708973) can0 121#00A601CF048000D9 R
(1784905743.709393) can0 129#00000001000000D0 R
(1784905743.710532) can0 120#00000000000000D4 R
(1784905743.716623) can0 12D#00000000000000BE R
(1784905743.723330) can0 12D#00000000000000D4 R
(1784905743.745148) can0 12D#000000000000005F R
(1784905743.749956) can0 121#00A601CF04800052 R
(1784905743.750385) can0 129#000000010000005B R
(1784905743.750567) can0 120#000000000000005F R
(1784905743.750707) can0 450#0000000000002800 R
(1784905743.751756) can0 541#00001000000E1B90 R
(1784905743.755913) can0 12D#000000000000006A R
(1784905743.756398) can0 12E#000000000000C090 R
(1784905743.765003) can0 12D#000000000000008B R
(1784905743.769264) can0 121#00A601CF04800067 R
(1784905743.769616) can0 129#000000010000006E R
(1784905743.770125) can0 120#000000000000006A R
(1784905743.774122) can0 541#00001000000E1BA5 R
(1784905743.774227) can0 12D#00000000000000BE R
(1784905743.774424) can0 12E#000000000000C0A5 R
(1784905743.774577) can0 12A#10050000000A00B6 R
(1784905743.776991) can0 5A0#00000000040000B0 R
(1784905743.783419) can0 12D#00000000000000D4 R
(1784905743.788574) can0 121#00A601CF04800086 R
(1784905743.788934) can0 129#000000010000008F R
(1784905743.791971) can0 120#000000000000008B R
(1784905743.794938) can0 12D#0000000000000035 R
(1784905743.806631) can0 12D#000000000000005F R
(1784905743.811142) can0 121#00A601CF048000B3 R
(1784905743.816136) can0 12D#000000000000006A R
(1784905743.823354) can0 12D#000000000000008B R
(1784905743.829373) can0 121#00A601CF048000D9 R
(1784905743.829838) can0 129#00000001000000D0 R
(1784905743.846301) can0 12D#00000000000000D4 R
(1784905743.848754) can0 121#00A601CF04800038 R
(1784905743.849136) can0 129#0000000100000031 R
(1784905743.850082) can0 120#0000000000000035 R
(1784905743.854305) can0 12D#0000000000000035 R
(1784905743.863386) can0 12D#000000000000005F R
(1784905743.869658) can0 121#00A601CF04800052 R
(1784905743.870161) can0 129#000000010000005B R
(1784905743.870255) can0 120#000000000000005F R
(1784905743.871805) can0 541#00001000000E1B90 R
(1784905743.873533) can0 12D#000000000000006A R
(1784905743.876779) can0 12E#000000000000C090 R
(1784905743.877149) can0 12A#10050000000A003D R
(1784905743.885011) can0 12D#000000000000008B R
(1784905743.891480) can0 121#00A601CF04800067 R
(1784905743.892575) can0 129#000000010000006E R
(1784905743.892842) can0 120#000000000000006A R
(1784905743.893002) can0 541#00001000000E1BA5 R
(1784905743.902272) can0 450#0000000000002800 R
(1784905743.924766) can0 12D#000000000000005F R
(1784905743.925182) can0 12A#10050000000A0057 R
(1784905743.930195) can0 120#00000000000000BE R
(1784905743.943384) can0 12D#000000000000008B R
(1784905743.948543) can0 121#00A601CF048000D9 R
(1784905743.948910) can0 129#00000001000000D0 R
(1784905743.951587) can0 120#00000000000000D4 R
(1784905743.951993) can0 450#0000000000002800 R
(1784905743.952139) can0 541#00001000000E1B44 R
(1784905743.956350) can0 12D#00000000000000BE R
(1784905743.963325) can0 12D#00000000000000D4 R
(1784905743.970719) can0 121#00A601CF04800038 R
(1784905743.971230) can0 129#0000000100000031 R
(1784905743.971337) can0 120#0000000000000035 R
(1784905743.971917) can0 541#00001000000E1B71 R
(1784905743.975690) can0 12D#0000000000000035 R
(1784905743.983369) can0 12D#000000000000005F R
(1784905743.989614) can0 121#00A601CF04800052 R
(1784905743.992123) can0 129#000000010000005B R
(1784905743.992248) can0 120#000000000000005F R
(1784905743.996214) can0 12E#000000000000C090 R
(1784905744.000726) can0 450#0000000000002800 R
(1784905744.004794) can0 12D#000000000000008B R
(1784905744.012946) can0 120#000000000000006A R
(1784905744.024916) can0 12D#00000000000000D4 R
(1784905744.025314) can0 12A#10050000000A0083 R
(1784905744.028554) can0 121#00A601CF04800086 R
(1784905744.028912) can0 129#000000010000008F R
(1784905744.029163) can0 540#000040100000ED00 R
(1784905744.029363) can0 5B0#100000000000005E R
(1784905744.035280) can0 12E#000000000000C0CF R
(1784905744.043332) can0 12D#000000000000005F R
(1784905744.050664) can0 121#00A601CF048000B3 R
(1784905744.051047) can0 129#00000001000000BA R
(1784905744.051134) can0 120#00000000000000BE R
(1784905744.051225) can0 450#0000000000002800 R
(1784905744.053475) can0 541#00001000000E1C26 R
(1784905744.053887) can0 12D#000000000000006A R
(1784905744.053986) can0 12E#000000000000C02E R
(1784905744.063363) can0 12D#000000000000008B R
(1784905744.068616) can0 121#00A601CF048000D9 R
(1784905744.068997) can0 129#00000001000000D0 R
(1784905744.072796) can0 120#00000000000000D4 R
(1784905744.073297) can0 541#00001000000E1C4C R
(1784905744.073555) can0 12D#00000000000000BE R
(1784905744.083703) can0 12D#00000000000000D4 R
(1784905744.090162) can0 121#00A601CF04800038 R
(1784905744.091158) can0 129#0000000100000031 R
(1784905744.091532) can0 120#0000000000000035 R
(1784905744.092253) can0 541#00001000000E1C79 R
(1784905744.093645) can0 12D#0000000000000035 R
(1784905744.103361) can0 450#0000000000002800 R
(1784905744.103784) can0 12D#000000000000005F R
(1784905744.108555) can0 121#00A601CF04800052 R
(1784905744.109020) can0 129#000000010000005B R
(1784905744.112012) can0 120#000000000000005F R
(1784905744.112475) can0 541#00001000000E1C98 R
(1784905744.113651) can0 12D#000000000000006A R
(1784905744.114119) can0 12E#000000000000C090 R
(1784905744.123322) can0 12D#000000000000008B R
(1784905744.128600) can0 121#00A601CF04800067 R
(1784905744.129026) can0 129#000000010000006E R
(1784905744.136627) can0 12D#00000000000000BE R
(1784905744.143375) can0 12D#00000000000000D4 R
(1784905744.148564) can0 121#00A601CF04800086 R
(1784905744.152439) can0 129#000000010000008F R
(1784905744.163351) can0 12D#000000000000005F R
(1784905744.168589) can0 121#00A601CF048000B3 R
(1784905744.169072) can0 129#00000001000000BA R
(1784905744.173002) can0 120#00000000000000BE R
(1784905744.173412) can0 541#00001000000E1C26 R
(1784905744.173498) can0 12D#000000000000006A R
(1784905744.173767) can0 12E#000000000000C02E R
(1784905744.173995) can0 12A#10050000000A003D R
(1784905744.174222) can0 5A0#0000000004000064 R
(1784905744.183337) can0 12D#000000000000008B R
(1784905744.191349) can0 121#00A601CF048000D9 R
(1784905744.191776) can0 129#00000001000000D0 R
(1784905744.191862) can0 120#00000000000000D4 R
(1784905744.192052) can0 541#00001000000E1C4C R
(1784905744.195906) can0 12D#00000000000000BE R
(1784905744.196243) can0 12E#000000000000C044 R
(1784905744.200436) can0 450#0000000000002800 R
(1784905744.205685) can0 12D#00000000000000D4 R
(1784905744.209911) can0 121#00A601CF04800038 R
(1784905744.210351) can0 129#0000000100000031 R
(1784905744.210445) can0 120#0000000000000035 R
(1784905744.211808) can0 541#00001000000E1C79 R
(1784905744.215664) can0 12D#0000000000000035 R
(1784905744.223362) can0 12D#000000000000005F R
(1784905744.228548) can0 121#00A601CF04800052 R
(1784905744.228938) can0 129#000000010000005B R
(1784905744.233083) can0 120#000000000000005F R
(1784905744.245370) can0 12D#000000000000008B R
(1784905744.250659) can0 121#00A601CF04800067 R
(1784905744.252962) can0 129#000000010000006E R
(1784905744.257246) can0 120#000000000000006A R
(1784905744.257619) can0 450#0000000000002800 R
(1784905744.257841) can0 541#00001000000E1CAD R
(1784905744.263338) can0 12D#00000000000000D4 R
(1784905744.269393) can0 121#00A601CF04800086 R
(1784905744.269791) can0 129#000000010000008F R
(1784905744.270255) can0 120#000000000000008B R
(1784905744.271784) can0 541#00001000000E1CC7 R
(1784905744.275665) can0 12D#0000000000000035 R
(1784905744.276089) can0 12E#000000000000C0CF R
(1784905744.276184) can0 12A#10050000000A0062 R
(1784905744.276377) can0 5A0#0000000004000085 R
(1784905744.284290) can0 12D#000000000000005F R
(1784905744.288568) can0 121#00A601CF048000B3 R
(1784905744.289009) can0 129#00000001000000BA R
(1784905744.291819) can0 120#00000000000000BE R
(1784905744.293442) can0 12D#000000000000006A R
(1784905744.302303) can0 450#0000000000002800 R
(1784905744.303292) can0 12D#000000000000008B R
(1784905744.309377) can0 121#00A601CF048000D9 R
(1784905744.311856) can0 129#00000001000000D0 R
(1784905744.313638) can0 12D#00000000000000BE R
(1784905744.314062) can0 12E#000000000000C044 R
(1784905744.323329) can0 12D#00000000000000D4 R
(1784905744.327320) can0 12A#10050000000A0083 R
(1784905744.329729) can0 121#00A601CF04800038 R
(1784905744.334133) can0 129#0000000100000031 R
(1784905744.334390) can0 540#000040100000ED00 R
(1784905744.343344) can0 12D#000000000000005F R
(1784905744.350773) can0 121#00A601CF04800052 R
(1784905744.351153) can0 129#000000010000005B R
(1784905744.351319) can0 120#000000000000005F R
(1784905744.355864) can0 12D#000000000000006A R
(1784905744.363326) can0 12D#000000000000008B R
(1784905744.368581) can0 121#00A601CF04800067 R
(1784905744.368989) can0 129#000000010000006E R
(1784905744.370582) can0 120#000000000000006A R
(1784905744.371853) can0 541#00001000000E1CAD R
(1784905744.376632) can0 12D#00000000000000BE R
(1784905744.377080) can0 12E#000000000000C0A5 R
(1784905744.377171) can0 12A#10050000000A00B6 R
(1784905744.377263) can0 5A0#00000000040000B0 R
(1784905744.383380) can0 12D#00000000000000D4 R
(1784905744.391766) can0 541#00001000000E1CC7 R
(1784905744.401106) can0 450#0000000000002800 R
(1784905744.403350) can0 12D#000000000000005F R
(1784905744.410615) can0 129#00000001000000BA R
(1784905744.425176) can0 12D#000000000000008B R
(1784905744.425663) can0 12A#10050000000A00DC R
(1784905744.430379) can0 121#00A601CF048000D9 R
(1784905744.430769) can0 129#00000001000000D0 R
(1784905744.430919) can0 540#000040100000ED00 R
(1784905744.435068) can0 541#00001000000E1C4C R
(1784905744.443449) can0 12D#00000000000000D4 R
(1784905744.451353) can0 121#00A601CF04800038 R
(1784905744.451884) can0 129#0000000100000031 R
(1784905744.463428) can0 12D#000000000000005F R
(1784905744.468745) can0 121#00A601CF04800052 R
(1784905744.469786) can0 129#000000010000005B R
(1784905744.470460) can0 120#000000000000005F R
(1784905744.473445) can0 541#00001000000E1C98 R
(1784905744.473814) can0 12D#000000000000006A R
(1784905744.473904) can0 12E#000000000000C090 R
(1784905744.474001) can0 12A#10050000000A003D R
(1784905744.474208) can0 5A0#00000000040000DA R
(1784905744.483336) can0 12D#000000000000008B R
(1784905744.489474) can0 121#00A601CF04800067 R
(1784905744.489885) can0 129#000000010000006E R
(1784905744.494152) can0 120#000000000000006A R
(1784905744.502266) can0 450#0000000000002800 R
(1784905744.503341) can0 12D#00000000000000D4 R
(1784905744.508728) can0 121#00A601CF04800086 R
(1784905744.509251) can0 129#000000010000008F R
(1784905744.510176) can0 120#000000000000008B R
(1784905744.514668) can0 541#00001000000E1CC7 R
(1784905744.515082) can0 12D#0000000000000035 R
(1784905744.515228) can0 12E#000000000000C0CF R
(1784905744.523332) can0 12D#000000000000005F R
(1784905744.523690) can0 12A#10050000000A0057 R
(1784905744.528599) can0 121#00A601CF048000B3 R
(1784905744.532301) can0 541#00001000000E1C26 R
(1784905744.547377) can0 12D#000000000000008B R
(1784905744.548661) can0 121#00A601CF048000D9 R
(1784905744.555961) can0 12D#00000000000000BE R
(1784905744.563329) can0 12D#00000000000000D4 R
(1784905744.568962) can0 121#00A601CF04800038 R
(1784905744.569368) can0 129#0000000100000031 R
(1784905744.572144) can0 120#0000000000000035 R
(1784905744.574316) can0 541#00001000000E1C79 R
(1784905744.576547) can0 12D#0000000000000035 R
(1784905744.577134) can0 12A#10050000000A0062 R
(1784905744.583563) can0 12D#000000000000005F R
(1784905744.595215) can0 12D#000000000000006A R
(1784905744.601630) can0 450#0000000000002800 R
(1784905744.608588) can0 121#00A601CF04800067 R
(1784905744.613188) can0 541#00001000000E1CAD R
(1784905744.623426) can0 12D#00000000000000D4 R
(1784905744.623958) can0 12A#10050000000A0083 R
(1784905744.629172) can0 121#00A601CF04800086 R
(1784905744.629559) can0 129#000000010000008F R
(1784905744.629773) can0 540#000040100000ED00 R
(1784905744.629893) can0 5B0#100000000000005E R
(1784905744.630340) can0 120#000000000000008B R
(1784905744.634527) can0 541#00001000000E1CC7 R
(1784905744.635021) can0 12D#0000000000000035 R
(1784905744.635146) can0 12E#000000000000C0CF R
(1784905744.643703) can0 12D#000000000000005F R
(1784905744.648588) can0 121#00A601CF048000B3 R
(1784905744.649086) can0 129#00000001000000BA R
(1784905744.650182) can0 120#00000000000000BE R
(1784905744.650551) can0 450#0000000000002800 R
(1784905744.653481) can0 541#00001000000E1C26 R
(1784905744.653881) can0 12D#000000000000006A R
(1784905744.663301) can0 12D#000000000000008B R
(1784905744.668681) can0 121#00A601CF048000D9 R
(1784905744.668934) can0 129#00000001000000D0 R
(1784905744.670234) can0 120#00000000000000D4 R
(1784905744.673340) can0 541#00001000000E1C4C R
(1784905744.673803) can0 12D#00000000000000BE R
(1784905744.683319) can0 12D#00000000000000D4 R
(1784905744.688727) can0 121#00A601CF04800038 R
(1784905744.692537) can0 541#00001000000E1C79 R
(1784905744.701294) can0 450#0000000000002800 R
(1784905744.703677) can0 12D#000000000000005F R
(1784905744.711679) can0 120#000000000000005F R
(1784905744.723325) can0 12D#000000000000008B R
(1784905744.723728) can0 12A#10050000000A00DC R
(1784905744.728591) can0 121#00A601CF04800067 R
(1784905744.729040) can0 129#000000010000006E R
(1784905744.729287) can0 5B0#100000000000006B R
(1784905744.743304) can0 12D#00000000000000D4 R
(1784905744.749164) can0 121#00A601CF04800086 R
(1784905744.750241) can0 120#000000000000008B R
(1784905744.766529) can0 12D#000000000000005F R
(1784905744.769408) can0 121#00A601CF048000B3 R
(1784905744.771989) can0 541#00001000000E1C26 R
(1784905744.776291) can0 12D#000000000000006A R
(1784905744.776768) can0 12E#000000000000C02E R
(1784905744.785848) can0 12D#000000000000008B R
(1784905744.788995) can0 121#00A601CF048000D9 R
(1784905744.789988) can0 129#00000001000000D0 R
(1784905744.790201) can0 120#00000000000000D4 R
(1784905744.793841) can0 12D#00000000000000BE R
(1784905744.802139) can0 450#0000000000002800 R
(1784905744.804658) can0 12D#00000000000000D4 R
(1784905744.809277) can0 121#00A601CF04800038 R
(1784905744.823302) can0 12D#000000000000005F R
(1784905744.828611) can0 121#00A601CF04800052 R
(1784905744.829000) can0 129#000000010000005B R
(1784905744.830258) can0 120#000000000000005F R
(1784905744.834115) can0 541#00001000000E1C98 R
(1784905744.843384) can0 12D#000000000000008B R
(1784905744.854986) can0 541#00001000000E1CAD R
(1784905744.863307) can0 12D#00000000000000D4 R
(1784905744.868660) can0 121#00A601CF04800086 R
(1784905744.869040) can0 129#000000010000008F R
(1784905744.873313) can0 120#000000000000008B R
(1784905744.883358) can0 12D#000000000000005F R
(1784905744.888625) can0 121#00A601CF048000B3 R
(1784905744.888871) can0 129#00000001000000BA R
(1784905744.892571) can0 120#00000000000000BE R
(1784905744.892947) can0 541#00001000000E1C26 R
(1784905744.893453) can0 12D#000000000000006A R
(1784905744.896020) can0 12E#000000000000C02E R
(1784905744.900456) can0 450#0000000000002800 R
(1784905744.925014) can0 12D#00000000000000D4 R
(1784905744.928621) can0 121#00A601CF04800038 R
(1784905744.934078) can0 541#00001000000E1C79 R
(1784905744.944675) can0 12D#000000000000005F R
(1784905744.948680) can0 121#00A601CF04800052 R
(1784905744.950311) can0 120#000000000000005F R
(1784905744.965342) can0 12D#000000000000008B R
(1784905744.968809) can0 121#00A601CF04800067 R
(1784905744.973857) can0 541#00001000000E1CAD R
(1784905744.983316) can0 12D#00000000000000D4 R
(1784905744.988995) can0 121#00A601CF04800086 R
(1784905744.989367) can0 129#000000010000008F R
(1784905744.993470) can0 120#000000000000008B R
(1784905744.993867) can0 541#00001000000E1CC7 R
(1784905744.994048) can0 12D#0000000000000035 R
(1784905744.994211) can0 12E#000000000000C0CF R
(1784905745.000473) can0 450#0000000000002800 R
(1784905745.003471) can0 12D#000000000000005F R
(1784905745.008894) can0 121#00A601CF048000B3 R
(1784905745.011469) can0 129#00000001000000BA R
(1784905745.011815) can0 120#00000000000000BE R
(1784905745.012034) can0 541#00001000000E1C26 R
(1784905745.013407) can0 12D#000000000000006A R
(1784905745.013753) can0 12E#000000000000C02E R
(1784905745.023286) can0 12D#000000000000008B R
(1784905745.023805) can0 12A#10050000000A00DC R
(1784905745.029592) can0 121#00A601CF048000D9 R
(1784905745.029978) can0 129#00000001000000D0 R
(1784905745.030084) can0 540#000040100000ED00 R
(1784905745.033982) can0 5B0#10000000000000D5 R
(1784905745.043309) can0 12D#00000000000000D4 R
(1784905745.048949) can0 121#00A601CF04800038 R
(1784905745.052883) can0 129#0000000100000031 R
(1784905745.052979) can0 120#0000000000000035 R
(1784905745.065983) can0 12D#000000000000005F R
(1784905745.070519) can0 121#00A601CF04800052 R
(1784905745.071539) can0 129#000000010000005B R
(1784905745.071892) can0 541#00001000000E1D8E R
(1784905745.083293) can0 12D#000000000000008B R
(1784905745.088631) can0 121#00A601CF04800067 R
(1784905745.089035) can0 129#000000010000006E R
(1784905745.090264) can0 120#000000000000006A R
(1784905745.092346) can0 541#00001000000E1DBB R
(1784905745.096541) can0 12D#00000000000000BE R
(1784905745.096943) can0 12E#000000000000C0A5 R
(1784905745.102410) can0 450#0000000000002800 R
(1784905745.106911) can0 12D#00000000000000D4 R
(1784905745.111448) can0 121#00A601CF04800086 R
(1784905745.111925) can0 129#000000010000008F R
(1784905745.112030) can0 120#000000000000008B R
(1784905745.114781) can0 541#00001000000E1DD1 R
(1784905745.115120) can0 12D#0000000000000035 R
(1784905745.115305) can0 12E#000000000000C0CF R
(1784905745.125014) can0 12D#000000000000005F R
(1784905745.125396) can0 12A#10050000000A0057 R
(1784905745.128647) can0 121#00A601CF048000B3 R
(1784905745.129119) can0 129#00000001000000BA R
(1784905745.130348) can0 120#00000000000000BE R
(1784905745.131824) can0 541#00001000000E1D30 R
(1784905745.135539) can0 12D#000000000000006A R
(1784905745.143665) can0 12D#000000000000008B R
(1784905745.149777) can0 121#00A601CF048000D9 R
(1784905745.150191) can0 129#00000001000000D0 R
(1784905745.150287) can0 120#00000000000000D4 R
(1784905745.165165) can0 12D#00000000000000D4 R
(1784905745.169503) can0 121#00A601CF04800038 R
(1784905745.173744) can0 129#0000000100000031 R
(1784905745.174193) can0 120#0000000000000035 R
(1784905745.174305) can0 541#00001000000E1D6F R
(1784905745.174459) can0 12D#0000000000000035 R
(1784905745.174815) can0 5A0#000000000400003B R
(1784905745.184781) can0 12D#000000000000005F R
(1784905745.188646) can0 121#00A601CF04800052 R
(1784905745.189005) can0 129#000000010000005B R
(1784905745.192074) can0 120#000000000000005F R
(1784905745.196469) can0 541#00001000000E1D8E R
(1784905745.196926) can0 12D#000000000000006A R
(1784905745.199014) can0 12E#000000000000C090 R
(1784905745.200420) can0 450#0000000000002800 R
(1784905745.203342) can0 12D#000000000000008B R
(1784905745.208643) can0 121#00A601CF04800067 R
(1784905745.212710) can0 129#000000010000006E R
(1784905745.212830) can0 120#000000000000006A R
(1784905745.213004) can0 541#00001000000E1DBB R
(1784905745.213399) can0 12D#00000000000000BE R
(1784905745.217019) can0 12E#000000000000C0A5 R
(1784905745.225448) can0 12D#00000000000000D4 R
(1784905745.225922) can0 12A#10050000000A0083 R
(1784905745.229801) can0 121#00A601CF04800086 R
(1784905745.230174) can0 129#000000010000008F R
(1784905745.234727) can0 541#00001000000E1DD1 R
(1784905745.243655) can0 12D#000000000000005F R
(1784905745.248648) can0 121#00A601CF048000B3 R
(1784905745.249066) can0 129#00000001000000BA R
(1784905745.252862) can0 120#00000000000000BE R
(1784905745.253244) can0 450#0000000000002800 R
(1784905745.253351) can0 541#00001000000E1D30 R
(1784905745.253542) can0 12D#000000000000006A R
(1784905745.263346) can0 12D#000000000000008B R
(1784905745.269560) can0 121#00A601CF048000D9 R
(1784905745.269966) can0 129#00000001000000D0 R
(1784905745.270198) can0 120#00000000000000D4 R
(1784905745.273058) can0 541#00001000000E1D5A R
(1784905745.283282) can0 12D#00000000000000D4 R
(1784905745.288689) can0 121#00A601CF04800038 R
(1784905745.289077) can0 129#0000000100000031 R
(1784905745.290245) can0 120#0000000000000035 R
(1784905745.293809) can0 541#00001000000E1D6F R
(1784905745.294214) can0 12D#0000000000000035 R
(1784905745.297976) can0 12E#000000000000C071 R
(1784905745.300515) can0 450#0000000000002800 R
(1784905745.303349) can0 12D#000000000000005F R
(1784905745.310442) can0 121#00A601CF04800052 R
(1784905745.311405) can0 129#000000010000005B R
(1784905745.311701) can0 120#000000000000005F R
(1784905745.323349) can0 12D#000000000000008B R
(1784905745.323698) can0 12A#10050000000A00DC R
(1784905745.328717) can0 121#00A601CF04800067 R
(1784905745.344824) can0 12D#00000000000000D4 R
(1784905745.348836) can0 121#00A601CF04800086 R
(1784905745.351501) can0 120#000000000000008B R
(1784905745.353512) can0 12D#0000000000000035 R
(1784905745.363292) can0 12D#000000000000005F R
(1784905745.369220) can0 121#00A601CF048000B3 R
(1784905745.373017) can0 129#00000001000000BA R
(1784905745.383290) can0 12D#000000000000008B R
(1784905745.389453) can0 121#00A601CF048000D9 R
(1784905745.389847) can0 129#00000001000000D0 R
(1784905745.392289) can0 120#00000000000000D4 R
(1784905745.393469) can0 541#00001000000E1D5A R
(1784905745.393884) can0 12D#00000000000000BE R
(1784905745.394005) can0 12E#000000000000C044 R
(1784905745.400773) can0 450#0000000000002800 R
(1784905745.404105) can0 12D#00000000000000D4 R
(1784905745.408839) can0 121#00A601CF04800038 R
(1784905745.409215) can0 129#0000000100000031 R
(1784905745.410281) can0 120#0000000000000035 R
(1784905745.414185) can0 541#00001000000E1D6F R
(1784905745.414620) can0 12D#0000000000000035 R
(1784905745.423323) can0 12D#000000000000005F R
(1784905745.423813) can0 12A#10050000000A0057 R
(1784905745.428890) can0 121#00A601CF04800052 R
(1784905745.429251) can0 129#000000010000005B R
(1784905745.429345) can0 540#000040100000ED00 R
(1784905745.433025) can0 5B0#100000000000008A R
(1784905745.433377) can0 120#000000000000005F R
(1784905745.444326) can0 12D#000000000000008B R
(1784905745.448667) can0 121#00A601CF04800067 R
(1784905745.449169) can0 129#000000010000006E R
(1784905745.450254) can0 120#000000000000006A R
(1784905745.450503) can0 450#0000000000002800 R
(1784905745.453661) can0 541#00001000000E1DBB R
(1784905745.454087) can0 12D#00000000000000BE R
(1784905745.454206) can0 12E#000000000000C0A5 R
(1784905745.463318) can0 12D#00000000000000D4 R
(1784905745.469175) can0 121#00A601CF04800086 R
(1784905745.469421) can0 129#000000010000008F R
(1784905745.473336) can0 120#000000000000008B R
(1784905745.473806) can0 541#00001000000E1DD1 R
(1784905745.473913) can0 12D#0000000000000035 R
(1784905745.474009) can0 12E#000000000000C0CF R
(1784905745.478140) can0 12A#10050000000A0062 R
(1784905745.484988) can0 12D#000000000000005F R
(1784905745.488698) can0 121#00A601CF048000B3 R
(1784905745.490929) can0 129#00000001000000BA R
(1784905745.493284) can0 120#00000000000000BE R
(1784905745.493617) can0 541#00001000000E1D30 R
(1784905745.497506) can0 12D#000000000000006A R
(1784905745.508660) can0 121#00A601CF048000D9 R
(1784905745.513415) can0 120#00000000000000D4 R
(1784905745.523912) can0 12D#00000000000000D4 R
(1784905745.524310) can0 12A#10050000000A0083 R
(1784905745.529947) can0 121#00A601CF04800038 R
(1784905745.530328) can0 129#0000000100000031 R
(1784905745.534412) can0 541#00001000000E1D6F R
(1784905745.543322) can0 12D#000000000000005F R
(1784905745.551085) can0 121#00A601CF04800052 R
(1784905745.556116) can0 12E#000000000000C090 R
(1784905745.564405) can0 12D#000000000000008B R
(1784905745.572082) can0 120#000000000000006A R
(1784905745.574621) can0 12A#10050000000A00B6 R
(1784905745.589524) can0 121#00A601CF04800086 R
(1784905745.589909) can0 129#000000010000008F R
(1784905745.591817) can0 541#00001000000E1DD1 R
(1784905745.593370) can0 12D#0000000000000035 R
(1784905745.593736) can0 12E#000000000000C0CF R
(1784905745.605931) can0 12D#000000000000005F R
(1784905745.610269) can0 121#00A601CF048000B3 R
(1784905745.623324) can0 12D#000000000000008B R
(1784905745.625837) can0 12A#10050000000A00DC R
(1784905745.628738) can0 121#00A601CF048000D9 R
(1784905745.629198) can0 129#00000001000000D0 R
(1784905745.632897) can0 541#00001000000E1D5A R
(1784905745.643273) can0 12D#00000000000000D4 R
(1784905745.648680) can0 121#00A601CF04800038 R
(1784905745.649026) can0 129#0000000100000031 R
(1784905745.652066) can0 120#0000000000000035 R
(1784905745.652511) can0 450#0000000000002800 R
(1784905745.652599) can0 541#00001000000E1D6F R
(1784905745.663263) can0 12D#000000000000005F R
(1784905745.669256) can0 121#00A601CF04800052 R
(1784905745.671699) can0 129#000000010000005B R
(1784905745.680152) can0 5A0#00000000040000DA R
(1784905745.688804) can0 121#00A601CF04800067 R
(1784905745.691583) can0 120#000000000000006A R
(1784905745.694250) can0 12D#00000000000000BE R
(1784905745.694745) can0 12E#000000000000C0A5 R
(1784905745.703507) can0 12D#00000000000000D4 R
(1784905745.710419) can0 120#000000000000008B R
(1784905745.723268) can0 12D#000000000000005F R
(1784905745.732351) can0 121#00A601CF048000B3 R
(1784905745.735948) can0 541#00001000000E1D30 R
(1784905745.744356) can0 12D#000000000000008B R
(1784905745.748930) can0 121#00A601CF048000D9 R
(1784905745.752921) can0 129#00000001000000D0 R
(1784905745.753374) can0 120#00000000000000D4 R
(1784905745.753470) can0 450#0000000000002800 R
(1784905745.753590) can0 541#00001000000E1D5A R
(1784905745.763659) can0 12D#00000000000000D4 R
(1784905745.771123) can0 121#00A601CF04800038 R
(1784905745.771583) can0 129#0000000100000031 R
(1784905745.771676) can0 120#0000000000000035 R
(1784905745.771773) can0 541#00001000000E1D6F R
(1784905745.779669) can0 5A0#000000000400003B R
(1784905745.784888) can0 12D#000000000000005F R
(1784905745.789782) can0 121#00A601CF04800052 R
(1784905745.790152) can0 129#000000010000005B R
(1784905745.790256) can0 120#000000000000005F R
(1784905745.800509) can0 450#0000000000002800 R
(1784905745.804884) can0 12D#000000000000008B R
(1784905745.808989) can0 121#00A601CF04800067 R
(1784905745.809349) can0 129#000000010000006E R
(1784905745.810294) can0 120#000000000000006A R
(1784905745.814565) can0 541#00001000000E1DBB R
(1784905745.816941) can0 12D#00000000000000BE R
(1784905745.817380) can0 12E#000000000000C0A5 R
(1784905745.826056) can0 12D#00000000000000D4 R
(1784905745.826468) can0 12A#10050000000A0083 R
(1784905745.828676) can0 121#00A601CF04800086 R
(1784905745.832125) can0 129#000000010000008F R
(1784905745.832522) can0 540#000040100000ED00 R
(1784905745.844459) can0 12D#000000000000005F R
(1784905745.850756) can0 121#00A601CF048000B3 R
(1784905745.851172) can0 129#00000001000000BA R
(1784905745.864703) can0 12D#000000000000008B R
(1784905745.868693) can0 121#00A601CF048000D9 R
(1784905745.869106) can0 129#00000001000000D0 R
