(1784906502.427395) can0 12D#00000000000000BE R
(1784906502.427599) can0 12E#000000000000C044 R
(1784906502.428032) can0 120#00000000000000D4 R
(1784906502.429825) can0 541#0000100000111257 R
(1784906502.438484) can0 12D#00000000000000D4 R
(1784906502.438948) can0 12A#10050000000A0083 R
(1784906502.447407) can0 121#00A601CF04800038 R
(1784906502.447770) can0 129#0000000100000031 R
(1784906502.447866) can0 540#000040100000EC00 R
(1784906502.448084) can0 5B0#10000000000000BF R
(1784906502.448945) can0 12D#0000000000000035 R
(1784906502.449168) can0 12E#000000000000C071 R
(1784906502.449297) can0 120#0000000000000035 R
(1784906502.450245) can0 541#0000100000111262 R
(1784906502.457724) can0 12D#000000000000005F R
(1784906502.466361) can0 121#00A601CF04800052 R
(1784906502.466897) can0 129#000000010000005B R
(1784906502.467037) can0 450#0000000000002800 R
(1784906502.467270) can0 12D#000000000000006A R
(1784906502.467471) can0 12E#000000000000C090 R
(1784906502.470790) can0 120#000000000000005F R
(1784906502.471225) can0 541#0000100000111283 R
(1784906502.477530) can0 12D#000000000000008B R
(1784906502.486408) can0 121#00A601CF04800067 R
(1784906502.489179) can0 129#000000010000006E R
(1784906502.489319) can0 12D#00000000000000BE R
(1784906502.489431) can0 12E#000000000000C0A5 R
(1784906502.489657) can0 12A#10050000000A00B6 R
(1784906502.489852) can0 120#000000000000006A R
(1784906502.489971) can0 5A0#00000000040000B0 R
(1784906502.490085) can0 541#00001000001112B6 R
(1784906502.499173) can0 12D#00000000000000D4 R
(1784906502.508105) can0 121#00A601CF04800086 R
(1784906502.508511) can0 129#000000010000008F R
(1784906502.508710) can0 12D#0000000000000035 R
(1784906502.508829) can0 12E#000000000000C0CF R
(1784906502.508980) can0 120#000000000000008B R
(1784906502.509657) can0 541#00001000001112DC R
(1784906502.518768) can0 450#0000000000002800 R
(1784906502.519924) can0 12D#000000000000005F R
(1784906502.527164) can0 121#00A601CF048000B3 R
(1784906502.527536) can0 129#00000001000000BA R
(1784906502.527745) can0 12D#000000000000006A R
(1784906502.531911) can0 12E#000000000000C02E R
(1784906502.532203) can0 120#00000000000000BE R
(1784906502.532377) can0 541#000010000011123D R
(1784906502.538669) can0 12D#000000000000008B R
(1784906502.542833) can0 12A#10050000000A00DC R
(1784906502.546924) can0 121#00A601CF048000D9 R
(1784906502.547390) can0 129#00000001000000D0 R
(1784906502.547489) can0 540#000040100000EC00 R
(1784906502.547595) can0 5B0#10000000000000D5 R
(1784906502.547695) can0 12D#00000000000000BE R
(1784906502.550370) can0 12E#000000000000C044 R
(1784906502.550783) can0 120#00000000000000D4 R
(1784906502.550877) can0 541#0000100000111257 R
(1784906502.559491) can0 12D#00000000000000D4 R
(1784906502.566427) can0 121#00A601CF04800038 R
(1784906502.566797) can0 129#0000000100000031 R
(1784906502.566908) can0 450#0000000000002800 R
(1784906502.567268) can0 12D#0000000000000035 R
(1784906502.567531) can0 12E#000000000000C071 R
(1784906502.567954) can0 120#0000000000000035 R
(1784906502.569689) can0 541#0000100000111262 R
(1784906502.579628) can0 12D#000000000000005F R
(1784906502.586381) can0 121#00A601CF04800052 R
(1784906502.586761) can0 129#000000010000005B R
(1784906502.587415) can0 12D#000000000000006A R
(1784906502.587640) can0 12E#000000000000C090 R
(1784906502.590000) can0 12A#10050000000A003D R
(1784906502.590371) can0 120#000000000000005F R
(1784906502.590623) can0 5A0#00000000040000DA R
(1784906502.590727) can0 541#0000100000111283 R
(1784906502.597469) can0 12D#000000000000008B R
(1784906502.607122) can0 121#00A601CF04800067 R
(1784906502.610775) can0 129#000000010000006E R
(1784906502.611094) can0 12D#00000000000000BE R
(1784906502.611209) can0 12E#000000000000C0A5 R
(1784906502.611385) can0 120#000000000000006A R
(1784906502.611488) can0 541#00001000001112B6 R
(1784906502.616337) can0 450#0000000000002800 R
(1784906502.620547) can0 12D#00000000000000D4 R
(1784906502.626376) can0 121#00A601CF04800086 R
(1784906502.626787) can0 129#000000010000008F R
(1784906502.627318) can0 12D#0000000000000035 R
(1784906502.627611) can0 12E#000000000000C0CF R
(1784906502.627944) can0 120#000000000000008B R
(1784906502.631692) can0 541#00001000001112DC R
(1784906502.637497) can0 12D#000000000000005F R
(1784906502.638022) can0 12A#10050000000A0057 R
(1784906502.646357) can0 121#00A601CF048000B3 R
(1784906502.646757) can0 129#00000001000000BA R
(1784906502.646895) can0 540#000040100000EC00 R
(1784906502.647128) can0 5B0#1000000000000034 R
(1784906502.647307) can0 12D#000000000000006A R
(1784906502.647512) can0 12E#000000000000C02E R
(1784906502.648013) can0 120#00000000000000BE R
(1784906502.650539) can0 541#000010000011123D R
(1784906502.657549) can0 12D#000000000000008B R
(1784906502.667964) can0 450#0000000000002800 R
(1784906502.669329) can0 121#00A601CF048000D9 R
(1784906502.669501) can0 129#00000001000000D0 R
(1784906502.669633) can0 12D#00000000000000BE R
(1784906502.669766) can0 12E#000000000000C044 R
(1784906502.669890) can0 120#00000000000000D4 R
(1784906502.670013) can0 541#0000100000111257 R
(1784906502.677916) can0 12D#00000000000000D4 R
(1784906502.687915) can0 121#00A601CF04800038 R
(1784906502.690069) can0 129#0000000100000031 R
(1784906502.690203) can0 12D#0000000000000035 R
(1784906502.690294) can0 12E#000000000000C071 R
(1784906502.690491) can0 12A#10050000000A0062 R
(1784906502.690604) can0 120#0000000000000035 R
(1784906502.690707) can0 5A0#000000000400003B R
(1784906502.690865) can0 541#0000100000111262 R
(1784906502.698071) can0 12D#000000000000005F R
(1784906502.706385) can0 121#00A601CF04800052 R
(1784906502.710420) can0 129#000000010000005B R
(1784906502.710640) can0 12D#000000000000006A R
(1784906502.712758) can0 12E#000000000000C090 R
(1784906502.712869) can0 120#000000000000005F R
(1784906502.712964) can0 541#0000100000111283 R
(1784906502.717409) can0 450#0000000000002800 R
(1784906502.717790) can0 12D#000000000000008B R
(1784906502.728601) can0 121#00A601CF04800067 R
(1784906502.728982) can0 129#000000010000006E R
(1784906502.729179) can0 12D#00000000000000BE R
(1784906502.733033) can0 12E#000000000000C0A5 R
(1784906502.733340) can0 120#000000000000006A R
(1784906502.733514) can0 541#00001000001112B6 R
(1784906502.740699) can0 12D#00000000000000D4 R
(1784906502.741082) can0 12A#10050000000A0083 R
(1784906502.746384) can0 121#00A601CF04800086 R
(1784906502.746862) can0 129#000000010000008F R
(1784906502.747029) can0 540#000040100000EC00 R
(1784906502.747145) can0 5B0#100000000000005E R
(1784906502.747301) can0 12D#0000000000000035 R
(1784906502.747529) can0 12E#000000000000C0CF R
(1784906502.748046) can0 120#000000000000008B R
(1784906502.749675) can0 541#00001000001112DC R
(1784906502.757480) can0 12D#000000000000005F R
(1784906502.766427) can0 121#00A601CF048000B3 R
(1784906502.767615) can0 129#00000001000000BA R
(1784906502.767921) can0 450#0000000000002800 R
(1784906502.768124) can0 12D#000000000000006A R
(1784906502.768273) can0 12E#000000000000C02E R
(1784906502.768417) can0 120#00000000000000BE R
(1784906502.770833) can0 541#000010000011123D R
(1784906502.777885) can0 12D#000000000000008B R
(1784906502.786431) can0 121#00A601CF048000D9 R
(1784906502.786787) can0 129#00000001000000D0 R
(1784906502.794658) can0 5A0#0000000004000051 R
(1784906502.806460) can0 121#00A601CF04800038 R
(1784906502.816331) can0 450#0000000000002800 R
(1784906502.817538) can0 12D#000000000000005F R
(1784906502.826562) can0 121#00A601CF04800052 R
(1784906502.828445) can0 129#000000010000005B R
(1784906502.828566) can0 12D#000000000000006A R
(1784906502.828674) can0 12E#000000000000C090 R
(1784906502.830196) can0 541#0000100000111283 R
(1784906502.840720) can0 12D#000000000000008B R
(1784906502.846398) can0 121#00A601CF04800067 R
(1784906502.850401) can0 129#000000010000006E R
(1784906502.867863) can0 121#00A601CF04800086 R
(1784906502.869164) can0 129#000000010000008F R
(1784906502.886418) can0 121#00A601CF048000B3 R
(1784906502.886933) can0 129#00000001000000BA R
(1784906502.887392) can0 12D#000000000000006A R
(1784906502.887628) can0 12E#000000000000C02E R
(1784906502.887823) can0 12A#10050000000A003D R
(1784906502.897499) can0 12D#000000000000008B R
(1784906502.906403) can0 121#00A601CF048000D9 R
(1784906502.906849) can0 129#00000001000000D0 R
(1784906502.910055) can0 12D#00000000000000BE R
(1784906502.910482) can0 12E#000000000000C044 R
(1784906502.912941) can0 541#0000100000111257 R
(1784906502.926388) can0 121#00A601CF04800038 R
(1784906502.926788) can0 129#0000000100000031 R
(1784906502.937502) can0 12D#000000000000005F R
(1784906502.946386) can0 121#00A601CF04800052 R
(1784906502.957600) can0 12D#000000000000008B R
(1784906502.968379) can0 121#00A601CF04800067 R
(1784906502.968763) can0 129#000000010000006E R
(1784906502.969918) can0 541#00001000001112B6 R
(1784906502.979034) can0 12D#00000000000000D4 R
(1784906502.986398) can0 121#00A601CF04800086 R
(1784906502.986773) can0 129#000000010000008F R
(1784906502.987434) can0 12D#0000000000000035 R
(1784906502.990044) can0 120#000000000000008B R
(1784906502.998416) can0 12D#000000000000005F R
(1784906503.006784) can0 121#00A601CF048000B3 R
(1784906503.016352) can0 450#0000000000002800 R
(1784906503.019921) can0 12D#000000000000008B R
(1784906503.026423) can0 121#00A601CF048000D9 R
(1784906503.029696) can0 129#00000001000000D0 R
(1784906503.030065) can0 12D#00000000000000BE R
(1784906503.030182) can0 12E#000000000000C044 R
(1784906503.030387) can0 120#00000000000000D4 R
(1784906503.047301) can0 121#00A601CF04800038 R
(1784906503.047694) can0 129#0000000100000031 R
(1784906503.057860) can0 12D#000000000000005F R
(1784906503.068213) can0 450#0000000000002800 R
(1784906503.068704) can0 121#00A601CF04800052 R
(1784906503.077530) can0 12D#000000000000008B R
(1784906503.086445) can0 121#00A601CF04800067 R
(1784906503.086928) can0 129#000000010000006E R
(1784906503.089344) can0 12D#00000000000000BE R
(1784906503.089737) can0 12E#000000000000C0A5 R
(1784906503.089904) can0 12A#10050000000A00B6 R
(1784906503.090027) can0 5A0#00000000040000B0 R
(1784906503.090133) can0 120#000000000000006A R
(1784906503.093665) can0 541#00001000001112B6 R
(1784906503.106881) can0 121#00A601CF04800086 R
(1784906503.107286) can0 129#000000010000008F R
(1784906503.107369) can0 12D#0000000000000035 R
(1784906503.111918) can0 541#00001000001112DC R
(1784906503.116766) can0 450#0000000000002800 R
(1784906503.117693) can0 12D#000000000000005F R
(1784906503.128045) can0 121#00A601CF048000B3 R
(1784906503.128456) can0 129#00000001000000BA R
(1784906503.128658) can0 12D#000000000000006A R
(1784906503.128817) can0 12E#000000000000C02E R
(1784906503.128901) can0 120#00000000000000BE R
(1784906503.130310) can0 541#000010000011132B R
(1784906503.137974) can0 12D#000000000000008B R
(1784906503.138374) can0 12A#10050000000A00DC R
(1784906503.146457) can0 121#00A601CF048000D9 R
(1784906503.146881) can0 129#00000001000000D0 R
(1784906503.146988) can0 540#000040100000EC00 R
(1784906503.147087) can0 5B0#10000000000000D5 R
(1784906503.147320) can0 12D#00000000000000BE R
(1784906503.148112) can0 120#00000000000000D4 R
(1784906503.158122) can0 12D#00000000000000D4 R
(1784906503.166419) can0 450#0000000000002800 R
(1784906503.167292) can0 12D#0000000000000035 R
(1784906503.179199) can0 12D#000000000000005F R
(1784906503.186491) can0 121#00A601CF04800052 R
(1784906503.186886) can0 129#000000010000005B R
(1784906503.187407) can0 12D#000000000000006A R
(1784906503.192490) can0 120#000000000000005F R
(1784906503.197544) can0 12D#000000000000008B R
(1784906503.206617) can0 121#00A601CF04800067 R
(1784906503.207126) can0 129#000000010000006E R
(1784906503.216488) can0 450#0000000000002800 R
(1784906503.220150) can0 12D#00000000000000D4 R
(1784906503.226443) can0 121#00A601CF04800086 R
(1784906503.226832) can0 129#000000010000008F R
(1784906503.227226) can0 12D#0000000000000035 R
(1784906503.227456) can0 12E#000000000000C0CF R
(1784906503.230884) can0 120#000000000000008B R
(1784906503.238416) can0 12D#000000000000005F R
(1784906503.238871) can0 12A#10050000000A0057 R
(1784906503.248018) can0 121#00A601CF048000B3 R
(1784906503.251702) can0 541#000010000011132B R
(1784906503.266430) can0 450#0000000000002800 R
(1784906503.278146) can0 12D#00000000000000D4 R
(1784906503.289304) can0 121#00A601CF04800038 R
(1784906503.289811) can0 129#0000000100000031 R
(1784906503.289930) can0 12D#0000000000000035 R
(1784906503.290036) can0 12E#000000000000C071 R
(1784906503.290188) can0 12A#10050000000A0062 R
(1784906503.290601) can0 541#0000100000111374 R
(1784906503.299486) can0 12D#000000000000005F R
(1784906503.307710) can0 121#00A601CF04800052 R
(1784906503.308109) can0 129#000000010000005B R
(1784906503.318256) can0 450#0000000000002800 R
(1784906503.327008) can0 121#00A601CF04800067 R
(1784906503.327430) can0 129#000000010000006E R
(1784906503.327631) can0 12D#00000000000000BE R
(1784906503.332715) can0 541#00001000001113A0 R
(1784906503.338249) can0 12D#00000000000000D4 R
(1784906503.338609) can0 12A#10050000000A0083 R
(1784906503.347075) can0 121#00A601CF04800086 R
(1784906503.347542) can0 129#000000010000008F R
(1784906503.347639) can0 540#000040100000EC00 R
(1784906503.347737) can0 5B0#100000000000005E R
(1784906503.358727) can0 12D#000000000000005F R
(1784906503.366411) can0 450#0000000000002800 R
(1784906503.366808) can0 121#00A601CF048000B3 R
(1784906503.370074) can0 129#00000001000000BA R
(1784906503.370563) can0 12D#000000000000006A R
(1784906503.377503) can0 12D#000000000000008B R
(1784906503.386487) can0 121#00A601CF048000D9 R
(1784906503.386868) can0 129#00000001000000D0 R
(1784906503.387331) can0 12D#00000000000000BE R
(1784906503.387618) can0 12E#000000000000C044 R
(1784906503.390477) can0 541#0000100000111341 R
(1784906503.397649) can0 12D#00000000000000D4 R
(1784906503.406436) can0 121#00A601CF04800038 R
(1784906503.410537) can0 129#0000000100000031 R
(1784906503.410891) can0 12D#0000000000000035 R
(1784906503.410991) can0 12E#000000000000C071 R
(1784906503.411095) can0 120#0000000000000035 R
(1784906503.412052) can0 541#0000100000111374 R
(1784906503.419256) can0 450#0000000000002800 R
(1784906503.419651) can0 12D#000000000000005F R
(1784906503.427066) can0 121#00A601CF04800052 R
(1784906503.427509) can0 129#000000010000005B R
(1784906503.427616) can0 12D#000000000000006A R
(1784906503.429764) can0 541#0000100000111395 R
(1784906503.440537) can0 12D#000000000000008B R
(1784906503.440964) can0 12A#10050000000A00DC R
(1784906503.446456) can0 121#00A601CF04800067 R
(1784906503.446791) can0 129#000000010000006E R
(1784906503.446899) can0 540#000040100000EC00 R
(1784906503.450713) can0 5B0#100000000000006B R
(1784906503.451125) can0 12D#00000000000000BE R
(1784906503.459490) can0 12D#00000000000000D4 R
(1784906503.470143) can0 450#0000000000002800 R
(1784906503.470538) can0 121#00A601CF04800086 R
(1784906503.479593) can0 12D#000000000000005F R
(1784906503.488837) can0 121#00A601CF048000B3 R
(1784906503.489326) can0 129#00000001000000BA R
(1784906503.489441) can0 12D#000000000000006A R
(1784906503.489520) can0 12E#000000000000C02E R
(1784906503.497537) can0 12D#000000000000008B R
(1784906503.507610) can0 121#00A601CF048000D9 R
(1784906503.507993) can0 129#00000001000000D0 R
(1784906503.508077) can0 12D#00000000000000BE R
(1784906503.508235) can0 12E#000000000000C044 R
(1784906503.518939) can0 450#0000000000002800 R
(1784906503.526457) can0 121#00A601CF04800038 R
(1784906503.526825) can0 129#0000000100000031 R
(1784906503.527409) can0 12D#0000000000000035 R
(1784906503.538302) can0 12D#000000000000005F R
(1784906503.538687) can0 12A#10050000000A0057 R
(1784906503.547301) can0 121#00A601CF04800052 R
(1784906503.549759) can0 129#000000010000005B R
(1784906503.550151) can0 540#000040100000EC00 R
(1784906503.550254) can0 5B0#100000000000008A R
(1784906503.550359) can0 12D#000000000000006A R
(1784906503.553135) can0 12E#000000000000C090 R
(1784906503.553521) can0 120#000000000000005F R
(1784906503.566441) can0 450#0000000000002800 R
(1784906503.566898) can0 121#00A601CF04800067 R
(1784906503.566984) can0 129#000000010000006E R
(1784906503.574248) can0 541#00001000001113A0 R
(1784906503.586737) can0 121#00A601CF04800086 R
(1784906503.587118) can0 129#000000010000008F R
(1784906503.587336) can0 12D#0000000000000035 R
(1784906503.587581) can0 12E#000000000000C0CF R
(1784906503.587787) can0 12A#10050000000A0062 R
(1784906503.592951) can0 541#00001000001113CA R
(1784906503.597711) can0 12D#000000000000005F R
(1784906503.606475) can0 121#00A601CF048000B3 R
(1784906503.606903) can0 129#00000001000000BA R
(1784906503.609281) can0 12D#000000000000006A R
(1784906503.618589) can0 450#0000000000002800 R
(1784906503.626462) can0 121#00A601CF048000D9 R
(1784906503.637525) can0 12D#00000000000000D4 R
(1784906503.639769) can0 12A#10050000000A0083 R
(1784906503.646702) can0 121#00A601CF04800038 R
(1784906503.648709) can0 129#0000000100000031 R
(1784906503.648978) can0 540#000040100000EC00 R
(1784906503.649192) can0 5B0#10000000000000BF R
(1784906503.649307) can0 12D#0000000000000035 R
(1784906503.649453) can0 12E#000000000000C071 R
(1784906503.657465) can0 12D#000000000000005F R
(1784906503.666495) can0 450#0000000000002800 R
(1784906503.666886) can0 121#00A601CF04800052 R
(1784906503.670579) can0 129#000000010000005B R
(1784906503.670885) can0 12D#000000000000006A R
(1784906503.670962) can0 12E#000000000000C090 R
(1784906503.671312) can0 541#0000100000111395 R
(1784906503.678169) can0 12D#000000000000008B R
(1784906503.686467) can0 121#00A601CF04800067 R
(1784906503.686932) can0 129#000000010000006E R
(1784906503.689212) can0 12D#00000000000000BE R
(1784906503.694904) can0 120#000000000000006A R
(1784906503.706461) can0 121#00A601CF04800086 R
(1784906503.706851) can0 129#000000010000008F R
(1784906503.716365) can0 450#0000000000002800 R
(1784906503.717456) can0 12D#000000000000005F R
(1784906503.726469) can0 121#00A601CF048000B3 R
(1784906503.726864) can0 129#00000001000000BA R
(1784906503.727249) can0 12D#000000000000006A R
(1784906503.728084) can0 120#00000000000000BE R
(1784906503.737445) can0 12D#000000000000008B R
(1784906503.737820) can0 12A#10050000000A00DC R
(1784906503.746478) can0 121#00A601CF048000D9 R
(1784906503.746837) can0 129#00000001000000D0 R
(1784906503.747020) can0 540#000040100000EC00 R
(1784906503.747112) can0 5B0#10000000000000D5 R
(1784906503.747796) can0 12D#00000000000000BE R
(1784906503.748180) can0 12E#000000000000C044 R
(1784906503.748261) can0 120#00000000000000D4 R
(1784906503.757471) can0 12D#00000000000000D4 R
(1784906503.766553) can0 450#0000000000002800 R
(1784906503.770606) can0 121#00A601CF04800038 R
(1784906503.770862) can0 129#0000000100000031 R
(1784906503.777495) can0 12D#000000000000005F R
(1784906503.787069) can0 121#00A601CF04800052 R
(1784906503.797804) can0 12D#000000000000008B R
(1784906503.809165) can0 121#00A601CF04800067 R
(1784906503.809538) can0 129#000000010000006E R
(1784906503.809667) can0 12D#00000000000000BE R
(1784906503.809880) can0 12E#000000000000C0A5 R
(1784906503.812687) can0 120#000000000000006A R
(1784906503.812915) can0 541#00001000001113A0 R
(1784906503.816367) can0 450#0000000000002800 R
(1784906503.820801) can0 12D#00000000000000D4 R
(1784906503.826589) can0 121#00A601CF04800086 R
(1784906503.827070) can0 129#000000010000008F R
(1784906503.827538) can0 12D#0000000000000035 R
(1784906503.828096) can0 120#000000000000008B R
(1784906503.837868) can0 12A#10050000000A0057 R
(1784906503.846540) can0 121#00A601CF048000B3 R
(1784906503.846863) can0 129#00000001000000BA R
(1784906503.847097) can0 540#000040100000EC00 R
(1784906503.847206) can0 5B0#1000000000000034 R
(1784906503.850516) can0 12D#000000000000006A R
(1784906503.850646) can0 12E#000000000000C02E R
(1784906503.850829) can0 120#00000000000000BE R
(1784906503.857453) can0 12D#000000000000008B R
(1784906503.870527) can0 450#0000000000002800 R
(1784906503.871003) can0 121#00A601CF048000D9 R
(1784906503.871118) can0 129#00000001000000D0 R
(1784906503.871220) can0 12D#00000000000000BE R
(1784906503.871438) can0 12E#000000000000C044 R
(1784906503.880255) can0 12D#00000000000000D4 R
(1784906503.886499) can0 121#00A601CF04800038 R
(1784906503.886890) can0 129#0000000100000031 R
(1784906503.887656) can0 12D#0000000000000035 R
(1784906503.891134) can0 12E#000000000000C071 R
(1784906503.891257) can0 12A#10050000000A0062 R
(1784906503.898265) can0 12D#000000000000005F R
(1784906503.906477) can0 121#00A601CF04800052 R
(1784906503.907221) can0 12D#000000000000006A R
(1784906503.912250) can0 541#0000100000111395 R
(1784906503.917864) can0 12D#000000000000008B R
(1784906503.926516) can0 121#00A601CF04800067 R
(1784906503.939775) can0 12D#00000000000000D4 R
(1784906503.940209) can0 12A#10050000000A0083 R
(1784906503.946546) can0 121#00A601CF04800086 R
(1784906503.946947) can0 129#000000010000008F R
(1784906503.947035) can0 540#000040100000EC00 R
(1784906503.947226) can0 12D#0000000000000035 R
(1784906503.947465) can0 12E#000000000000C0CF R
(1784906503.949739) can0 541#00001000001113CA R
(1784906503.958237) can0 12D#000000000000005F R
(1784906503.966762) can0 450#0000000000002800 R
(1784906503.971055) can0 121#00A601CF048000B3 R
(1784906503.971554) can0 129#00000001000000BA R
(1784906503.971648) can0 12D#000000000000006A R
(1784906503.977773) can0 12D#000000000000008B R
(1784906503.986543) can0 121#00A601CF048000D9 R
(1784906503.989604) can0 129#00000001000000D0 R
(1784906503.989844) can0 12D#00000000000000BE R
(1784906503.989955) can0 12E#000000000000C044 R
(1784906503.998168) can0 12D#00000000000000D4 R
(1784906504.006762) can0 121#00A601CF04800038 R
(1784906504.009272) can0 129#0000000100000031 R
(1784906504.009669) can0 12D#0000000000000035 R
(1784906504.009782) can0 12E#000000000000C071 R
(1784906504.018037) can0 450#0000000000002800 R
(1784906504.018525) can0 12D#000000000000005F R
(1784906504.026646) can0 121#00A601CF04800052 R
(1784906504.027045) can0 129#000000010000005B R
(1784906504.027278) can0 12D#000000000000006A R
(1784906504.027470) can0 12E#000000000000C090 R
(1784906504.031573) can0 120#000000000000005F R
(1784906504.040573) can0 12D#000000000000008B R
(1784906504.041107) can0 12A#10050000000A00DC R
(1784906504.047085) can0 121#00A601CF04800067 R
(1784906504.047520) can0 129#000000010000006E R
(1784906504.047739) can0 540#000040100000EC00 R
(1784906504.047836) can0 5B0#100000000000006B R
(1784906504.047939) can0 12D#00000000000000BE R
(1784906504.048068) can0 12E#000000000000C0A5 R
(1784906504.048171) can0 120#000000000000006A R
(1784906504.050733) can0 541#00001000001113A0 R
(1784906504.057670) can0 12D#00000000000000D4 R
(1784906504.066489) can0 450#0000000000002800 R
(1784906504.070296) can0 121#00A601CF04800086 R
(1784906504.070583) can0 129#000000010000008F R
(1784906504.070677) can0 12D#0000000000000035 R
(1784906504.071559) can0 12E#000000000000C0CF R
(1784906504.078856) can0 12D#000000000000005F R
(1784906504.089612) can0 121#00A601CF048000B3 R
(1784906504.090019) can0 129#00000001000000BA R
(1784906504.090096) can0 12D#000000000000006A R
(1784906504.090304) can0 12E#000000000000C02E R
(1784906504.090430) can0 12A#10050000000A003D R
(1784906504.093552) can0 120#00000000000000BE R
(1784906504.097474) can0 12D#000000000000008B R
(1784906504.107944) can0 121#00A601CF048000D9 R
(1784906504.109138) can0 129#00000001000000D0 R
(1784906504.117828) can0 450#0000000000002800 R
(1784906504.126534) can0 121#00A601CF04800038 R
(1784906504.129728) can0 129#0000000100000031 R
(1784906504.130041) can0 12D#0000000000000035 R
(1784906504.130145) can0 12E#000000000000C071 R
(1784906504.137449) can0 12D#000000000000005F R
(1784906504.146501) can0 121#00A601CF04800052 R
(1784906504.146847) can0 129#000000010000005B R
(1784906504.146998) can0 540#000040100000EC00 R
(1784906504.151693) can0 120#000000000000005F R
(1784906504.160250) can0 12D#000000000000008B R
(1784906504.166448) can0 450#0000000000002800 R
(1784906504.166795) can0 121#00A601CF04800067 R
(1784906504.166995) can0 129#000000010000006E R
(1784906504.171224) can0 12D#00000000000000BE R
(1784906504.171645) can0 120#000000000000006A R
(1784906504.186503) can0 121#00A601CF04800086 R
(1784906504.186881) can0 129#000000010000008F R
(1784906504.187378) can0 12D#0000000000000035 R
(1784906504.198971) can0 12D#000000000000005F R
(1784906504.206528) can0 121#00A601CF048000B3 R
(1784906504.216373) can0 450#0000000000002800 R
(1784906504.217780) can0 12D#000000000000008B R
(1784906504.226595) can0 121#00A601CF048000D9 R
(1784906504.233024) can0 129#00000001000000D0 R
(1784906504.233378) can0 12D#00000000000000BE R
(1784906504.233592) can0 12E#000000000000C044 R
(1784906504.233754) can0 120#00000000000000D4 R
(1784906504.239438) can0 12D#00000000000000D4 R
(1784906504.246969) can0 121#00A601CF04800038 R
(1784906504.266496) can0 450#0000000000002800 R
(1784906504.270871) can0 121#00A601CF04800052 R
(1784906504.271011) can0 129#000000010000005B R
(1784906504.271116) can0 12D#000000000000006A R
(1784906504.277739) can0 12D#000000000000008B R
(1784906504.286517) can0 121#00A601CF04800067 R
(1784906504.286878) can0 129#000000010000006E R
(1784906504.287316) can0 12D#00000000000000BE R
(1784906504.287533) can0 12E#000000000000C0A5 R
(1784906504.299214) can0 12D#00000000000000D4 R
(1784906504.308400) can0 121#00A601CF04800086 R
(1784906504.308814) can0 129#000000010000008F R
(1784906504.309618) can0 12D#0000000000000035 R
(1784906504.309870) can0 12E#000000000000C0CF R
(1784906504.309991) can0 120#000000000000008B R
(1784906504.318535) can0 450#0000000000002800 R
(1784906504.319020) can0 12D#000000000000005F R
(1784906504.326616) can0 121#00A601CF048000B3 R
(1784906504.327122) can0 129#00000001000000BA R
(1784906504.327219) can0 12D#000000000000006A R
(1784906504.327644) can0 12E#000000000000C02E R
(1784906504.338476) can0 12D#000000000000008B R
(1784906504.338870) can0 12A#10050000000A00DC R
(1784906504.357575) can0 12D#00000000000000D4 R
(1784906504.366458) can0 450#0000000000002800 R
(1784906504.366850) can0 121#00A601CF04800038 R
(1784906504.367045) can0 129#0000000100000031 R
(1784906504.367536) can0 12D#0000000000000035 R
(1784906504.367851) can0 12E#000000000000C071 R
(1784906504.372789) can0 120#0000000000000035 R
(1784906504.373270) can0 541#000010000011147C R
(1784906504.377751) can0 12D#000000000000005F R
(1784906504.386984) can0 121#00A601CF04800052 R
(1784906504.391146) can0 541#000010000011149D R
(1784906504.406590) can0 121#00A601CF04800067 R
(1784906504.416374) can0 450#0000000000002800 R
(1784906504.417518) can0 12D#00000000000000D4 R
(1784906504.426541) can0 121#00A601CF04800086 R
(1784906504.426922) can0 129#000000010000008F R
(1784906504.427233) can0 12D#0000000000000035 R
(1784906504.431028) can0 12E#000000000000C0CF R
(1784906504.431394) can0 120#000000000000008B R
(1784906504.431468) can0 541#00001000001114C2 R
(1784906504.439779) can0 12D#000000000000005F R
(1784906504.440331) can0 12A#10050000000A0057 R
(1784906504.446530) can0 121#00A601CF048000B3 R
(1784906504.450126) can0 120#00000000000000BE R
(1784906504.457452) can0 12D#000000000000008B R
(1784906504.468766) can0 450#0000000000002800 R
(1784906504.469302) can0 121#00A601CF048000D9 R
(1784906504.469457) can0 129#00000001000000D0 R
(1784906504.469571) can0 12D#00000000000000BE R
(1784906504.469744) can0 12E#000000000000C044 R
(1784906504.479217) can0 12D#00000000000000D4 R
(1784906504.486576) can0 121#00A601CF04800038 R
(1784906504.489376) can0 12E#000000000000C071 R
(1784906504.497501) can0 12D#000000000000005F R
(1784906504.506861) can0 121#00A601CF04800052 R
(1784906504.511726) can0 541#000010000011149D R
(1784906504.526547) can0 121#00A601CF04800067 R
(1784906504.526980) can0 129#000000010000006E R
(1784906504.529483) can0 12D#00000000000000BE R
(1784906504.529851) can0 12E#000000000000C0A5 R
(1784906504.529925) can0 120#000000000000006A R
(1784906504.539428) can0 12D#00000000000000D4 R
(1784906504.539795) can0 12A#10050000000A0083 R
(1784906504.547077) can0 121#00A601CF04800086 R
(1784906504.547630) can0 129#000000010000008F R
(1784906504.547750) can0 540#000040100000EC00 R
(1784906504.547847) can0 5B0#100000000000005E R
(1784906504.547990) can0 12D#0000000000000035 R
(1784906504.548124) can0 12E#000000000000C0CF R
(1784906504.557438) can0 12D#000000000000005F R
(1784906504.568151) can0 450#0000000000002800 R
(1784906504.568582) can0 121#00A601CF048000B3 R
(1784906504.568687) can0 129#00000001000000BA R
(1784906504.568913) can0 12D#000000000000006A R
(1784906504.569030) can0 12E#000000000000C02E R
(1784906504.569142) can0 120#00000000000000BE R
(1784906504.577442) can0 12D#000000000000008B R
(1784906504.587581) can0 121#00A601CF048000D9 R
(1784906504.587975) can0 129#00000001000000D0 R
(1784906504.588169) can0 12D#00000000000000BE R
(1784906504.588301) can0 12E#000000000000C044 R
(1784906504.589772) can0 541#0000100000111449 R
(1784906504.600013) can0 12D#00000000000000D4 R
(1784906504.607889) can0 121#00A601CF04800038 R
(1784906504.612144) can0 129#0000000100000031 R
(1784906504.612465) can0 12D#0000000000000035 R
(1784906504.616280) can0 12E#000000000000C071 R
(1784906504.626531) can0 121#00A601CF04800052 R
(1784906504.630109) can0 120#000000000000005F R
(1784906504.637886) can0 12D#000000000000008B R
(1784906504.638376) can0 12A#10050000000A00DC R
(1784906504.646562) can0 121#00A601CF04800067 R
(1784906504.652470) can0 120#000000000000006A R
(1784906504.658186) can0 12D#00000000000000D4 R
(1784906504.666450) can0 450#0000000000002800 R
(1784906504.666918) can0 121#00A601CF04800086 R
(1784906504.667101) can0 129#000000010000008F R
(1784906504.679827) can0 12D#000000000000005F R
(1784906504.689334) can0 121#00A601CF048000B3 R
(1784906504.689739) can0 129#00000001000000BA R
(1784906504.689846) can0 12D#000000000000006A R
(1784906504.689949) can0 12E#000000000000C02E R
(1784906504.697770) can0 12D#000000000000008B R
(1784906504.706606) can0 121#00A601CF048000D9 R
(1784906504.710160) can0 120#00000000000000D4 R
(1784906504.716391) can0 450#0000000000002800 R
(1784906504.717373) can0 12D#00000000000000D4 R
(1784906504.726722) can0 121#00A601CF04800038 R
(1784906504.727227) can0 129#0000000100000031 R
(1784906504.727350) can0 12D#0000000000000035 R
(1784906504.727481) can0 12E#000000000000C071 R
(1784906504.731229) can0 120#0000000000000035 R
(1784906504.731704) can0 541#000010000011147C R
(1784906504.737469) can0 12D#000000000000005F R
(1784906504.737921) can0 12A#10050000000A0057 R
(1784906504.748680) can0 121#00A601CF04800052 R
(1784906504.749150) can0 129#000000010000005B R
(1784906504.749277) can0 540#000040100000EC00 R
(1784906504.749393) can0 5B0#100000000000008A R
(1784906504.749484) can0 12D#000000000000006A R
(1784906504.749611) can0 12E#000000000000C090 R
(1784906504.758285) can0 12D#000000000000008B R
(1784906504.766818) can0 450#0000000000002800 R
(1784906504.767163) can0 121#00A601CF04800067 R
(1784906504.767257) can0 129#000000010000006E R
(1784906504.770795) can0 12D#00000000000000BE R
(1784906504.771245) can0 12E#000000000000C0A5 R
(1784906504.777463) can0 12D#00000000000000D4 R
(1784906504.786564) can0 121#00A601CF04800086 R
(1784906504.786948) can0 129#000000010000008F R
(1784906504.789360) can0 12D#0000000000000035 R
(1784906504.789744) can0 12E#000000000000C0CF R
(1784906504.789846) can0 12A#10050000000A0062 R
(1784906504.797463) can0 12D#000000000000005F R
(1784906504.807725) can0 121#00A601CF048000B3 R
(1784906504.808117) can0 129#00000001000000BA R
(1784906504.808217) can0 12D#000000000000006A R
(1784906504.808312) can0 12E#000000000000C02E R
(1784906504.808549) can0 120#00000000000000BE R
(1784906504.809843) can0 541#0000100000111423 R
(1784906504.817201) can0 450#0000000000002800 R
(1784906504.817572) can0 12D#000000000000008B R
(1784906504.826609) can0 121#00A601CF048000D9 R
(1784906504.828879) can0 129#00000001000000D0 R
(1784906504.838027) can0 12D#00000000000000D4 R
(1784906504.838501) can0 12A#10050000000A0083 R
(1784906504.846969) can0 121#00A601CF04800038 R
(1784906504.851554) can0 5B0#10000000000000BF R
(1784906504.858361) can0 12D#000000000000005F R
(1784906504.870917) can0 450#0000000000002800 R
(1784906504.871458) can0 121#00A601CF04800052 R
(1784906504.871557) can0 129#000000010000005B R
(1784906504.871684) can0 12D#000000000000006A R
(1784906504.877920) can0 12D#000000000000008B R
(1784906504.890295) can0 12D#00000000000000BE R
(1784906504.906559) can0 121#00A601CF04800086 R
(1784906504.909806) can0 12E#000000000000C0CF R
(1784906504.916692) can0 450#0000000000002800 R
(1784906504.927066) can0 121#00A601CF048000B3 R
(1784906504.933031) can0 541#0000100000111423 R
(1784906504.947320) can0 121#00A601CF048000D9 R
(1784906504.951732) can0 129#00000001000000D0 R
(1784906504.951976) can0 540#000040100000EC00 R
(1784906504.957438) can0 12D#00000000000000D4 R
(1784906504.966440) can0 450#0000000000002800 R
(1784906504.966845) can0 121#00A601CF04800038 R
(1784906504.966964) can0 129#0000000100000031 R
(1784906504.967199) can0 12D#0000000000000035 R
(1784906504.967410) can0 12E#000000000000C071 R
(1784906504.968454) can0 120#0000000000000035 R
(1784906504.969766) can0 541#000010000011147C R
(1784906504.977466) can0 12D#000000000000005F R
(1784906504.987324) can0 121#00A601CF04800052 R
(1784906504.987748) can0 129#000000010000005B R
(1784906504.987987) can0 12D#000000000000006A R
(1784906504.990017) can0 541#000010000011149D R
(1784906505.000138) can0 12D#000000000000008B R
(1784906505.007522) can0 121#00A601CF04800067 R
(1784906505.007911) can0 129#000000010000006E R
(1784906505.016788) can0 450#0000000000002800 R
(1784906505.018028) can0 12D#00000000000000D4 R
(1784906505.026684) can0 121#00A601CF04800086 R
(1784906505.027043) can0 129#000000010000008F R
(1784906505.027230) can0 12D#0000000000000035 R
(1784906505.027480) can0 12E#000000000000C0CF R
(1784906505.028181) can0 120#000000000000008B R
(1784906505.031772) can0 541#00001000001114C2 R
(1784906505.037427) can0 12D#000000000000005F R
(1784906505.037904) can0 12A#10050000000A0057 R
(1784906505.049125) can0 121#00A601CF048000B3 R
(1784906505.049526) can0 129#00000001000000BA R
(1784906505.049931) can0 12D#000000000000006A R
(1784906505.060015) can0 12D#000000000000008B R
(1784906505.066639) can0 450#0000000000002800 R
(1784906505.067168) can0 121#00A601CF048000D9 R
(1784906505.071309) can0 541#0000100000111449 R
(1784906505.078118) can0 12D#00000000000000D4 R
(1784906505.086667) can0 121#00A601CF04800038 R
(1784906505.087123) can0 129#0000000100000031 R
(1784906505.087600) can0 12D#0000000000000035 R
(1784906505.092606) can0 541#000010000011147C R
(1784906505.097747) can0 12D#000000000000005F R
(1784906505.107220) can0 121#00A601CF04800052 R
(1784906505.107692) can0 129#000000010000005B R
(1784906505.118528) can0 450#0000000000002800 R
(1784906505.120743) can0 12D#000000000000008B R
(1784906505.126906) can0 121#00A601CF04800067 R
(1784906505.127850) can0 129#000000010000006E R
(1784906505.128105) can0 12D#00000000000000BE R
(1784906505.128270) can0 12E#000000000000C0A5 R
(1784906505.128430) can0 120#000000000000006A R
(1784906505.137438) can0 12D#00000000000000D4 R
(1784906505.146578) can0 121#00A601CF04800086 R
(1784906505.147032) can0 129#000000010000008F R
(1784906505.147131) can0 540#000040100000EC00 R
(1784906505.147242) can0 12D#0000000000000035 R
(1784906505.159182) can0 12D#000000000000005F R
(1784906505.166481) can0 450#0000000000002800 R
(1784906505.169742) can0 541#0000100000111535 R
(1784906505.177970) can0 12D#000000000000008B R
(1784906505.186919) can0 121#00A601CF048000D9 R
(1784906505.187294) can0 129#00000001000000D0 R
(1784906505.187486) can0 12D#00000000000000BE R
(1784906505.198781) can0 12D#00000000000000D4 R
(1784906505.207142) can0 121#00A601CF04800038 R
(1784906505.207637) can0 129#0000000100000031 R
(1784906505.207766) can0 12D#0000000000000035 R
(1784906505.216949) can0 450#0000000000002800 R
(1784906505.226633) can0 121#00A601CF04800052 R
(1784906505.229897) can0 129#000000010000005B R
(1784906505.237779) can0 12D#000000000000008B R
(1784906505.248383) can0 121#00A601CF04800067 R
(1784906505.261916) can0 12D#00000000000000D4 R
(1784906505.266477) can0 450#0000000000002800 R
(1784906505.277440) can0 12D#000000000000005F R
(1784906505.289905) can0 121#00A601CF048000B3 R
(1784906505.290271) can0 129#00000001000000BA R
(1784906505.290374) can0 12D#000000000000006A R
(1784906505.294160) can0 12E#000000000000C02E R
(1784906505.294568) can0 12A#10050000000A003D R
(1784906505.294679) can0 5A0#0000000004000064 R
(1784906505.294787) can0 120#00000000000000BE R
(1784906505.295591) can0 541#0000100000111535 R
(1784906505.299017) can0 12D#000000000000008B R
(1784906505.306585) can0 121#00A601CF048000D9 R
(1784906505.306911) can0 129#00000001000000D0 R
(1784906505.316587) can0 450#0000000000002800 R
(1784906505.320519) can0 12D#00000000000000D4 R
(1784906505.326741) can0 121#00A601CF04800038 R
(1784906505.327180) can0 129#0000000100000031 R
(1784906505.327372) can0 12D#0000000000000035 R
(1784906505.331598) can0 120#0000000000000035 R
(1784906505.337417) can0 12D#000000000000005F R
(1784906505.337776) can0 12A#10050000000A0057 R
(1784906505.346590) can0 121#00A601CF04800052 R
(1784906505.347135) can0 129#000000010000005B R
(1784906505.350832) can0 541#000010000011158B R
(1784906505.357436) can0 12D#000000000000008B R
(1784906505.368259) can0 450#0000000000002800 R
(1784906505.370831) can0 129#000000010000006E R
(1784906505.377487) can0 12D#00000000000000D4 R
(1784906505.386755) can0 121#00A601CF04800086 R
(1784906505.390565) can0 129#000000010000008F R
(1784906505.390972) can0 12D#0000000000000035 R
(1784906505.391081) can0 12E#000000000000C0CF R
(1784906505.391183) can0 12A#10050000000A0062 R
(1784906505.397853) can0 12D#000000000000005F R
(1784906505.406659) can0 121#00A601CF048000B3 R
(1784906505.407153) can0 129#00000001000000BA R
(1784906505.410963) can0 541#0000100000111535 R
(1784906505.416527) can0 450#0000000000002800 R
(1784906505.420221) can0 12D#000000000000008B R
(1784906505.426593) can0 121#00A601CF048000D9 R
(1784906505.426945) can0 129#00000001000000D0 R
(1784906505.430869) can0 12D#00000000000000BE R
(1784906505.433792) can0 12E#000000000000C044 R
(1784906505.434255) can0 120#00000000000000D4 R
(1784906505.439177) can0 12D#00000000000000D4 R
(1784906505.448766) can0 121#00A601CF04800038 R
(1784906505.449172) can0 129#0000000100000031 R
(1784906505.449254) can0 540#000040100000EC00 R
(1784906505.449441) can0 12D#0000000000000035 R
(1784906505.449581) can0 12E#000000000000C071 R
(1784906505.449708) can0 5B0#10000000000000BF R
(1784906505.458361) can0 12D#000000000000005F R
(1784906505.466491) can0 450#0000000000002800 R
(1784906505.466986) can0 121#00A601CF04800052 R
(1784906505.467080) can0 129#000000010000005B R
(1784906505.469116) can0 12E#000000000000C090 R
(1784906505.477457) can0 12D#000000000000008B R
(1784906505.487513) can0 121#00A601CF04800067 R
(1784906505.487972) can0 129#000000010000006E R
(1784906505.491699) can0 12A#10050000000A00B6 R
(1784906505.497479) can0 12D#00000000000000D4 R
(1784906505.506628) can0 121#00A601CF04800086 R
(1784906505.506993) can0 129#000000010000008F R
(1784906505.507159) can0 12D#0000000000000035 R
(1784906505.507417) can0 12E#000000000000C0CF R
(1784906505.512932) can0 541#00001000001115D4 R
(1784906505.518805) can0 450#0000000000002800 R
(1784906505.519185) can0 12D#000000000000005F R
(1784906505.528253) can0 121#00A601CF048000B3 R
(1784906505.533268) can0 129#00000001000000BA R
(1784906505.538393) can0 12D#000000000000008B R
(1784906505.547615) can0 121#00A601CF048000D9 R
(1784906505.548072) can0 129#00000001000000D0 R
(1784906505.548171) can0 540#000040100000EC00 R
(1784906505.548272) can0 12D#00000000000000BE R
(1784906505.557405) can0 12D#00000000000000D4 R
(1784906505.567845) can0 450#0000000000002800 R
(1784906505.568301) can0 121#00A601CF04800038 R
(1784906505.568400) can0 129#0000000100000031 R
(1784906505.569778) can0 541#000010000011156A R
(1784906505.577775) can0 12D#000000000000005F R
(1784906505.587420) can0 121#00A601CF04800052 R
(1784906505.587775) can0 129#000000010000005B R
(1784906505.587980) can0 12D#000000000000006A R
(1784906505.600005) can0 12D#000000000000008B R
(1784906505.609001) can0 121#00A601CF04800067 R
(1784906505.609582) can0 129#000000010000006E R
(1784906505.609711) can0 12D#00000000000000BE R
(1784906505.617884) can0 450#0000000000002800 R
(1784906505.618311) can0 12D#00000000000000D4 R
(1784906505.628253) can0 121#00A601CF04800086 R
(1784906505.628830) can0 12E#000000000000C0CF R
(1784906505.637402) can0 12D#000000000000005F R
(1784906505.637858) can0 12A#10050000000A0057 R
(1784906505.646607) can0 121#00A601CF048000B3 R
(1784906505.646983) can0 129#00000001000000BA R
(1784906505.647091) can0 540#000040100000EC00 R
(1784906505.647283) can0 12D#000000000000006A R
(1784906505.647533) can0 12E#000000000000C02E R
(1784906505.650782) can0 5B0#1000000000000034 R
(1784906505.651127) can0 120#00000000000000BE R
(1784906505.651326) can0 541#0000100000111535 R
(1784906505.657421) can0 12D#000000000000008B R
(1784906505.668814) can0 450#0000000000002800 R
(1784906505.669366) can0 121#00A601CF048000D9 R
(1784906505.669484) can0 129#00000001000000D0 R
(1784906505.669587) can0 12D#00000000000000BE R
(1784906505.669734) can0 12E#000000000000C044 R
(1784906505.669866) can0 120#00000000000000D4 R
(1784906505.669982) can0 541#000010000011155F R
(1784906505.688854) can0 121#00A601CF04800038 R
(1784906505.689322) can0 129#0000000100000031 R
(1784906505.689422) can0 12D#0000000000000035 R
(1784906505.692675) can0 12E#000000000000C071 R
(1784906505.693218) can0 12A#10050000000A0062 R
(1784906505.693349) can0 5A0#000000000400003B R
(1784906505.693490) can0 120#0000000000000035 R
(1784906505.693608) can0 541#000010000011156A R
(1784906505.699000) can0 12D#000000000000005F R
(1784906505.707055) can0 121#00A601CF04800052 R
(1784906505.707453) can0 129#000000010000005B R
(1784906505.707551) can0 12D#000000000000006A R
(1784906505.711487) can0 541#000010000011158B R
(1784906505.716452) can0 450#0000000000002800 R
(1784906505.720927) can0 12D#000000000000008B R
(1784906505.726641) can0 121#00A601CF04800067 R
(1784906505.729932) can0 12E#000000000000C0A5 R
(1784906505.746617) can0 121#00A601CF04800086 R
(1784906505.747091) can0 129#000000010000008F R
(1784906505.747275) can0 540#000040100000EC00 R
(1784906505.748543) can0 120#000000000000008B R
(1784906505.752802) can0 541#00001000001115D4 R
(1784906505.757416) can0 12D#000000000000005F R
(1784906505.767453) can0 450#0000000000002800 R
(1784906505.767800) can0 121#00A601CF048000B3 R
(1784906505.770693) can0 12D#000000000000006A R
(1784906505.779497) can0 12D#000000000000008B R
(1784906505.786623) can0 121#00A601CF048000D9 R
(1784906505.787107) can0 129#00000001000000D0 R
(1784906505.787285) can0 12D#00000000000000BE R
(1784906505.787958) can0 12A#10050000000A00B6 R
(1784906505.797436) can0 12D#00000000000000D4 R
(1784906505.806635) can0 121#00A601CF04800038 R
(1784906505.807030) can0 129#0000000100000031 R
(1784906505.807110) can0 12D#0000000000000035 R
(1784906505.809436) can0 12E#000000000000C071 R
(1784906505.809937) can0 541#000010000011156A R
(1784906505.816807) can0 450#0000000000002800 R
(1784906505.829843) can0 121#00A601CF04800052 R
(1784906505.830210) can0 129#000000010000005B R
(1784906505.838183) can0 12D#000000000000008B R
(1784906505.846703) can0 121#00A601CF04800067 R
(1784906505.848270) can0 5B0#100000000000006B R
(1784906505.849746) can0 541#00001000001115BE R
(1784906505.857403) can0 12D#00000000000000D4 R
(1784906505.867702) can0 450#0000000000002800 R
(1784906505.868121) can0 121#00A601CF04800086 R
(1784906505.872323) can0 129#000000010000008F R
(1784906505.872625) can0 12D#0000000000000035 R
(1784906505.877450) can0 12D#000000000000005F R
(1784906505.886632) can0 121#00A601CF048000B3 R
(1784906505.887008) can0 129#00000001000000BA R
(1784906505.887269) can0 12D#000000000000006A R
(1784906505.888231) can0 120#00000000000000BE R
(1784906505.892375) can0 541#0000100000111535 R
(1784906505.897371) can0 12D#000000000000008B R
(1784906505.907964) can0 121#00A601CF048000D9 R
(1784906505.908435) can0 129#00000001000000D0 R
(1784906505.908530) can0 12D#00000000000000BE R
(1784906505.908637) can0 12E#000000000000C044 R
(1784906505.908735) can0 120#00000000000000D4 R
(1784906505.911659) can0 541#000010000011155F R
(1784906505.916440) can0 450#0000000000002800 R
(1784906505.917367) can0 12D#00000000000000D4 R
(1784906505.928062) can0 121#00A601CF04800038 R
(1784906505.928521) can0 129#0000000100000031 R
(1784906505.928621) can0 12D#0000000000000035 R
(1784906505.928849) can0 120#0000000000000035 R
(1784906505.939967) can0 12D#000000000000005F R
(1784906505.940389) can0 12A#10050000000A0057 R
(1784906505.946624) can0 121#00A601CF04800052 R
(1784906505.957421) can0 12D#000000000000008B R
(1784906505.966973) can0 450#0000000000002800 R
(1784906505.967311) can0 121#00A601CF04800067 R
(1784906505.967532) can0 129#000000010000006E R
(1784906505.977393) can0 12D#00000000000000D4 R
(1784906505.987578) can0 121#00A601CF04800086 R
(1784906505.988069) can0 129#000000010000008F R
(1784906505.988231) can0 12D#0000000000000035 R
(1784906505.988344) can0 12E#000000000000C0CF R
(1784906505.988494) can0 12A#10050000000A0062 R
(1784906505.988675) can0 5A0#0000000004000085 R
(1784906505.988820) can0 120#000000000000008B R
(1784906505.989719) can0 541#00001000001115D4 R
(1784906505.997435) can0 12D#000000000000005F R
(1784906506.006854) can0 121#00A601CF048000B3 R
(1784906506.007256) can0 129#00000001000000BA R
(1784906506.011107) can0 12D#000000000000006A R
(1784906506.011520) can0 12E#000000000000C02E R
(1784906506.015129) can0 120#00000000000000BE R
(1784906506.015363) can0 541#0000100000111535 R
(1784906506.017778) can0 450#0000000000002800 R
(1784906506.020306) can0 12D#000000000000008B R
(1784906506.026641) can0 121#00A601CF048000D9 R
(1784906506.027015) can0 129#00000001000000D0 R
(1784906506.027167) can0 12D#00000000000000BE R
(1784906506.027437) can0 12E#000000000000C044 R
(1784906506.031666) can0 120#00000000000000D4 R
(1784906506.032095) can0 541#000010000011155F R
(1784906506.037382) can0 12D#00000000000000D4 R
(1784906506.037831) can0 12A#10050000000A0083 R
(1784906506.049058) can0 121#00A601CF04800038 R
(1784906506.057445) can0 12D#000000000000005F R
(1784906506.066476) can0 450#0000000000002800 R
(1784906506.066874) can0 121#00A601CF04800052 R
(1784906506.067020) can0 129#000000010000005B R
(1784906506.067157) can0 12D#000000000000006A R
(1784906506.067399) can0 12E#000000000000C090 R
(1784906506.070059) can0 120#000000000000005F R
(1784906506.071933) can0 541#000010000011158B R
(1784906506.077704) can0 12D#000000000000008B R
(1784906506.088379) can0 121#00A601CF04800067 R
(1784906506.090881) can0 129#000000010000006E R
(1784906506.091012) can0 12D#00000000000000BE R
(1784906506.091247) can0 12E#000000000000C0A5 R
(1784906506.091857) can0 541#00001000001115BE R
(1784906506.098151) can0 12D#00000000000000D4 R
(1784906506.107354) can0 121#00A601CF04800086 R
(1784906506.109484) can0 129#000000010000008F R
(1784906506.109619) can0 12D#0000000000000035 R
(1784906506.109751) can0 12E#000000000000C0CF R
(1784906506.109876) can0 120#000000000000008B R
(1784906506.110011) can0 541#00001000001115D4 R
(1784906506.118752) can0 450#0000000000002800 R
(1784906506.119151) can0 12D#000000000000005F R
(1784906506.127621) can0 121#00A601CF048000B3 R
(1784906506.128096) can0 129#00000001000000BA R
(1784906506.128239) can0 12D#000000000000006A R
(1784906506.128335) can0 12E#000000000000C02E R
(1784906506.130273) can0 120#00000000000000BE R
(1784906506.130549) can0 541#000010000011163A R
(1784906506.138892) can0 12D#000000000000008B R
(1784906506.139265) can0 12A#10050000000A00DC R
(1784906506.149088) can0 121#00A601CF048000D9 R
(1784906506.149477) can0 129#00000001000000D0 R
(1784906506.149560) can0 540#000040100000EC00 R
(1784906506.149635) can0 12D#00000000000000BE R
(1784906506.157344) can0 12D#00000000000000D4 R
(1784906506.167201) can0 450#0000000000002800 R
(1784906506.170632) can0 121#00A601CF04800038 R
(1784906506.171069) can0 129#0000000100000031 R
(1784906506.171239) can0 12D#0000000000000035 R
(1784906506.171365) can0 12E#000000000000C071 R
(1784906506.171490) can0 120#0000000000000035 R
(1784906506.171641) can0 541#0000100000111665 R
(1784906506.180119) can0 12D#000000000000005F R
(1784906506.186663) can0 121#00A601CF04800052 R
(1784906506.187104) can0 129#000000010000005B R
(1784906506.187203) can0 12D#000000000000006A R
(1784906506.197410) can0 12D#000000000000008B R
(1784906506.206794) can0 121#00A601CF04800067 R
(1784906506.207154) can0 129#000000010000006E R
(1784906506.207240) can0 12D#00000000000000BE R
(1784906506.207473) can0 12E#000000000000C0A5 R
(1784906506.211073) can0 120#000000000000006A R
(1784906506.211424) can0 541#00001000001116B1 R
(1784906506.216436) can0 450#0000000000002800 R
(1784906506.217381) can0 12D#00000000000000D4 R
(1784906506.226998) can0 121#00A601CF04800086 R
(1784906506.227379) can0 129#000000010000008F R
(1784906506.227481) can0 12D#0000000000000035 R
(1784906506.227681) can0 12E#000000000000C0CF R
(1784906506.229786) can0 120#000000000000008B R
(1784906506.230177) can0 541#00001000001116DB R
(1784906506.240168) can0 12D#000000000000005F R
(1784906506.240622) can0 12A#10050000000A0057 R
(1784906506.249084) can0 121#00A601CF048000B3 R
(1784906506.266551) can0 450#0000000000002800 R
(1784906506.270102) can0 121#00A601CF048000D9 R
(1784906506.277433) can0 12D#00000000000000D4 R
(1784906506.287872) can0 121#00A601CF04800038 R
(1784906506.290179) can0 129#0000000100000031 R
(1784906506.291113) can0 12D#0000000000000035 R
(1784906506.297414) can0 12D#000000000000005F R
(1784906506.309093) can0 121#00A601CF04800052 R
(1784906506.309500) can0 129#000000010000005B R
(1784906506.318483) can0 450#0000000000002800 R
(1784906506.323080) can0 12D#000000000000008B R
(1784906506.332017) can0 120#000000000000006A R
(1784906506.337392) can0 12D#00000000000000D4 R
(1784906506.337741) can0 12A#10050000000A0083 R
(1784906506.346669) can0 121#00A601CF04800086 R
(1784906506.347024) can0 129#000000010000008F R
(1784906506.347125) can0 540#000040100000EC00 R
(1784906506.349803) can0 12D#0000000000000035 R
(1784906506.358389) can0 12D#000000000000005F R
(1784906506.367742) can0 450#0000000000002800 R
(1784906506.370956) can0 121#00A601CF048000B3 R
(1784906506.371368) can0 129#00000001000000BA R
(1784906506.377461) can0 12D#000000000000008B R
(1784906506.388285) can0 121#00A601CF048000D9 R
(1784906506.391005) can0 129#00000001000000D0 R
(1784906506.391158) can0 12D#00000000000000BE R
(1784906506.397727) can0 12D#00000000000000D4 R
(1784906506.406696) can0 121#00A601CF04800038 R
(1784906506.407055) can0 129#0000000100000031 R
(1784906506.409582) can0 12E#000000000000C071 R
(1784906506.416637) can0 450#0000000000002800 R
(1784906506.426688) can0 121#00A601CF04800052 R
(1784906506.427107) can0 129#000000010000005B R
(1784906506.427216) can0 12D#000000000000006A R
(1784906506.430643) can0 120#000000000000005F R
(1784906506.438305) can0 12D#000000000000008B R
(1784906506.446737) can0 121#00A601CF04800067 R
(1784906506.450639) can0 129#000000010000006E R
(1784906506.450834) can0 540#000040100000EC00 R
(1784906506.459871) can0 12D#00000000000000D4 R
(1784906506.466502) can0 450#0000000000002800 R
(1784906506.466902) can0 121#00A601CF04800086 R
(1784906506.467012) can0 129#000000010000008F R
(1784906506.467159) can0 12D#0000000000000035 R
(1784906506.467384) can0 12E#000000000000C0CF R
(1784906506.469746) can0 541#00001000001116DB R
(1784906506.477404) can0 12D#000000000000005F R
(1784906506.486796) can0 121#00A601CF048000B3 R
(1784906506.487158) can0 129#00000001000000BA R
(1784906506.487260) can0 12D#000000000000006A R
(1784906506.487459) can0 12E#000000000000C02E R
(1784906506.506700) can0 121#00A601CF048000D9 R
(1784906506.507099) can0 129#00000001000000D0 R
(1784906506.507331) can0 12D#00000000000000BE R
(1784906506.507488) can0 12E#000000000000C044 R
(1784906506.511294) can0 120#00000000000000D4 R
(1784906506.512439) can0 541#0000100000111650 R
(1784906506.516517) can0 450#0000000000002800 R
(1784906506.517644) can0 12D#00000000000000D4 R
(1784906506.526691) can0 121#00A601CF04800038 R
(1784906506.527208) can0 129#0000000100000031 R
(1784906506.527358) can0 12D#0000000000000035 R
(1784906506.527462) can0 12E#000000000000C071 R
(1784906506.531809) can0 120#0000000000000035 R
(1784906506.546741) can0 121#00A601CF04800052 R
(1784906506.550606) can0 12E#000000000000C090 R
(1784906506.557582) can0 12D#000000000000008B R
(1784906506.566507) can0 450#0000000000002800 R
(1784906506.578163) can0 12D#00000000000000D4 R
(1784906506.587773) can0 121#00A601CF04800086 R
(1784906506.588165) can0 129#000000010000008F R
(1784906506.597547) can0 12D#000000000000005F R
(1784906506.608409) can0 121#00A601CF048000B3 R
(1784906506.608791) can0 129#00000001000000BA R
(1784906506.608878) can0 12D#000000000000006A R
(1784906506.608985) can0 12E#000000000000C02E R
(1784906506.612372) can0 120#00000000000000BE R
(1784906506.612762) can0 541#000010000011163A R
(1784906506.616725) can0 450#0000000000002800 R
(1784906506.617299) can0 12D#000000000000008B R
(1784906506.627262) can0 121#00A601CF048000D9 R
(1784906506.627741) can0 129#00000001000000D0 R
(1784906506.627850) can0 12D#00000000000000BE R
(1784906506.628033) can0 12E#000000000000C044 R
(1784906506.628576) can0 120#00000000000000D4 R
(1784906506.637393) can0 12D#00000000000000D4 R
(1784906506.637854) can0 12A#10050000000A0083 R
(1784906506.650411) can0 121#00A601CF04800038 R
(1784906506.650834) can0 129#0000000100000031 R
(1784906506.652882) can0 12D#0000000000000035 R
(1784906506.657593) can0 12D#000000000000005F R
(1784906506.666504) can0 450#0000000000002800 R
(1784906506.667015) can0 121#00A601CF04800052 R
(1784906506.667124) can0 129#000000010000005B R
(1784906506.678994) can0 12D#000000000000008B R
(1784906506.686697) can0 121#00A601CF04800067 R
(1784906506.687085) can0 129#000000010000006E R
(1784906506.687260) can0 12D#00000000000000BE R
(1784906506.687565) can0 12E#000000000000C0A5 R
(1784906506.690273) can0 541#00001000001116B1 R
(1784906506.699181) can0 12D#00000000000000D4 R
(1784906506.706704) can0 121#00A601CF04800086 R
(1784906506.707075) can0 129#000000010000008F R
(1784906506.707287) can0 12D#0000000000000035 R
(1784906506.707470) can0 12E#000000000000C0CF R
(1784906506.711588) can0 120#000000000000008B R
(1784906506.712111) can0 541#00001000001116DB R
(1784906506.716433) can0 450#0000000000002800 R
(1784906506.717336) can0 12D#000000000000005F R
(1784906506.726717) can0 121#00A601CF048000B3 R
(1784906506.730784) can0 129#00000001000000BA R
(1784906506.731044) can0 12D#000000000000006A R
(1784906506.731157) can0 12E#000000000000C02E R
(1784906506.735107) can0 120#00000000000000BE R
(1784906506.735335) can0 541#000010000011163A R
(1784906506.738623) can0 12D#000000000000008B R
(1784906506.749458) can0 121#00A601CF048000D9 R
(1784906506.749850) can0 129#00000001000000D0 R
(1784906506.750047) can0 12D#00000000000000BE R
(1784906506.766498) can0 450#0000000000002800 R
(1784906506.766909) can0 121#00A601CF04800038 R
(1784906506.775261) can0 129#0000000100000031 R
(1784906506.775619) can0 12D#0000000000000035 R
(1784906506.775736) can0 12E#000000000000C071 R
(1784906506.790134) can0 121#00A601CF04800052 R
(1784906506.791150) can0 129#000000010000005B R
(1784906506.799526) can0 12D#000000000000008B R
(1784906506.807881) can0 121#00A601CF04800067 R
(1784906506.808302) can0 129#000000010000006E R
(1784906506.809733) can0 541#00001000001116B1 R
(1784906506.816933) can0 450#0000000000002800 R
(1784906506.819733) can0 12D#00000000000000D4 R
(1784906506.829675) can0 121#00A601CF04800086 R
(1784906506.830127) can0 129#000000010000008F R
(1784906506.830417) can0 12E#000000000000C0CF R
(1784906506.839369) can0 12D#000000000000005F R
(1784906506.839793) can0 12A#10050000000A0057 R
(1784906506.846737) can0 121#00A601CF048000B3 R
(1784906506.858003) can0 12D#000000000000008B R
(1784906506.867440) can0 450#0000000000002800 R
(1784906506.867953) can0 121#00A601CF048000D9 R
(1784906506.878424) can0 12D#00000000000000D4 R
(1784906506.888700) can0 121#00A601CF04800038 R
(1784906506.889072) can0 129#0000000100000031 R
(1784906506.889163) can0 12D#0000000000000035 R
(1784906506.889260) can0 12E#000000000000C071 R
(1784906506.892127) can0 12A#10050000000A0062 R
(1784906506.892431) can0 5A0#000000000400003B R
(1784906506.898651) can0 12D#000000000000005F R
(1784906506.908603) can0 121#00A601CF04800052 R
(1784906506.908977) can0 129#000000010000005B R
(1784906506.911277) can0 12D#000000000000006A R
(1784906506.911585) can0 12E#000000000000C090 R
(1784906506.911693) can0 120#000000000000005F R
(1784906506.916782) can0 450#0000000000002800 R
(1784906506.919224) can0 12D#000000000000008B R
(1784906506.926754) can0 121#00A601CF04800067 R
(1784906506.927200) can0 129#000000010000006E R
(1784906506.927313) can0 12D#00000000000000BE R
(1784906506.932120) can0 120#000000000000006A R
(1784906506.939649) can0 12D#00000000000000D4 R
(1784906506.948151) can0 121#00A601CF04800086 R
(1784906506.948671) can0 129#000000010000008F R
(1784906506.948762) can0 12D#0000000000000035 R
(1784906506.948847) can0 12E#000000000000C0CF R
(1784906506.949821) can0 541#00001000001116DB R
(1784906506.967802) can0 450#0000000000002800 R
(1784906506.968179) can0 121#00A601CF048000B3 R
(1784906506.968273) can0 129#00000001000000BA R
(1784906506.968469) can0 12D#000000000000006A R
(1784906506.972853) can0 12E#000000000000C02E R
(1784906506.977951) can0 12D#000000000000008B R
(1784906506.986785) can0 121#00A601CF048000D9 R
(1784906506.991581) can0 120#00000000000000D4 R
(1784906506.997365) can0 12D#00000000000000D4 R
(1784906507.007678) can0 121#00A601CF04800038 R
(1784906507.011678) can0 129#0000000100000031 R
(1784906507.011969) can0 12D#0000000000000035 R
(1784906507.012063) can0 12E#000000000000C071 R
(1784906507.012289) can0 120#0000000000000035 R
(1784906507.018681) can0 450#0000000000002800 R
(1784906507.019152) can0 12D#000000000000005F R
(1784906507.029549) can0 121#00A601CF04800052 R
(1784906507.030009) can0 129#000000010000005B R
(1784906507.037760) can0 12D#000000000000006A R
(1784906507.038253) can0 12E#000000000000C090 R
(1784906507.038351) can0 120#000000000000005F R
(1784906507.038440) can0 541#0000100000111684 R
(1784906507.038543) can0 12D#000000000000008B R
(1784906507.038694) can0 12A#10050000000A00DC R
(1784906507.046876) can0 121#00A601CF04800067 R
(1784906507.047282) can0 129#000000010000006E R
(1784906507.047454) can0 12D#00000000000000BE R
(1784906507.058741) can0 12D#00000000000000D4 R
(1784906507.066819) can0 450#0000000000002800 R
(1784906507.068026) can0 121#00A601CF04800086 R
(1784906507.068330) can0 129#000000010000008F R
(1784906507.078946) can0 12D#000000000000005F R
(1784906507.087132) can0 121#00A601CF048000B3 R
(1784906507.087591) can0 129#00000001000000BA R
(1784906507.087699) can0 12D#000000000000006A R
(1784906507.087784) can0 12E#000000000000C02E R
(1784906507.088748) can0 120#00000000000000BE R
(1784906507.108989) can0 121#00A601CF048000D9 R
(1784906507.109393) can0 129#00000001000000D0 R
(1784906507.109596) can0 12D#00000000000000BE R
(1784906507.109740) can0 12E#000000000000C044 R
(1784906507.116458) can0 450#0000000000002800 R
(1784906507.117266) can0 12D#00000000000000D4 R
(1784906507.127208) can0 121#00A601CF04800038 R
(1784906507.127733) can0 129#0000000100000031 R
(1784906507.127890) can0 12D#0000000000000035 R
(1784906507.127991) can0 12E#000000000000C071 R
(1784906507.130406) can0 120#0000000000000035 R
(1784906507.132843) can0 541#0000100000111773 R
(1784906507.137356) can0 12D#000000000000005F R
(1784906507.140476) can0 12A#10050000000A0057 R
(1784906507.149062) can0 121#00A601CF04800052 R
(1784906507.149517) can0 129#000000010000005B R
(1784906507.149612) can0 12D#000000000000006A R
(1784906507.149744) can0 12E#000000000000C090 R
(1784906507.149858) can0 540#000040100000EC00 R
(1784906507.158128) can0 12D#000000000000008B R
(1784906507.166515) can0 450#0000000000002800 R
(1784906507.166841) can0 121#00A601CF04800067 R
(1784906507.166927) can0 129#000000010000006E R
(1784906507.167143) can0 12D#00000000000000BE R
(1784906507.170241) can0 12E#000000000000C0A5 R
(1784906507.170640) can0 120#000000000000006A R
(1784906507.170836) can0 541#00001000001117A7 R
(1784906507.177652) can0 12D#00000000000000D4 R
(1784906507.188592) can0 121#00A601CF04800086 R
(1784906507.189015) can0 129#000000010000008F R
(1784906507.189229) can0 12D#0000000000000035 R
(1784906507.189353) can0 12E#000000000000C0CF R
(1784906507.189495) can0 12A#10050000000A0062 R
(1784906507.189611) can0 5A0#0000000004000085 R
(1784906507.189756) can0 120#000000000000008B R
(1784906507.200318) can0 12D#000000000000005F R
(1784906507.206750) can0 121#00A601CF048000B3 R
(1784906507.207071) can0 129#00000001000000BA R
(1784906507.207171) can0 12D#000000000000006A R
(1784906507.210457) can0 12E#000000000000C02E R
(1784906507.210962) can0 120#00000000000000BE R
(1784906507.211065) can0 541#000010000011172C R
(1784906507.226956) can0 121#00A601CF048000D9 R
(1784906507.230304) can0 129#00000001000000D0 R
(1784906507.230609) can0 12D#00000000000000BE R
(1784906507.238865) can0 12D#00000000000000D4 R
(1784906507.239393) can0 12A#10050000000A0083 R
(1784906507.247349) can0 121#00A601CF04800038 R
(1784906507.269395) can0 450#0000000000002800 R
(1784906507.269927) can0 121#00A601CF04800052 R
(1784906507.277376) can0 12D#000000000000008B R
(1784906507.286929) can0 121#00A601CF04800067 R
(1784906507.290540) can0 129#000000010000006E R
(1784906507.290632) can0 12D#00000000000000BE R
(1784906507.290725) can0 12E#000000000000C0A5 R
(1784906507.290946) can0 12A#10050000000A00B6 R
(1784906507.297789) can0 12D#00000000000000D4 R
(1784906507.308364) can0 121#00A601CF04800086 R
(1784906507.308738) can0 129#000000010000008F R
(1784906507.308924) can0 12D#0000000000000035 R
(1784906507.309045) can0 12E#000000000000C0CF R
(1784906507.317416) can0 450#0000000000002800 R
(1784906507.326945) can0 121#00A601CF048000B3 R
(1784906507.327446) can0 129#00000001000000BA R
(1784906507.330225) can0 12D#000000000000006A R
(1784906507.330550) can0 12E#000000000000C02E R
(1784906507.330665) can0 120#00000000000000BE R
(1784906507.338752) can0 12D#000000000000008B R
(1784906507.343009) can0 12A#10050000000A00DC R
(1784906507.349110) can0 540#000040100000EC00 R
(1784906507.357365) can0 12D#00000000000000D4 R
(1784906507.366529) can0 450#0000000000002800 R
(1784906507.366908) can0 121#00A601CF04800038 R
(1784906507.367504) can0 12E#000000000000C071 R
(1784906507.371685) can0 541#0000100000111773 R
(1784906507.377402) can0 12D#000000000000005F R
(1784906507.387480) can0 121#00A601CF04800052 R
(1784906507.387882) can0 129#000000010000005B R
(1784906507.388127) can0 12D#000000000000006A R
(1784906507.389781) can0 541#0000100000111792 R
(1784906507.397378) can0 12D#000000000000008B R
(1784906507.408441) can0 121#00A601CF04800067 R
(1784906507.410684) can0 129#000000010000006E R
(1784906507.415473) can0 12D#00000000000000BE R
(1784906507.415770) can0 12E#000000000000C0A5 R
(1784906507.415987) can0 120#000000000000006A R
(1784906507.426771) can0 121#00A601CF04800086 R
(1784906507.427180) can0 129#000000010000008F R
(1784906507.427290) can0 12D#0000000000000035 R
(1784906507.427490) can0 12E#000000000000C0CF R
(1784906507.428901) can0 120#000000000000008B R
(1784906507.430420) can0 541#00001000001117CD R
(1784906507.438155) can0 12D#000000000000005F R
(1784906507.440270) can0 12A#10050000000A0057 R
(1784906507.448101) can0 121#00A601CF048000B3 R
(1784906507.448505) can0 129#00000001000000BA R
(1784906507.448597) can0 12D#000000000000006A R
(1784906507.448796) can0 12E#000000000000C02E R
(1784906507.452600) can0 541#000010000011172C R
(1784906507.466596) can0 450#0000000000002800 R
(1784906507.467074) can0 121#00A601CF048000D9 R
(1784906507.467246) can0 129#00000001000000D0 R
(1784906507.467351) can0 12D#00000000000000BE R
(1784906507.467485) can0 12E#000000000000C044 R
(1784906507.468382) can0 120#00000000000000D4 R
(1784906507.471360) can0 541#0000100000111746 R
(1784906507.478957) can0 12D#00000000000000D4 R
(1784906507.486811) can0 121#00A601CF04800038 R
(1784906507.487209) can0 129#0000000100000031 R
(1784906507.497323) can0 12D#000000000000005F R
(1784906507.506797) can0 121#00A601CF04800052 R
(1784906507.507167) can0 129#000000010000005B R
(1784906507.507334) can0 12D#000000000000006A R
(1784906507.507415) can0 12E#000000000000C090 R
(1784906507.508696) can0 120#000000000000005F R
(1784906507.509787) can0 541#0000100000111792 R
(1784906507.517062) can0 450#0000000000002800 R
(1784906507.517463) can0 12D#000000000000008B R
(1784906507.526880) can0 121#00A601CF04800067 R
(1784906507.531185) can0 129#000000010000006E R
(1784906507.531612) can0 12D#00000000000000BE R
(1784906507.533701) can0 12E#000000000000C0A5 R
(1784906507.535992) can0 120#000000000000006A R
(1784906507.538960) can0 541#00001000001117A7 R
(1784906507.539074) can0 12D#00000000000000D4 R
(1784906507.539178) can0 12A#10050000000A0083 R
(1784906507.549917) can0 121#00A601CF04800086 R
(1784906507.550369) can0 129#000000010000008F R
(1784906507.550460) can0 12D#0000000000000035 R
(1784906507.550583) can0 12E#000000000000C0CF R
(1784906507.550749) can0 540#000040100000EC00 R
(1784906507.550875) can0 5B0#100000000000005E R
(1784906507.557696) can0 12D#000000000000005F R
(1784906507.568997) can0 450#0000000000002800 R
(1784906507.570010) can0 121#00A601CF048000B3 R
(1784906507.570112) can0 129#00000001000000BA R
(1784906507.577705) can0 12D#000000000000008B R
(1784906507.586985) can0 121#00A601CF048000D9 R
(1784906507.587382) can0 129#00000001000000D0 R
(1784906507.590226) can0 12D#00000000000000BE R
(1784906507.600930) can0 12D#00000000000000D4 R
(1784906507.609837) can0 121#00A601CF04800038 R
(1784906507.610252) can0 129#0000000100000031 R
(1784906507.612823) can0 12D#0000000000000035 R
(1784906507.616820) can0 450#0000000000002800 R
(1784906507.627792) can0 121#00A601CF04800052 R
(1784906507.628188) can0 129#000000010000005B R
(1784906507.628339) can0 12D#000000000000006A R
(1784906507.628580) can0 12E#000000000000C090 R
(1784906507.630036) can0 541#0000100000111792 R
(1784906507.639031) can0 12D#000000000000008B R
(1784906507.643274) can0 12A#10050000000A00DC R
(1784906507.646843) can0 121#00A601CF04800067 R
(1784906507.649275) can0 5B0#100000000000006B R
(1784906507.657500) can0 12D#00000000000000D4 R
(1784906507.666884) can0 450#0000000000002800 R
(1784906507.667321) can0 121#00A601CF04800086 R
(1784906507.667417) can0 129#000000010000008F R
(1784906507.667509) can0 12D#0000000000000035 R
(1784906507.671264) can0 12E#000000000000C0CF R
(1784906507.678005) can0 12D#000000000000005F R
(1784906507.687957) can0 121#00A601CF048000B3 R
(1784906507.688377) can0 129#00000001000000BA R
(1784906507.688492) can0 12D#000000000000006A R
(1784906507.697700) can0 12D#000000000000008B R
(1784906507.706783) can0 121#00A601CF048000D9 R
(1784906507.707182) can0 129#00000001000000D0 R
(1784906507.710755) can0 12D#00000000000000BE R
(1784906507.719461) can0 450#0000000000002800 R
(1784906507.726799) can0 121#00A601CF04800038 R
(1784906507.727217) can0 129#0000000100000031 R
(1784906507.730523) can0 120#0000000000000035 R
(1784906507.737333) can0 12D#000000000000005F R
(1784906507.737736) can0 12A#10050000000A0057 R
(1784906507.748207) can0 121#00A601CF04800052 R
(1784906507.748686) can0 129#000000010000005B R
(1784906507.749045) can0 540#000040100000EC00 R
(1784906507.758052) can0 12D#000000000000008B R
(1784906507.766569) can0 450#0000000000002800 R
(1784906507.770954) can0 121#00A601CF04800067 R
(1784906507.778100) can0 541#00001000001117A7 R
(1784906507.787072) can0 121#00A601CF04800086 R
(1784906507.790716) can0 129#000000010000008F R
(1784906507.800759) can0 12D#000000000000005F R
(1784906507.807922) can0 121#00A601CF048000B3 R
(1784906507.809131) can0 129#00000001000000BA R
(1784906507.809275) can0 12D#000000000000006A R
(1784906507.810201) can0 541#000010000011172C R
(1784906507.821294) can0 12D#000000000000008B R
(1784906507.826794) can0 121#00A601CF048000D9 R
(1784906507.827211) can0 129#00000001000000D0 R
(1784906507.831230) can0 120#00000000000000D4 R
(1784906507.839128) can0 12D#00000000000000D4 R
(1784906507.839512) can0 12A#10050000000A0083 R
(1784906507.847524) can0 121#00A601CF04800038 R
(1784906507.848001) can0 129#0000000100000031 R
(1784906507.848780) can0 12D#0000000000000035 R
(1784906507.849117) can0 12E#000000000000C071 R
(1784906507.849265) can0 540#000040100000EC00 R
(1784906507.849443) can0 5B0#10000000000000BF R
(1784906507.857619) can0 12D#000000000000005F R
(1784906507.866529) can0 450#0000000000002800 R
(1784906507.878277) can0 12D#000000000000008B R
(1784906507.886811) can0 121#00A601CF04800067 R
(1784906507.887146) can0 129#000000010000006E R
(1784906507.891880) can0 120#000000000000006A R
(1784906507.910432) can0 121#00A601CF04800086 R
(1784906507.910900) can0 129#000000010000008F R
(1784906507.910994) can0 12D#0000000000000035 R
(1784906507.919321) can0 541#00001000001117CD R
(1784906507.926899) can0 121#00A601CF048000B3 R
(1784906507.927304) can0 129#00000001000000BA R
(1784906507.931734) can0 120#00000000000000BE R
(1784906507.940152) can0 12D#000000000000008B R
(1784906507.940548) can0 12A#10050000000A00DC R
(1784906507.947714) can0 121#00A601CF048000D9 R
(1784906507.951753) can0 129#00000001000000D0 R
(1784906507.951854) can0 12D#00000000000000BE R
(1784906507.952063) can0 12E#000000000000C044 R
(1784906507.955537) can0 540#000040100000EC00 R
(1784906507.959321) can0 12D#00000000000000D4 R
(1784906507.969551) can0 450#0000000000002800 R
(1784906507.977722) can0 12D#000000000000005F R
(1784906507.987438) can0 121#00A601CF04800052 R
(1784906507.991126) can0 129#000000010000005B R
(1784906507.991440) can0 12D#000000000000006A R
(1784906507.991557) can0 12E#000000000000C090 R
(1784906507.999968) can0 12D#000000000000008B R
(1784906508.007338) can0 121#00A601CF04800067 R
(1784906508.007805) can0 129#000000010000006E R
(1784906508.016626) can0 450#0000000000002800 R
(1784906508.026829) can0 121#00A601CF04800086 R
(1784906508.027220) can0 129#000000010000008F R
(1784906508.027431) can0 12D#0000000000000035 R
(1784906508.031642) can0 120#000000000000008B R
(1784906508.033865) can0 541#00001000001117CD R
(1784906508.046929) can0 121#00A601CF048000B3 R
(1784906508.047293) can0 129#00000001000000BA R
(1784906508.047504) can0 12D#000000000000006A R
(1784906508.047637) can0 12E#000000000000C02E R
(1784906508.047765) can0 540#000040100000EC00 R
(1784906508.047977) can0 5B0#1000000000000034 R
(1784906508.051137) can0 120#00000000000000BE R
(1784906508.060135) can0 12D#000000000000008B R
(1784906508.069464) can0 450#0000000000002800 R
(1784906508.069848) can0 121#00A601CF048000D9 R
(1784906508.069930) can0 129#00000001000000D0 R
(1784906508.070006) can0 12D#00000000000000BE R
(1784906508.070248) can0 12E#000000000000C044 R
(1784906508.087414) can0 121#00A601CF04800038 R
(1784906508.087840) can0 129#0000000100000031 R
(1784906508.099125) can0 12D#000000000000005F R
(1784906508.108592) can0 121#00A601CF04800052 R
(1784906508.111058) can0 129#000000010000005B R
(1784906508.111193) can0 12D#000000000000006A R
(1784906508.111298) can0 12E#000000000000C090 R
(1784906508.111397) can0 120#000000000000005F R
(1784906508.111519) can0 541#0000100000111792 R
(1784906508.116721) can0 450#0000000000002800 R
(1784906508.119647) can0 12D#000000000000008B R
(1784906508.127104) can0 121#00A601CF04800067 R
(1784906508.127537) can0 129#000000010000006E R
(1784906508.137308) can0 12D#00000000000000D4 R
(1784906508.147149) can0 121#00A601CF04800086 R
(1784906508.147571) can0 129#000000010000008F R
(1784906508.151136) can0 12D#0000000000000035 R
(1784906508.151632) can0 12E#000000000000C0CF R
(1784906508.157359) can0 12D#000000000000005F R
(1784906508.168146) can0 450#0000000000002800 R
(1784906508.168583) can0 121#00A601CF048000B3 R
(1784906508.177389) can0 12D#000000000000008B R
(1784906508.188533) can0 121#00A601CF048000D9 R
(1784906508.199119) can0 12D#00000000000000D4 R
(1784906508.207626) can0 121#00A601CF04800038 R
(1784906508.212046) can0 129#0000000100000031 R
(1784906508.212365) can0 12D#0000000000000035 R
(1784906508.212569) can0 12E#000000000000C071 R
(1784906508.212670) can0 120#0000000000000035 R
(1784906508.216524) can0 541#0000100000111875 R
(1784906508.216763) can0 450#0000000000002800 R
(1784906508.220635) can0 12D#000000000000005F R
(1784906508.230716) can0 121#00A601CF04800052 R
(1784906508.231105) can0 129#000000010000005B R
(1784906508.238829) can0 12D#000000000000008B R
(1784906508.248841) can0 121#00A601CF04800067 R
(1784906508.266540) can0 450#0000000000002800 R
(1784906508.266956) can0 121#00A601CF04800086 R
(1784906508.268041) can0 12E#000000000000C0CF R
(1784906508.277347) can0 12D#000000000000005F R
(1784906508.288028) can0 121#00A601CF048000B3 R
(1784906508.290198) can0 129#00000001000000BA R
(1784906508.298276) can0 12D#000000000000008B R
(1784906508.309939) can0 121#00A601CF048000D9 R
(1784906508.310426) can0 129#00000001000000D0 R
(1784906508.310533) can0 12D#00000000000000BE R
(1784906508.319780) can0 450#0000000000002800 R
(1784906508.324665) can0 12D#00000000000000D4 R
(1784906508.328262) can0 121#00A601CF04800038 R
(1784906508.328757) can0 129#0000000100000031 R
(1784906508.337329) can0 12D#000000000000005F R
(1784906508.337736) can0 12A#10050000000A0057 R
(1784906508.347042) can0 121#00A601CF04800052 R
(1784906508.347439) can0 129#000000010000005B R
(1784906508.347556) can0 12D#000000000000006A R
(1784906508.352006) can0 120#000000000000005F R
(1784906508.357313) can0 12D#000000000000008B R
(1784906508.366643) can0 450#0000000000002800 R
(1784906508.367011) can0 121#00A601CF04800067 R
(1784906508.370300) can0 129#000000010000006E R
(1784906508.370593) can0 12D#00000000000000BE R
(1784906508.370692) can0 12E#000000000000C0A5 R
(1784906508.380304) can0 12D#00000000000000D4 R
(1784906508.389552) can0 121#00A601CF04800086 R
(1784906508.390015) can0 129#000000010000008F R
(1784906508.390122) can0 12D#0000000000000035 R
(1784906508.390215) can0 12E#000000000000C0CF R
(1784906508.393850) can0 12A#10050000000A0062 R
(1784906508.394300) can0 5A0#0000000004000085 R
(1784906508.394416) can0 120#000000000000008B R
(1784906508.407587) can0 121#00A601CF048000B3 R
(1784906508.408004) can0 129#00000001000000BA R
(1784906508.416844) can0 450#0000000000002800 R
(1784906508.427770) can0 121#00A601CF048000D9 R
(1784906508.431998) can0 541#0000100000111840 R
(1784906508.437421) can0 12D#00000000000000D4 R
(1784906508.437782) can0 12A#10050000000A0083 R
(1784906508.446848) can0 121#00A601CF04800038 R
(1784906508.447227) can0 129#0000000100000031 R
(1784906508.447484) can0 12D#0000000000000035 R
(1784906508.447800) can0 540#000040100000EC00 R
(1784906508.449804) can0 541#0000100000111875 R
(1784906508.458314) can0 12D#000000000000005F R
(1784906508.467954) can0 450#0000000000002800 R
(1784906508.477472) can0 121#00A601CF04800052 R
(1784906508.477798) can0 129#000000010000005B R
(1784906508.477886) can0 12D#000000000000006A R
(1784906508.486874) can0 121#00A601CF04800067 R
(1784906508.487267) can0 129#000000010000006E R
(1784906508.490079) can0 5A0#00000000040000B0 R
(1784906508.499989) can0 12D#00000000000000D4 R
(1784906508.508166) can0 121#00A601CF04800086 R
(1784906508.508678) can0 129#000000010000008F R
(1784906508.508806) can0 12D#0000000000000035 R
(1784906508.508947) can0 12E#000000000000C0CF R
(1784906508.516485) can0 450#0000000000002800 R
(1784906508.517264) can0 12D#000000000000005F R
(1784906508.527050) can0 121#00A601CF048000B3 R
(1784906508.527603) can0 129#00000001000000BA R
(1784906508.527730) can0 12D#000000000000006A R
(1784906508.527844) can0 12E#000000000000C02E R
(1784906508.528672) can0 120#00000000000000BE R
(1784906508.531921) can0 541#000010000011182A R
(1784906508.537319) can0 12D#000000000000008B R
(1784906508.537705) can0 12A#10050000000A00DC R
(1784906508.548806) can0 121#00A601CF048000D9 R
(1784906508.549201) can0 129#00000001000000D0 R
(1784906508.549293) can0 12D#00000000000000BE R
(1784906508.549426) can0 12E#000000000000C044 R
(1784906508.549680) can0 540#000040110000EC00 R
(1784906508.560259) can0 12D#00000000000000D4 R
(1784906508.566777) can0 450#0000000000002800 R
(1784906508.569691) can0 121#00A601CF04800038 R
(1784906508.570122) can0 129#0000000100000031 R
(1784906508.570235) can0 12D#0000000000000035 R
(1784906508.578524) can0 12D#000000000000005F R
(1784906508.586959) can0 121#00A601CF04800052 R
(1784906508.587440) can0 129#000000010000005B R
(1784906508.597330) can0 12D#000000000000008B R
(1784906508.606873) can0 121#00A601CF04800067 R
(1784906508.607240) can0 129#000000010000006E R
(1784906508.607337) can0 12D#00000000000000BE R
(1784906508.607537) can0 12E#000000000000C0A5 R
(1784906508.610427) can0 120#000000000000006A R
(1784906508.616744) can0 450#0000000000002800 R
(1784906508.628602) can0 121#00A601CF04800086 R
(1784906508.631149) can0 129#000000010000008F R
(1784906508.631422) can0 12D#0000000000000035 R
(1784906508.640450) can0 12D#000000000000005F R
(1784906508.640834) can0 12A#10050000000A0057 R
(1784906508.649165) can0 121#00A601CF048000B3 R
(1784906508.649518) can0 129#00000001000000BA R
(1784906508.651440) can0 12D#000000000000006A R
(1784906508.659896) can0 12D#000000000000008B R
(1784906508.668570) can0 450#0000000000002800 R
(1784906508.668950) can0 121#00A601CF048000D9 R
(1784906508.669034) can0 129#00000001000000D0 R
(1784906508.669117) can0 12D#00000000000000BE R
(1784906508.669302) can0 12E#000000000000C044 R
(1784906508.680678) can0 12D#00000000000000D4 R
(1784906508.686883) can0 121#00A601CF04800038 R
(1784906508.690212) can0 5A0#000000000400003B R
(1784906508.697324) can0 12D#000000000000005F R
(1784906508.706879) can0 121#00A601CF04800052 R
(1784906508.708493) can0 120#000000000000005F R
(1784906508.717316) can0 450#0000000000002800 R
(1784906508.726878) can0 121#00A601CF04800067 R
(1784906508.727361) can0 129#000000010000006E R
(1784906508.727457) can0 12D#00000000000000BE R
(1784906508.731550) can0 120#000000000000006A R
(1784906508.747234) can0 121#00A601CF04800086 R
(1784906508.748082) can0 540#000040110000EC00 R
(1784906508.757286) can0 12D#000000000000005F R
(1784906508.770091) can0 450#0000000000002800 R
(1784906508.770504) can0 121#00A601CF048000B3 R
(1784906508.771647) can0 129#00000001000000BA R
(1784906508.771962) can0 12D#000000000000006A R
(1784906508.772063) can0 12E#000000000000C02E R
(1784906508.777360) can0 12D#000000000000008B R
(1784906508.788443) can0 121#00A601CF048000D9 R
(1784906508.788975) can0 129#00000001000000D0 R
(1784906508.792674) can0 12D#00000000000000BE R
(1784906508.808068) can0 121#00A601CF04800038 R
(1784906508.810478) can0 129#0000000100000031 R
(1784906508.811171) can0 120#0000000000000035 R
(1784906508.820020) can0 450#0000000000002800 R
(1784906508.820561) can0 12D#000000000000005F R
(1784906508.826889) can0 121#00A601CF04800052 R
(1784906508.827225) can0 129#000000010000005B R
(1784906508.827323) can0 12D#000000000000006A R
(1784906508.831295) can0 12E#000000000000C090 R
(1784906508.846877) can0 121#00A601CF04800067 R
(1784906508.847267) can0 129#000000010000006E R
(1784906508.857326) can0 12D#00000000000000D4 R
(1784906508.866608) can0 450#0000000000002800 R
(1784906508.867028) can0 121#00A601CF04800086 R
(1784906508.867140) can0 129#000000010000008F R
(1784906508.877329) can0 12D#000000000000005F R
(1784906508.887151) can0 121#00A601CF048000B3 R
(1784906508.897481) can0 12D#000000000000008B R
(1784906508.909154) can0 121#00A601CF048000D9 R
(1784906508.909528) can0 129#00000001000000D0 R
(1784906508.909722) can0 12D#00000000000000BE R
(1784906508.909835) can0 12E#000000000000C044 R
(1784906508.912680) can0 120#00000000000000D4 R
(1784906508.913124) can0 541#0000100000111840 R
(1784906508.918387) can0 450#0000000000002800 R
(1784906508.920632) can0 12D#00000000000000D4 R
(1784906508.927579) can0 121#00A601CF04800038 R
(1784906508.928051) can0 129#0000000100000031 R
(1784906508.928152) can0 12D#0000000000000035 R
(1784906508.928297) can0 12E#000000000000C071 R
(1784906508.937362) can0 12D#000000000000005F R
(1784906508.937607) can0 12A#10050000000A0057 R
(1784906508.949853) can0 121#00A601CF04800052 R
(1784906508.950270) can0 129#000000010000005B R
(1784906508.957368) can0 12D#000000000000008B R
(1784906508.966976) can0 450#0000000000002800 R
(1784906508.967354) can0 121#00A601CF04800067 R
(1784906508.967521) can0 129#000000010000006E R
(1784906508.967690) can0 12D#00000000000000BE R
(1784906508.967792) can0 12E#000000000000C0A5 R
(1784906508.971130) can0 120#000000000000006A R
(1784906508.971593) can0 541#00001000001118A1 R
(1784906508.978788) can0 12D#00000000000000D4 R
(1784906508.987724) can0 121#00A601CF04800086 R
(1784906508.988792) can0 129#000000010000008F R
(1784906508.992750) can0 541#00001000001118CB R
(1784906509.007309) can0 121#00A601CF048000B3 R
(1784906509.007698) can0 129#00000001000000BA R
(1784906509.016546) can0 450#0000000000002800 R
(1784906509.020445) can0 12D#000000000000008B R
(1784906509.027761) can0 121#00A601CF048000D9 R
(1784906509.028158) can0 129#00000001000000D0 R
(1784906509.028267) can0 12D#00000000000000BE R
(1784906509.028476) can0 12E#000000000000C044 R
(1784906509.028608) can0 120#00000000000000D4 R
(1784906509.032475) can0 541#0000100000111840 R
(1784906509.037274) can0 12D#00000000000000D4 R
(1784906509.037715) can0 12A#10050000000A0083 R
(1784906509.046920) can0 121#00A601CF04800038 R
(1784906509.047259) can0 129#0000000100000031 R
(1784906509.047466) can0 12D#0000000000000035 R
(1784906509.047569) can0 12E#000000000000C071 R
(1784906509.050965) can0 540#000040110000EC00 R
(1784906509.053078) can0 5B0#10000000000000BF R
(1784906509.053561) can0 120#0000000000000035 R
(1784906509.058521) can0 12D#000000000000005F R
(1784906509.069579) can0 450#0000000000002800 R
(1784906509.069994) can0 121#00A601CF04800052 R
(1784906509.070089) can0 129#000000010000005B R
(1784906509.070200) can0 12D#000000000000006A R
(1784906509.070464) can0 12E#000000000000C090 R
(1784906509.070596) can0 120#000000000000005F R
(1784906509.087065) can0 121#00A601CF04800067 R
(1784906509.093181) can0 129#000000010000006E R
(1784906509.093494) can0 12D#00000000000000BE R
(1784906509.098676) can0 12D#00000000000000D4 R
(1784906509.106886) can0 121#00A601CF04800086 R
(1784906509.111428) can0 120#000000000000008B R
(1784906509.116495) can0 450#0000000000002800 R
(1784906509.127121) can0 121#00A601CF048000B3 R
(1784906509.137266) can0 12D#000000000000008B R
(1784906509.141183) can0 12A#10050000000A00DC R
(1784906509.147699) can0 121#00A601CF048000D9 R
(1784906509.152118) can0 129#00000001000000D0 R
(1784906509.152950) can0 120#00000000000000D4 R
(1784906509.166891) can0 450#0000000000002800 R
(1784906509.167271) can0 121#00A601CF04800038 R
(1784906509.170204) can0 129#0000000100000031 R
(1784906509.170576) can0 12D#0000000000000035 R
(1784906509.170680) can0 12E#000000000000C071 R
(1784906509.177341) can0 12D#000000000000005F R
(1784906509.186916) can0 121#00A601CF04800052 R
(1784906509.187364) can0 129#000000010000005B R
(1784906509.197242) can0 12D#000000000000008B R
(1784906509.206920) can0 121#00A601CF04800067 R
(1784906509.207339) can0 129#000000010000006E R
(1784906509.212987) can0 541#00001000001119B7 R
(1784906509.219759) can0 450#0000000000002800 R
(1784906509.220265) can0 12D#00000000000000D4 R
(1784906509.228904) can0 121#00A601CF04800086 R
(1784906509.229310) can0 129#000000010000008F R
(1784906509.230932) can0 541#00001000001119DD R
(1784906509.238902) can0 12D#000000000000005F R
(1784906509.248038) can0 121#00A601CF048000B3 R
(1784906509.267505) can0 450#0000000000002800 R
(1784906509.268005) can0 121#00A601CF048000D9 R
(1784906509.268113) can0 129#00000001000000D0 R
(1784906509.268225) can0 12D#00000000000000BE R
(1784906509.268354) can0 12E#000000000000C044 R
(1784906509.268583) can0 120#00000000000000D4 R
(1784906509.277660) can0 12D#00000000000000D4 R
(1784906509.288502) can0 121#00A601CF04800038 R
(1784906509.288907) can0 129#0000000100000031 R
(1784906509.288985) can0 12D#0000000000000035 R
(1784906509.289085) can0 12E#000000000000C071 R
(1784906509.289297) can0 12A#10050000000A0062 R
(1784906509.293163) can0 5A0#000000000400003B R
(1784906509.293268) can0 120#0000000000000035 R
(1784906509.293473) can0 541#0000100000111963 R
(1784906509.297268) can0 12D#000000000000005F R
(1784906509.306919) can0 121#00A601CF04800052 R
(1784906509.308198) can0 129#000000010000005B R
(1784906509.316500) can0 450#0000000000002800 R
(1784906509.328632) can0 121#00A601CF04800067 R
(1784906509.329139) can0 129#000000010000006E R
(1784906509.329247) can0 12D#00000000000000BE R
(1784906509.337329) can0 12D#00000000000000D4 R
(1784906509.346982) can0 121#00A601CF04800086 R
(1784906509.348183) can0 129#000000010000008F R
(1784906509.359813) can0 12D#000000000000005F R
(1784906509.366645) can0 450#0000000000002800 R
(1784906509.369147) can0 121#00A601CF048000B3 R
(1784906509.369390) can0 129#00000001000000BA R
(1784906509.369560) can0 12D#000000000000006A R
(1784906509.369701) can0 12E#000000000000C02E R
(1784906509.373899) can0 541#000010000011193C R
(1784906509.377319) can0 12D#000000000000008B R
(1784906509.389853) can0 121#00A601CF048000D9 R
(1784906509.390239) can0 129#00000001000000D0 R
(1784906509.390399) can0 12D#00000000000000BE R
(1784906509.390534) can0 12E#000000000000C044 R
(1784906509.394207) can0 12A#10050000000A00B6 R
(1784906509.395536) can0 5A0#0000000004000051 R
(1784906509.406943) can0 121#00A601CF04800038 R
(1784906509.407932) can0 12E#000000000000C071 R
(1784906509.418257) can0 450#0000000000002800 R
(1784906509.421140) can0 12D#000000000000005F R
(1784906509.429623) can0 121#00A601CF04800052 R
(1784906509.430032) can0 129#000000010000005B R
(1784906509.430121) can0 12D#000000000000006A R
(1784906509.437268) can0 12D#000000000000008B R
(1784906509.437728) can0 12A#10050000000A00DC R
(1784906509.450067) can0 121#00A601CF04800067 R
(1784906509.450470) can0 129#000000010000006E R
(1784906509.450689) can0 12D#00000000000000BE R
(1784906509.450829) can0 12E#000000000000C0A5 R
(1784906509.450955) can0 540#000040110000EC00 R
(1784906509.451073) can0 5B0#100000000000006B R
(1784906509.451217) can0 120#000000000000006A R
(1784906509.458693) can0 12D#00000000000000D4 R
(1784906509.467114) can0 450#0000000000002800 R
(1784906509.471364) can0 121#00A601CF04800086 R
(1784906509.471699) can0 129#000000010000008F R
(1784906509.471811) can0 12D#0000000000000035 R
(1784906509.477828) can0 12D#000000000000005F R
(1784906509.486924) can0 121#00A601CF048000B3 R
(1784906509.487281) can0 129#00000001000000BA R
(1784906509.487389) can0 12D#000000000000006A R
(1784906509.487589) can0 12E#000000000000C02E R
(1784906509.500009) can0 12D#000000000000008B R
(1784906509.506943) can0 121#00A601CF048000D9 R
(1784906509.507333) can0 129#00000001000000D0 R
(1784906509.507510) can0 12D#00000000000000BE R
(1784906509.516493) can0 450#0000000000002800 R
(1784906509.527525) can0 121#00A601CF04800038 R
(1784906509.529901) can0 129#0000000100000031 R
(1784906509.532451) can0 541#0000100000111963 R
(1784906509.550031) can0 121#00A601CF04800052 R
(1784906509.550532) can0 129#000000010000005B R
(1784906509.550632) can0 12D#000000000000006A R
(1784906509.550816) can0 12E#000000000000C090 R
(1784906509.550963) can0 540#000040110000EC00 R
(1784906509.551080) can0 5B0#100000000000008A R
(1784906509.551199) can0 120#000000000000005F R
(1784906509.551339) can0 541#0000100000111982 R
(1784906509.567431) can0 450#0000000000002800 R
(1784906509.568654) can0 121#00A601CF04800067 R
(1784906509.574019) can0 541#00001000001119B7 R
(1784906509.580341) can0 12D#00000000000000D4 R
(1784906509.589257) can0 121#00A601CF04800086 R
(1784906509.591059) can0 129#000000010000008F R
(1784906509.591236) can0 12D#0000000000000035 R
(1784906509.591330) can0 12E#000000000000C0CF R
(1784906509.597275) can0 12D#000000000000005F R
(1784906509.606939) can0 121#00A601CF048000B3 R
(1784906509.607339) can0 129#00000001000000BA R
(1784906509.616520) can0 450#0000000000002800 R
(1784906509.626951) can0 121#00A601CF048000D9 R
(1784906509.638785) can0 12D#00000000000000D4 R
(1784906509.647749) can0 121#00A601CF04800038 R
(1784906509.652496) can0 541#0000100000111963 R
(1784906509.657613) can0 12D#000000000000005F R
(1784906509.666988) can0 450#0000000000002800 R
(1784906509.667490) can0 12D#000000000000006A R
(1784906509.667604) can0 121#00A601CF04800052 R
(1784906509.667702) can0 129#000000010000005B R
(1784906509.671696) can0 120#000000000000005F R
(1784906509.677294) can0 12D#000000000000008B R
(1784906509.690940) can0 121#00A601CF04800067 R
(1784906509.691338) can0 129#000000010000006E R
(1784906509.691428) can0 12D#00000000000000BE R
(1784906509.693811) can0 12E#000000000000C0A5 R
(1784906509.694275) can0 12A#10050000000A00B6 R
(1784906509.708355) can0 121#00A601CF04800086 R
(1784906509.708786) can0 129#000000010000008F R
(1784906509.708976) can0 12D#0000000000000035 R
(1784906509.718429) can0 450#0000000000002800 R
(1784906509.726955) can0 121#00A601CF048000B3 R
(1784906509.727449) can0 129#00000001000000BA R
(1784906509.727546) can0 12D#000000000000006A R
(1784906509.727640) can0 12E#000000000000C02E R
(1784906509.738666) can0 12D#000000000000008B R
(1784906509.748805) can0 121#00A601CF048000D9 R
(1784906509.752836) can0 129#00000001000000D0 R
(1784906509.752976) can0 12D#00000000000000BE R
(1784906509.757939) can0 12D#00000000000000D4 R
(1784906509.766583) can0 450#0000000000002800 R
(1784906509.766991) can0 121#00A601CF04800038 R
(1784906509.767112) can0 129#0000000100000031 R
(1784906509.767351) can0 12D#0000000000000035 R
(1784906509.771724) can0 12E#000000000000C071 R
(1784906509.775863) can0 120#0000000000000035 R
(1784906509.790112) can0 121#00A601CF04800052 R
(1784906509.790579) can0 129#000000010000005B R
(1784906509.790814) can0 12E#000000000000C090 R
(1784906509.806982) can0 121#00A601CF04800067 R
(1784906509.807406) can0 129#000000010000006E R
(1784906509.807580) can0 12D#00000000000000BE R
(1784906509.810923) can0 541#00001000001119B7 R
(1784906509.818974) can0 450#0000000000002800 R
(1784906509.827342) can0 121#00A601CF04800086 R
(1784906509.827685) can0 129#000000010000008F R
(1784906509.829392) can0 120#000000000000008B R
(1784906509.837288) can0 12D#000000000000005F R
(1784906509.848682) can0 121#00A601CF048000B3 R
(1784906509.849104) can0 129#00000001000000BA R
(1784906509.849203) can0 12D#000000000000006A R
(1784906509.849293) can0 12E#000000000000C02E R
(1784906509.849389) can0 540#000040110000EC00 R
(1784906509.849511) can0 5B0#1000000000000034 R
(1784906509.849701) can0 120#00000000000000BE R
(1784906509.858774) can0 12D#000000000000008B R
(1784906509.867171) can0 450#0000000000002800 R
(1784906509.867609) can0 121#00A601CF048000D9 R
(1784906509.867711) can0 129#00000001000000D0 R
(1784906509.867904) can0 12D#00000000000000BE R
(1784906509.872897) can0 541#0000100000111956 R
(1784906509.877332) can0 12D#00000000000000D4 R
(1784906509.886981) can0 121#00A601CF04800038 R
(1784906509.887380) can0 129#0000000100000031 R
(1784906509.887571) can0 12D#0000000000000035 R
(1784906509.887706) can0 12E#000000000000C071 R
(1784906509.887881) can0 12A#10050000000A0062 R
(1784906509.888155) can0 5A0#000000000400003B R
(1784906509.888579) can0 120#0000000000000035 R
(1784906509.892847) can0 541#0000100000111963 R
(1784906509.898200) can0 12D#000000000000005F R
(1784906509.908369) can0 121#00A601CF04800052 R
(1784906509.908862) can0 129#000000010000005B R
(1784906509.908959) can0 12D#000000000000006A R
(1784906509.909080) can0 12E#000000000000C090 R
(1784906509.909247) can0 120#000000000000005F R
(1784906509.910878) can0 541#0000100000111982 R
(1784906509.918033) can0 450#0000000000002800 R
(1784906509.918419) can0 12D#000000000000008B R
(1784906509.929196) can0 121#00A601CF04800067 R
(1784906509.929585) can0 129#000000010000006E R
(1784906509.929696) can0 12D#00000000000000BE R
(1784906509.929788) can0 12E#000000000000C0A5 R
(1784906509.930048) can0 120#000000000000006A R
(1784906509.930920) can0 541#00001000001119B7 R
(1784906509.939104) can0 12D#00000000000000D4 R
(1784906509.939616) can0 12A#10050000000A0083 R
(1784906509.948907) can0 121#00A601CF04800086 R
(1784906509.949320) can0 129#000000010000008F R
(1784906509.949407) can0 12D#0000000000000035 R
(1784906509.949602) can0 12E#000000000000C0CF R
(1784906509.950900) can0 541#00001000001119DD R
(1784906509.957287) can0 12D#000000000000005F R
(1784906509.966599) can0 450#0000000000002800 R
(1784906509.967138) can0 121#00A601CF048000B3 R
(1784906509.972766) can0 541#000010000011193C R
(1784906509.977606) can0 12D#000000000000008B R
(1784906509.988993) can0 121#00A601CF048000D9 R
(1784906509.989506) can0 129#00000001000000D0 R
(1784906509.989636) can0 12D#00000000000000BE R
(1784906509.989759) can0 12E#000000000000C044 R
(1784906509.989889) can0 12A#10050000000A00B6 R
(1784906509.990008) can0 5A0#0000000004000051 R
(1784906509.990136) can0 120#00000000000000D4 R
(1784906509.993909) can0 541#0000100000111956 R
(1784906510.000211) can0 12D#00000000000000D4 R
(1784906510.009077) can0 121#00A601CF04800038 R
(1784906510.009462) can0 129#0000000100000031 R
(1784906510.013485) can0 12D#0000000000000035 R
(1784906510.013985) can0 12E#000000000000C071 R
(1784906510.018688) can0 12D#000000000000005F R
(1784906510.027391) can0 121#00A601CF04800052 R
(1784906510.027775) can0 129#000000010000005B R
(1784906510.040700) can0 12D#000000000000008B R
(1784906510.041088) can0 12A#10050000000A00DC R
(1784906510.048156) can0 12D#00000000000000BE R
(1784906510.050872) can0 541#00001000001119B7 R
(1784906510.066955) can0 450#0000000000002800 R
(1784906510.071348) can0 541#00001000001119DD R
(1784906510.087335) can0 121#00A601CF048000B3 R
(1784906510.090007) can0 129#00000001000000BA R
(1784906510.090135) can0 12D#000000000000006A R
(1784906510.090366) can0 12E#000000000000C02E R
(1784906510.090507) can0 12A#10050000000A003D R
(1784906510.090592) can0 5A0#0000000004000064 R
(1784906510.090699) can0 120#00000000000000BE R
(1784906510.094122) can0 541#000010000011193C R
(1784906510.097301) can0 12D#000000000000008B R
(1784906510.109726) can0 121#00A601CF048000D9 R
(1784906510.110249) can0 129#00000001000000D0 R
(1784906510.110352) can0 12D#00000000000000BE R
(1784906510.117319) can0 450#0000000000002800 R
(1784906510.117738) can0 12D#00000000000000D4 R
(1784906510.127008) can0 121#00A601CF04800038 R
(1784906510.127405) can0 129#0000000100000031 R
(1784906510.137342) can0 12D#000000000000005F R
(1784906510.141214) can0 12A#10050000000A0057 R
(1784906510.147317) can0 121#00A601CF04800052 R
(1784906510.147641) can0 129#000000010000005B R
(1784906510.151815) can0 541#0000100000111A8D R
(1784906510.166585) can0 450#0000000000002800 R
(1784906510.167122) can0 121#00A601CF04800067 R
(1784906510.178821) can0 12D#00000000000000D4 R
(1784906510.186992) can0 121#00A601CF04800086 R
(1784906510.187482) can0 129#000000010000008F R
(1784906510.187572) can0 12D#0000000000000035 R
(1784906510.187743) can0 12E#000000000000C0CF R
(1784906510.187905) can0 12A#10050000000A0062 R
(1784906510.188172) can0 5A0#0000000004000085 R
(1784906510.188548) can0 120#000000000000008B R
(1784906510.190995) can0 541#0000100000111AD2 R
(1784906510.198097) can0 12D#000000000000005F R
(1784906510.207495) can0 121#00A601CF048000B3 R
(1784906510.207896) can0 129#00000001000000BA R
(1784906510.208001) can0 12D#000000000000006A R
(1784906510.208203) can0 12E#000000000000C02E R
(1784906510.208827) can0 120#00000000000000BE R
(1784906510.212753) can0 541#0000100000111A33 R
(1784906510.218767) can0 450#0000000000002800 R
(1784906510.219174) can0 12D#000000000000008B R
(1784906510.227010) can0 121#00A601CF048000D9 R
(1784906510.227448) can0 129#00000001000000D0 R
(1784906510.227595) can0 12D#00000000000000BE R
(1784906510.228659) can0 120#00000000000000D4 R
(1784906510.238510) can0 12D#00000000000000D4 R
(1784906510.249589) can0 121#00A601CF04800038 R
(1784906510.266803) can0 450#0000000000002800 R
(1784906510.268637) can0 120#000000000000005F R
(1784906510.277282) can0 12D#000000000000008B R
(1784906510.287005) can0 121#00A601CF04800067 R
(1784906510.297271) can0 12D#00000000000000D4 R
(1784906510.307830) can0 121#00A601CF04800086 R
(1784906510.311723) can0 129#000000010000008F R
(1784906510.312083) can0 12D#0000000000000035 R
(1784906510.312173) can0 12E#000000000000C0CF R
(1784906510.312277) can0 120#000000000000008B R
(1784906510.319012) can0 450#0000000000002800 R
(1784906510.328516) can0 121#00A601CF048000B3 R
(1784906510.331090) can0 12E#000000000000C02E R
(1784906510.347005) can0 121#00A601CF048000D9 R
(1784906510.351392) can0 541#0000100000111A59 R
(1784906510.366992) can0 450#0000000000002800 R
(1784906510.371179) can0 541#0000100000111A6C R
(1784906510.380435) can0 12D#000000000000005F R
(1784906510.387170) can0 121#00A601CF04800052 R
(1784906510.387654) can0 129#000000010000005B R
(1784906510.387780) can0 12D#000000000000006A R
(1784906510.387863) can0 12E#000000000000C090 R
(1784906510.387970) can0 12A#10050000000A003D R
(1784906510.391269) can0 5A0#00000000040000DA R
(1784906510.398028) can0 12D#000000000000008B R
(1784906510.407940) can0 121#00A601CF04800067 R
(1784906510.408404) can0 129#000000010000006E R
(1784906510.408501) can0 12D#00000000000000BE R
(1784906510.408707) can0 12E#000000000000C0A5 R
(1784906510.408817) can0 120#000000000000006A R
(1784906510.411345) can0 541#0000100000111AB8 R
(1784906510.416518) can0 450#0000000000002800 R
(1784906510.419786) can0 12D#00000000000000D4 R
(1784906510.427112) can0 12D#0000000000000035 R
(1784906510.427502) can0 121#00A601CF04800086 R
(1784906510.427721) can0 129#000000010000008F R
(1784906510.427942) can0 12E#000000000000C0CF R
(1784906510.428849) can0 120#000000000000008B R
(1784906510.437229) can0 12D#000000000000005F R
(1784906510.437636) can0 12A#10050000000A0057 R
(1784906510.447038) can0 121#00A601CF048000B3 R
(1784906510.458935) can0 12D#000000000000008B R
(1784906510.468374) can0 450#0000000000002800 R
(1784906510.468722) can0 121#00A601CF048000D9 R
(1784906510.469044) can0 12D#00000000000000BE R
(1784906510.489688) can0 121#00A601CF04800038 R
(1784906510.490093) can0 129#0000000100000031 R
(1784906510.490202) can0 12D#0000000000000035 R
(1784906510.490420) can0 12E#000000000000C071 R
(1784906510.490562) can0 12A#10050000000A0062 R
(1784906510.490675) can0 5A0#000000000400003B R
(1784906510.490842) can0 120#0000000000000035 R
(1784906510.497263) can0 12D#000000000000005F R
(1784906510.507114) can0 121#00A601CF04800052 R
(1784906510.507646) can0 129#000000010000005B R
(1784906510.507752) can0 12D#000000000000006A R
(1784906510.507853) can0 12E#000000000000C090 R
(1784906510.508685) can0 120#000000000000005F R
(1784906510.512670) can0 541#0000100000111A8D R
(1784906510.516560) can0 450#0000000000002800 R
(1784906510.517193) can0 12D#000000000000008B R
(1784906510.527062) can0 121#00A601CF04800067 R
(1784906510.528067) can0 129#000000010000006E R
(1784906510.528307) can0 12D#00000000000000BE R
(1784906510.528400) can0 12E#000000000000C0A5 R
(1784906510.528651) can0 120#000000000000006A R
(1784906510.530896) can0 541#0000100000111AB8 R
(1784906510.537278) can0 12D#00000000000000D4 R
(1784906510.537744) can0 12A#10050000000A0083 R
(1784906510.547045) can0 121#00A601CF04800086 R
(1784906510.547450) can0 129#000000010000008F R
(1784906510.547587) can0 12D#0000000000000035 R
(1784906510.547804) can0 12E#000000000000C0CF R
(1784906510.547960) can0 540#000040110000EC00 R
(1784906510.551916) can0 5B0#100000000000005E R
(1784906510.552309) can0 120#000000000000008B R
(1784906510.552530) can0 541#0000100000111AD2 R
