(1782313743.595554) can0 12D#0000000000000000 R
(1782313743.595958) can0 12D#0000000000000000 R
(1782313743.596160) can0 12D#0000000000000000 R
(1782313743.596288) can0 12D#0000000000000000 R
(1782313743.596408) can0 12D#0000000000000000 R
(1782313743.596530) can0 12D#0000000000000000 R
(1782313743.597068) can0 12D#0000000000000000 R
(1782313743.597215) can0 12D#0000000000000000 R
(1782313743.597349) can0 12D#0000000000000000 R
(1782313743.597471) can0 12D#0000000000000000 R
(1782313743.597589) can0 12D#0000000000000000 R
(1782313743.597721) can0 12D#0000000000000000 R
(1782313743.598485) can0 12D#0000000000000000 R
(1782313743.598610) can0 12D#0000000000000000 R
(1782313743.598729) can0 12D#0000000000000000 R
(1782313743.598847) can0 12D#0000000000000000 R
(1782313743.598965) can0 12D#0000000000000000 R
(1782313743.600050) can0 12D#0000000000000000 R
(1782313743.600198) can0 12D#0000000000000000 R
(1782313743.600317) can0 12D#0000000000000000 R
(1782313743.600436) can0 12D#0000000000000000 R
(1782313743.600554) can0 12D#0000000000000035 R
(1782313743.600672) can0 12D#0000000000000035 R
(1782313743.601740) can0 12D#0000000000000035 R
(1782313743.601868) can0 12D#0000000000000035 R
(1782313743.601987) can0 12D#0000000000000035 R
(1782313743.602105) can0 12D#0000000000000035 R
(1782313743.602221) can0 12D#0000000000000035 R
(1782313743.602339) can0 12D#0000000000000035 R
(1782313743.603468) can0 12D#0000000000000035 R
(1782313743.603617) can0 12D#0000000000000035 R
(1782313743.603757) can0 12D#0000000000000035 R
(1782313743.603897) can0 12D#0000000000000035 R
(1782313743.604044) can0 12D#0000000000000035 R
(1782313743.604182) can0 12D#0000000000000035 R
(1782313743.605035) can0 12D#0000000000000035 R
(1782313743.605184) can0 12D#0000000000000035 R
(1782313743.605324) can0 12D#0000000000000035 R
(1782313743.605463) can0 12D#0000000000000035 R
(1782313743.605602) can0 12D#0000000000000035 R
(1782313743.605739) can0 12D#0000000000000035 R
(1782313743.606732) can0 12D#0000000000000035 R
(1782313743.606873) can0 12D#0000000000000035 R
(1782313743.607012) can0 12D#0000000000000035 R
(1782313743.607151) can0 12D#0000000000000035 R
(1782313743.607300) can0 12D#0000000000000035 R
(1782313743.607552) can0 12D#0000000000000035 R
(1782313743.612441) can0 12D#0000000000000035 R
(1782313743.621139) can0 12D#0000000000000035 R
(1782313743.621266) can0 12D#0000000000000035 R
(1782313743.621363) can0 12D#0000000000000035 R
(1782313743.621451) can0 12D#0000000000000035 R
(1782313743.621540) can0 12D#0000000000000035 R
(1782313743.621632) can0 12D#0000000000000035 R
(1782313743.621748) can0 12D#0000000000000035 R
(1782313743.621868) can0 12D#0000000000000035 R
(1782313743.622017) can0 12D#0000000000000035 R
(1782313743.622126) can0 12D#0000000000000035 R
(1782313743.622222) can0 12D#000000000000005F R
(1782313743.622312) can0 12D#000000000000005F R
(1782313743.622397) can0 12D#000000000000005F R
(1782313743.622482) can0 12D#000000000000005F R
(1782313743.622573) can0 12D#000000000000005F R
(1782313743.622658) can0 12D#000000000000005F R
(1782313743.622745) can0 12D#000000000000005F R
(1782313743.622834) can0 12D#000000000000005F R
(1782313743.622919) can0 12D#000000000000005F R
(1782313743.623004) can0 12D#000000000000005F R
(1782313743.623088) can0 12D#000000000000005F R
(1782313743.623176) can0 12D#000000000000005F R
(1782313743.623954) can0 12D#000000000000005F R
(1782313743.624048) can0 12E#0000000000000000 R
(1782313743.624134) can0 12D#000000000000006A R
(1782313743.624219) can0 12E#0000000000000035 R
(1782313743.624304) can0 121#0000000004840010 R
(1782313743.624388) can0 129#0000000100000004 R
(1782313743.639514) can0 540#0000000000000000 R
(1782313743.639606) can0 5B0#0000000000000000 R
(1782313743.639690) can0 120#0000000000000000 R
(1782313743.639774) can0 12D#000000000000008B R
(1782313743.639858) can0 12A#10010000000A001D R
(1782313743.659395) can0 12D#00000000000000BE R
(1782313743.659496) can0 12E#000000000000005F R
(1782313743.659581) can0 121#0000000004840025 R
(1782313743.659664) can0 129#0000000100000031 R
(1782313743.659748) can0 120#0000000000000035 R
(1782313743.659831) can0 12D#00000000000000D4 R
(1782313743.679662) can0 12D#0000000000000035 R
(1782313743.679768) can0 12E#000000000000006A R
(1782313743.679867) can0 121#00AC01D604800053 R
(1782313743.679967) can0 129#000000010000005B R
(1782313743.680067) can0 120#000000000000005F R
(1782313743.680166) can0 12D#000000000000005F R
(1782313743.684893) can0 12D#000000000000006A R
(1782313743.685014) can0 12E#000000000000008B R
(1782313743.685114) can0 12A#10010000000A0028 R
(1782313743.685213) can0 5A0#0000000000000000 R
(1782313743.685315) can0 121#00AC01D604800066 R
(1782313743.685415) can0 129#000000010000006E R
(1782313743.704956) can0 120#000000000000006A R
(1782313743.705170) can0 12D#000000000000008B R
(1782313743.705318) can0 12D#00000000000000BE R
(1782313743.705465) can0 12E#00000000000000BE R
(1782313743.705609) can0 121#00AC01D604800087 R
(1782313743.705753) can0 129#000000010000008F R
(1782313743.723852) can0 120#000000000000008B R
(1782313743.724118) can0 12D#00000000000000D4 R
(1782313743.724362) can0 12D#0000000000000035 R
(1782313743.724602) can0 12E#00000000000000D4 R
(1782313743.724848) can0 121#00AC01D6048000B2 R
(1782313743.725091) can0 129#00000001000000BA R
(1782313743.739711) can0 540#0000000100010F00 R
(1782313743.739988) can0 5B0#0000000000000035 R
(1782313743.740239) can0 120#00000000000000BE R
(1782313743.740486) can0 12D#000000000000005F R
(1782313743.740930) can0 12A#10010000000A0042 R
(1782313743.759519) can0 12D#000000000000006A R
(1782313743.759660) can0 12E#0000000000000035 R
(1782313743.759770) can0 121#00AC01D6048000D8 R
(1782313743.759879) can0 129#00000001000000D0 R
(1782313743.759987) can0 120#00000000000000D4 R
(1782313743.760095) can0 12D#000000000000008B R
(1782313743.779685) can0 12D#00000000000000BE R
(1782313743.779889) can0 12E#000000000000005F R
(1782313743.780068) can0 121#00AC01D604800039 R
(1782313743.780245) can0 129#0000000100000031 R
(1782313743.780422) can0 120#0000000000000035 R
(1782313743.780598) can0 12D#00000000000000D4 R
(1782313743.784994) can0 12D#0000000000000035 R
(1782313743.785274) can0 12E#000000000000006A R
(1782313743.785525) can0 12A#10010000000A0077 R
(1782313743.785771) can0 5A0#0000000000000035 R
(1782313743.786017) can0 121#00AC01D604800053 R
(1782313743.786262) can0 129#000000010000005B R
(1782313743.804936) can0 120#000000000000005F R
(1782313743.805198) can0 12D#000000000000005F R
(1782313743.805446) can0 12D#000000000000006A R
(1782313743.805693) can0 12E#000000000000008B R
(1782313743.805938) can0 121#00AC01D604800066 R
(1782313743.806184) can0 129#000000010000006E R
(1782313743.823621) can0 120#000000000000006A R
(1782313743.823877) can0 12D#000000000000008B R
(1782313743.824122) can0 12D#00000000000000BE R
(1782313743.824365) can0 12E#00000000000000BE R
(1782313743.824608) can0 121#00AC01D604800087 R
(1782313743.829965) can0 129#000000010000008F R
(1782313743.830276) can0 540#0000000100010F00 R
(1782313743.830528) can0 5B0#100000000000005E R
(1782313743.830771) can0 120#000000000000008B R
(1782313743.831020) can0 541#000110000001BA17 R
(1782313743.831261) can0 12D#00000000000000D4 R
(1782313743.846462) can0 12A#10010000000A0096 R
(1782313743.846745) can0 12D#0000000000000035 R
(1782313743.846995) can0 12E#00000000000000D4 R
(1782313743.847244) can0 121#00AC01D6048000B2 R
(1782313743.847491) can0 129#00000001000000BA R
(1782313743.847745) can0 120#00000000000000BE R
(1782313743.868824) can0 541#000110000001BA22 R
(1782313743.868974) can0 12D#000000000000005F R
(1782313743.869061) can0 450#0000000000002800 R
(1782313743.869140) can0 12D#000000000000006A R
(1782313743.869224) can0 12E#0000000000000035 R
(1782313743.869305) can0 121#00A601CF048000D9 R
(1782313743.880171) can0 129#00000001000000D0 R
(1782313743.880257) can0 120#00000000000000D4 R
(1782313743.880335) can0 541#000110000001BA48 R
(1782313743.880410) can0 12D#000000000000008B R
(1782313743.880485) can0 12D#00000000000000BE R
(1782313743.880560) can0 12E#000000000000005F R
(1782313743.889789) can0 12A#10010000000A00A3 R
(1782313743.889869) can0 5A0#000000000000005F R
(1782313743.889955) can0 121#00A601CF04800038 R
(1782313743.890030) can0 129#0000000100000031 R
(1782313743.890104) can0 120#0000000000000035 R
(1782313743.890179) can0 541#000110000001BA7D R
(1782313743.903493) can0 12D#00000000000000D4 R
(1782313743.903584) can0 12D#0000000000000035 R
(1782313743.903670) can0 12E#000000000000006A R
(1782313743.903755) can0 450#0000000000002800 R
(1782313743.903841) can0 121#00A601CF04800052 R
(1782313743.923216) can0 129#000000010000005B R
(1782313743.923313) can0 120#000000000000005F R
(1782313743.923402) can0 541#000110000001BA9C R
(1782313743.923488) can0 12D#000000000000005F R
(1782313743.923575) can0 12D#000000000000006A R
(1782313743.923661) can0 12E#000000000000008B R
(1782313743.929742) can0 121#00A601CF04800067 R
(1782313743.929848) can0 129#000000010000006E R
(1782313743.929935) can0 540#0000001100010F00 R
(1782313743.930022) can0 5B0#100000000000006B R
(1782313743.930108) can0 120#000000000000006A R
(1782313743.930195) can0 541#000110000001BAA9 R
(1782313743.944825) can0 12D#000000000000008B R
(1782313743.944940) can0 12A#10010000000A00C9 R
(1782313743.945047) can0 12D#00000000000000BE R
(1782313743.945150) can0 12E#00000000000000BE R
(1782313743.945253) can0 121#00A601CF04800086 R
(1782313743.945356) can0 129#000000010000008F R
(1782313743.963249) can0 120#000000000000008B R
(1782313743.963424) can0 541#000110000001BAC3 R
(1782313743.963538) can0 12D#00000000000000D4 R
(1782313743.963647) can0 450#0000000000002800 R
(1782313743.963755) can0 12D#0000000000000035 R
(1782313743.963862) can0 12E#00000000000000D4 R
(1782313743.980117) can0 121#00A601CF048000B3 R
(1782313743.980315) can0 129#00000001000000BA R
(1782313743.980494) can0 120#00000000000000BE R
(1782313743.980672) can0 541#000110000001BA22 R
(1782313743.980850) can0 12D#000000000000005F R
(1782313743.984798) can0 12D#000000000000006A R
(1782313743.985069) can0 12E#0000000000000035 R
(1782313743.985315) can0 12A#10010000000A0028 R
(1782313743.985559) can0 5A0#000000000000006A R
(1782313743.985802) can0 121#00A601CF048000D9 R
(1782313743.986045) can0 129#00000001000000D0 R
(1782313744.003160) can0 120#00000000000000D4 R
(1782313744.003432) can0 541#000110000001BA48 R
(1782313744.003682) can0 12D#000000000000008B R
(1782313744.003929) can0 12D#00000000000000BE R
(1782313744.004175) can0 12E#000000000000005F R
(1782313744.004422) can0 450#0000000000002800 R
(1782313744.020297) can0 121#00A601CF04800038 R
(1782313744.020613) can0 129#0000000100000031 R
(1782313744.020867) can0 120#0000000000000035 R
(1782313744.021115) can0 541#000110000001BA7D R
(1782313744.021360) can0 12D#00000000000000D4 R
(1782313744.021604) can0 12D#0000000000000035 R
(1782313744.026526) can0 12E#000000000000006A R
(1782313744.026776) can0 121#00A601CF04800052 R
(1782313744.027019) can0 129#000000010000005B R
(1782313744.027266) can0 540#0000401100010F00 R
(1782313744.027415) can0 5B0#100000000000008A R
(1782313744.027533) can0 120#000000000000005F R
(1782313744.043599) can0 541#000110000001BA9C R
(1782313744.043866) can0 12D#000000000000005F R
(1782313744.044079) can0 12A#10010000000A0042 R
(1782313744.044180) can0 12D#000000000000006A R
(1782313744.044277) can0 12E#000000000000008B R
(1782313744.044374) can0 121#00A601CF04800067 R
(1782313744.060134) can0 129#000000010000006E R
(1782313744.060401) can0 120#000000000000006A R
(1782313744.060655) can0 541#000110000001BAA9 R
(1782313744.060785) can0 12D#000000000000008B R
(1782313744.060882) can0 450#0000000000002800 R
(1782313744.069974) can0 12D#00000000000000BE R
(1782313744.070087) can0 12E#00000000000000BE R
(1782313744.070186) can0 121#00A601CF04800086 R
(1782313744.070282) can0 129#000000010000008F R
(1782313744.070384) can0 120#000000000000008B R
(1782313744.070480) can0 541#000110000001BAC3 R
(1782313744.083483) can0 12D#00000000000000D4 R
(1782313744.083740) can0 12D#0000000000000035 R
(1782313744.083985) can0 12E#00000000000000D4 R
(1782313744.084228) can0 12A#10010000000A0077 R
(1782313744.084471) can0 5A0#000000000000008B R
(1782313744.084713) can0 121#00A601CF048000B3 R
(1782313744.101144) can0 129#00000001000000BA R
(1782313744.101403) can0 120#00000000000000BE R
(1782313744.101649) can0 541#000110000001BA22 R
(1782313744.101892) can0 12D#000000000000005F R
(1782313744.102135) can0 12D#000000000000006A R
(1782313744.102377) can0 12E#0000000000000035 R
(1782313744.122610) can0 450#0000000000002800 R
(1782313744.122764) can0 121#00A601CF048000D9 R
(1782313744.122878) can0 129#00000001000000D0 R
(1782313744.122982) can0 120#00000000000000D4 R
(1782313744.123068) can0 541#000110000001BA48 R
(1782313744.123156) can0 12D#000000000000008B R
(1782313744.124266) can0 12D#00000000000000BE R
(1782313744.124415) can0 12E#000000000000005F R
(1782313744.124506) can0 121#00A601CF04800038 R
(1782313744.124595) can0 129#0000000100000031 R
(1782313744.124684) can0 540#0000401100010F00 R
(1782313744.140097) can0 5B0#10000000000000BF R
(1782313744.140248) can0 120#0000000000000035 R
(1782313744.140351) can0 541#000110000001BA7D R
(1782313744.140452) can0 12D#00000000000000D4 R
(1782313744.140552) can0 12A#10010000000A0096 R
(1782313744.141952) can0 12D#0000000000000035 R
(1782313744.151148) can0 12E#000000000000006A R
(1782313744.151284) can0 121#00A601CF04800052 R
(1782313744.151388) can0 129#000000010000005B R
(1782313744.151490) can0 120#000000000000005F R
(1782313744.151592) can0 541#000110000001BA9C R
(1782313744.151694) can0 12D#000000000000005F R
(1782313744.166452) can0 450#0000000000002800 R
(1782313744.166560) can0 12D#000000000000006A R
(1782313744.166646) can0 12E#000000000000008B R
(1782313744.166732) can0 121#00A601CF04800067 R
(1782313744.166816) can0 129#000000010000006E R
(1782313744.166902) can0 120#000000000000006A R
(1782313744.183365) can0 541#000110000001BAA9 R
(1782313744.183560) can0 12D#000000000000008B R
(1782313744.183661) can0 12D#00000000000000BE R
(1782313744.183760) can0 12E#00000000000000BE R
(1782313744.183859) can0 12A#10010000000A00A3 R
(1782313744.183957) can0 5A0#00000000000000BE R
(1782313744.200301) can0 121#00A601CF04800086 R
(1782313744.200512) can0 129#000000010000008F R
(1782313744.200655) can0 120#000000000000008B R
(1782313744.200805) can0 541#000110000001BAC3 R
(1782313744.200942) can0 12D#00000000000000D4 R
(1782313744.201080) can0 12D#0000000000000035 R
(1782313744.209711) can0 12E#00000000000000D4 R
(1782313744.210004) can0 450#0000000000002800 R
(1782313744.210256) can0 121#00A601CF048000B3 R
(1782313744.210503) can0 129#00000001000000BA R
(1782313744.210749) can0 120#00000000000000BE R
(1782313744.223719) can0 541#000110000001BA22 R
(1782313744.224021) can0 12D#000000000000005F R
(1782313744.224274) can0 12D#000000000000006A R
(1782313744.224524) can0 12E#0000000000000035 R
(1782313744.224774) can0 121#00A601CF048000D9 R
(1782313744.225021) can0 129#00000001000000D0 R
(1782313744.240034) can0 540#0000401100010F00 R
(1782313744.240318) can0 5B0#10000000000000D5 R
(1782313744.240563) can0 120#00000000000000D4 R
(1782313744.243937) can0 541#000110000001BA48 R
(1782313744.244055) can0 12D#000000000000008B R
(1782313744.244157) can0 12A#10010000000A00C9 R
(1782313744.250176) can0 12D#00000000000000BE R
(1782313744.250314) can0 12E#000000000000005F R
(1782313744.250407) can0 121#00A601CF04800038 R
(1782313744.250496) can0 129#0000000100000031 R
(1782313744.250583) can0 120#0000000000000035 R
(1782313744.250669) can0 541#000110000001BA7D R
(1782313744.264939) can0 12D#00000000000000D4 R
(1782313744.265050) can0 450#0000000000002800 R
(1782313744.265153) can0 12D#0000000000000035 R
(1782313744.265253) can0 12E#000000000000006A R
(1782313744.265354) can0 121#00A601CF04800052 R
(1782313744.265455) can0 129#000000010000005B R
(1782313744.280636) can0 120#000000000000005F R
(1782313744.280817) can0 541#000110000001BA9C R
(1782313744.280936) can0 12D#000000000000005F R
(1782313744.281054) can0 12D#000000000000006A R
(1782313744.281171) can0 12E#000000000000008B R
(1782313744.290077) can0 12A#10010000000A0028 R
(1782313744.290328) can0 5A0#00000000000000D4 R
(1782313744.290516) can0 121#00A601CF04800067 R
(1782313744.290699) can0 129#000000010000006E R
(1782313744.290880) can0 120#000000000000006A R
(1782313744.291127) can0 541#000110000001BAA9 R
(1782313744.304967) can0 12D#000000000000008B R
(1782313744.305255) can0 12D#00000000000000BE R
(1782313744.305509) can0 12E#00000000000000BE R
(1782313744.305758) can0 450#0000000000002800 R
(1782313744.306008) can0 121#00A601CF04800086 R
(1782313744.306262) can0 129#000000010000008F R
(1782313744.323550) can0 120#000000000000008B R
(1782313744.323846) can0 541#000110000001BAC3 R
(1782313744.324098) can0 12D#00000000000000D4 R
(1782313744.324346) can0 12D#0000000000000035 R
(1782313744.324593) can0 12E#00000000000000D4 R
(1782313744.324839) can0 121#00A601CF048000B3 R
(1782313744.330405) can0 129#00000001000000BA R
(1782313744.330688) can0 540#0000401100010F00 R
(1782313744.330947) can0 5B0#1000000000000034 R
(1782313744.331187) can0 120#00000000000000BE R
(1782313744.331428) can0 541#000110000001BA22 R
(1782313744.331667) can0 12D#000000000000005F R
(1782313744.346490) can0 12A#10010000000A0042 R
(1782313744.346602) can0 12D#000000000000006A R
(1782313744.346707) can0 12E#0000000000000035 R
(1782313744.346813) can0 121#00A601CF048000D9 R
(1782313744.346918) can0 129#00000001000000D0 R
(1782313744.347025) can0 120#00000000000000D4 R
(1782313744.369326) can0 541#000110000001BA48 R
(1782313744.369449) can0 12D#000000000000008B R
(1782313744.369543) can0 450#0000000000002800 R
(1782313744.369630) can0 12D#00000000000000BE R
(1782313744.369716) can0 12E#000000000000005F R
(1782313744.380192) can0 121#00A601CF04800038 R
(1782313744.380288) can0 129#0000000100000031 R
(1782313744.380393) can0 120#0000000000000035 R
(1782313744.380479) can0 541#000110000001BA7D R
(1782313744.380566) can0 12D#00000000000000D4 R
(1782313744.380650) can0 12D#0000000000000035 R
(1782313744.386425) can0 12E#000000000000006A R
(1782313744.386534) can0 12A#10010000000A0077 R
(1782313744.386619) can0 5A0#0000000000000035 R
(1782313744.386704) can0 121#00A601CF04800052 R
(1782313744.386789) can0 129#000000010000005B R
(1782313744.386873) can0 120#000000000000005F R
(1782313744.403492) can0 541#000110000001BA9C R
(1782313744.403620) can0 12D#000000000000005F R
(1782313744.403720) can0 12D#000000000000006A R
(1782313744.403821) can0 12E#000000000000008B R
(1782313744.403919) can0 450#0000000000002800 R
(1782313744.404018) can0 121#00A601CF04800067 R
(1782313744.423240) can0 129#000000010000006E R
(1782313744.423431) can0 120#000000000000006A R
(1782313744.423535) can0 541#000110000001BAA9 R
(1782313744.423646) can0 12D#000000000000008B R
(1782313744.423783) can0 12D#00000000000000BE R
(1782313744.423893) can0 12E#00000000000000BE R
(1782313744.426505) can0 121#00A601CF04800086 R
(1782313744.426615) can0 129#000000010000008F R
(1782313744.426722) can0 540#0000401100010F00 R
(1782313744.426829) can0 5B0#100000000000005E R
(1782313744.426937) can0 120#000000000000008B R
(1782313744.443405) can0 541#000110000001BAC3 R
(1782313744.443680) can0 12D#00000000000000D4 R
(1782313744.443925) can0 12A#10010000000A0096 R
(1782313744.444168) can0 12D#0000000000000035 R
(1782313744.444411) can0 12E#00000000000000D4 R
(1782313744.444653) can0 121#00A601CF048000B3 R
(1782313744.460165) can0 129#00000001000000BA R
(1782313744.460422) can0 120#00000000000000BE R
(1782313744.460668) can0 541#000110000001BA22 R
(1782313744.460911) can0 12D#000000000000005F R
(1782313744.461152) can0 450#0000000000002800 R
(1782313744.461394) can0 12D#000000000000006A R
(1782313744.480053) can0 12E#0000000000000035 R
(1782313744.480306) can0 121#00A601CF048000D9 R
(1782313744.480547) can0 129#00000001000000D0 R
(1782313744.480790) can0 120#00000000000000D4 R
(1782313744.481033) can0 541#000010000001BA40 R
(1782313744.481278) can0 12D#000000000000008B R
(1782313744.485066) can0 12D#00000000000000BE R
(1782313744.485312) can0 12E#000000000000005F R
(1782313744.485556) can0 12A#10010000000A00A3 R
(1782313744.485797) can0 5A0#000000000000005F R
(1782313744.486039) can0 121#00A601CF04800038 R
(1782313744.486279) can0 129#0000000100000031 R
(1782313744.503572) can0 120#0000000000000035 R
(1782313744.503827) can0 541#000010000001BA75 R
(1782313744.504070) can0 12D#00000000000000D4 R
(1782313744.504313) can0 12D#0000000000000035 R
(1782313744.504554) can0 12E#000000000000006A R
(1782313744.504798) can0 450#0000000000002800 R
(1782313744.520051) can0 121#00A601CF04800052 R
(1782313744.520304) can0 129#000000010000005B R
(1782313744.520548) can0 120#000000000000005F R
(1782313744.520790) can0 541#000010000001BA94 R
(1782313744.521037) can0 12D#000000000000005F R
(1782313744.524899) can0 12D#000000000000006A R
(1782313744.525154) can0 12E#000000000000008B R
(1782313744.525396) can0 121#00A601CF04800067 R
(1782313744.525637) can0 129#000000010000006E R
(1782313744.525879) can0 540#0000401100010F00 R
(1782313744.526119) can0 5B0#100000000000006B R
(1782313744.543199) can0 120#000000000000006A R
(1782313744.543454) can0 541#000010000001BAA1 R
(1782313744.543696) can0 12D#000000000000008B R
(1782313744.543938) can0 12A#10010000000A00C9 R
(1782313744.544180) can0 12D#00000000000000BE R
(1782313744.544424) can0 12E#00000000000000BE R
(1782313744.559945) can0 121#00A601CF04800086 R
(1782313744.560191) can0 129#000000010000008F R
(1782313744.560432) can0 120#000000000000008B R
(1782313744.560676) can0 541#000010000001BACB R
(1782313744.560916) can0 12D#00000000000000D4 R
(1782313744.561157) can0 450#0000000000002800 R
(1782313744.570104) can0 12D#0000000000000035 R
(1782313744.570346) can0 12E#00000000000000D4 R
(1782313744.570587) can0 121#00A601CF048000B3 R
(1782313744.570827) can0 129#00000001000000BA R
(1782313744.571068) can0 120#00000000000000BE R
(1782313744.571310) can0 541#000010000001BA2A R
(1782313744.583367) can0 12D#000000000000005F R
(1782313744.583624) can0 12D#000000000000006A R
(1782313744.583868) can0 12E#0000000000000035 R
(1782313744.584112) can0 12A#10010000000A0028 R
(1782313744.584355) can0 5A0#000000000000006A R
(1782313744.600070) can0 121#00A601CF048000D9 R
(1782313744.600330) can0 129#00000001000000D0 R
(1782313744.600573) can0 120#00000000000000D4 R
(1782313744.600817) can0 541#000010000001BA40 R
(1782313744.601058) can0 12D#000000000000008B R
(1782313744.601299) can0 12D#00000000000000BE R
(1782313744.610182) can0 12E#000000000000C044 R
(1782313744.620939) can0 450#0000000000002800 R
(1782313744.621090) can0 121#00A601CF04800038 R
(1782313744.621196) can0 129#0000000100000031 R
(1782313744.621288) can0 120#0000000000000035 R
(1782313744.621375) can0 541#000010000001BA75 R
(1782313744.623927) can0 12D#00000000000000D4 R
(1782313744.624043) can0 12D#0000000000000035 R
(1782313744.624128) can0 12E#000000000000C071 R
(1782313744.624214) can0 121#00A601CF04800052 R
(1782313744.624298) can0 129#000000010000005B R
(1782313744.624382) can0 540#0000401100010F00 R
(1782313744.640149) can0 5B0#100000000000008A R
(1782313744.640257) can0 120#000000000000005F R
(1782313744.640358) can0 541#000010000001BB82 R
(1782313744.640459) can0 12D#000000000000005F R
(1782313744.640562) can0 12A#10010000000A0042 R
(1782313744.642419) can0 12D#000000000000006A R
(1782313744.651210) can0 12E#000000000000C090 R
(1782313744.651323) can0 121#00A601CF04800067 R
(1782313744.651432) can0 129#000000010000006E R
(1782313744.651535) can0 120#000000000000006A R
(1782313744.651637) can0 541#000010000001BBB7 R
(1782313744.651740) can0 12D#000000000000008B R
(1782313744.664968) can0 450#0000000000002800 R
(1782313744.665082) can0 12D#00000000000000BE R
(1782313744.665203) can0 12E#000000000000C0A5 R
(1782313744.665310) can0 121#00A601CF04800086 R
(1782313744.665416) can0 129#000000010000008F R
(1782313744.680718) can0 120#000000000000008B R
(1782313744.680866) can0 541#000010000001BBDD R
(1782313744.680973) can0 12D#00000000000000D4 R
(1782313744.681076) can0 12D#0000000000000035 R
(1782313744.681175) can0 12E#000000000000C0CF R
(1782313744.681273) can0 12A#10010000000A0077 R
(1782313744.699891) can0 5A0#0000000004000085 R
(1782313744.700103) can0 121#00A601CF048000B3 R
(1782313744.700290) can0 129#00000001000000BA R
(1782313744.700471) can0 120#00000000000000BE R
(1782313744.700652) can0 541#000010000001BB3C R
(1782313744.700830) can0 12D#000000000000005F R
(1782313744.710020) can0 12D#000000000000006A R
(1782313744.710324) can0 12E#000000000000C02E R
(1782313744.710582) can0 450#0000000000002800 R
(1782313744.710739) can0 121#00A601CF048000D9 R
(1782313744.710839) can0 129#00000001000000D0 R
(1782313744.710952) can0 120#00000000000000D4 R
(1782313744.723816) can0 541#000010000001BB56 R
(1782313744.723975) can0 12D#000000000000008B R
(1782313744.724088) can0 12D#00000000000000BE R
(1782313744.724193) can0 12E#000000000000C044 R
(1782313744.724301) can0 121#00A601CF04800038 R
(1782313744.724404) can0 129#0000000100000031 R
(1782313744.730328) can0 540#0000401100010F00 R
(1782313744.730439) can0 5B0#10000000000000BF R
(1782313744.730543) can0 120#0000000000000035 R
(1782313744.730643) can0 541#000010000001BB63 R
(1782313744.730744) can0 12D#00000000000000D4 R
(1782313744.748412) can0 12A#10010000000A0096 R
(1782313744.748564) can0 12D#0000000000000035 R
(1782313744.748675) can0 12E#000000000000C071 R
(1782313744.748784) can0 121#00A601CF04800052 R
(1782313744.748892) can0 129#000000010000005B R
(1782313744.749000) can0 120#000000000000005F R
(1782313744.763381) can0 541#000010000001BB82 R
(1782313744.763577) can0 12D#000000000000005F R
(1782313744.763757) can0 450#0000000000002800 R
(1782313744.763935) can0 12D#000000000000006A R
(1782313744.764112) can0 12E#000000000000C090 R
(1782313744.764288) can0 121#00A601CF04800067 R
(1782313744.780551) can0 129#000000010000006E R
(1782313744.780752) can0 120#000000000000006A R
(1782313744.780934) can0 541#000010000001BBB7 R
(1782313744.781113) can0 12D#000000000000008B R
(1782313744.781290) can0 12D#00000000000000BE R
(1782313744.781469) can0 12E#000000000000C0A5 R
(1782313744.790119) can0 12A#10010000000A00A3 R
(1782313744.790378) can0 5A0#00000000040000B0 R
(1782313744.790622) can0 121#00A601CF04800086 R
(1782313744.790863) can0 129#000000010000008F R
(1782313744.791104) can0 120#000000000000008B R
(1782313744.791344) can0 541#000010000001BBDD R
(1782313744.805038) can0 12D#00000000000000D4 R
(1782313744.805290) can0 12D#0000000000000035 R
(1782313744.805535) can0 12E#000000000000C0CF R
(1782313744.805778) can0 450#0000000000002800 R
(1782313744.806019) can0 121#00A601CF048000B3 R
(1782313744.806261) can0 129#00000001000000BA R
(1782313744.823357) can0 120#00000000000000BE R
(1782313744.823517) can0 541#000010000001BB3C R
(1782313744.823629) can0 12D#000000000000005F R
(1782313744.823734) can0 12D#000000000000006A R
(1782313744.823837) can0 12E#000000000000C02E R
(1782313744.830055) can0 121#00A601CF048000D9 R
(1782313744.830207) can0 129#00000001000000D0 R
(1782313744.830318) can0 540#0000401100010F00 R
(1782313744.830424) can0 5B0#10000000000000D5 R
(1782313744.830532) can0 120#00000000000000D4 R
(1782313744.830638) can0 541#000010000001BB56 R
(1782313744.844891) can0 12D#000000000000008B R
(1782313744.845056) can0 12A#10010000000A00C9 R
(1782313744.845198) can0 12D#00000000000000BE R
(1782313744.845336) can0 12E#000000000000C044 R
(1782313744.845474) can0 121#00A601CF04800038 R
(1782313744.845611) can0 129#0000000100000031 R
(1782313744.863466) can0 120#0000000000000035 R
(1782313744.869692) can0 541#000010000001BB63 R
(1782313744.869771) can0 12D#00000000000000D4 R
(1782313744.869839) can0 450#0000000000002800 R
(1782313744.869904) can0 12D#0000000000000035 R
(1782313744.869968) can0 12E#000000000000C071 R
(1782313744.880237) can0 121#00A601CF04800052 R
(1782313744.880325) can0 129#000000010000005B R
(1782313744.880394) can0 120#000000000000005F R
(1782313744.880460) can0 541#000010000001BB82 R
(1782313744.880526) can0 12D#000000000000005F R
(1782313744.880591) can0 12D#000000000000006A R
(1782313744.885177) can0 12E#000000000000C090 R
(1782313744.885245) can0 12A#10010000000A0028 R
(1782313744.885312) can0 5A0#00000000040000DA R
(1782313744.885377) can0 121#00A601CF04800067 R
(1782313744.885442) can0 129#000000010000006E R
(1782313744.903157) can0 120#000000000000006A R
(1782313744.903239) can0 541#000010000001BBB7 R
(1782313744.903312) can0 12D#000000000000008B R
(1782313744.903386) can0 12D#00000000000000BE R
(1782313744.903462) can0 12E#000000000000C0A5 R
(1782313744.903536) can0 450#0000000000002800 R
(1782313744.910033) can0 121#00A601CF04800086 R
(1782313744.910123) can0 129#000000010000008F R
(1782313744.910332) can0 120#000000000000008B R
(1782313744.910397) can0 541#000010000001BBDD R
(1782313744.923983) can0 12D#00000000000000D4 R
(1782313744.924061) can0 12D#0000000000000035 R
(1782313744.924134) can0 12E#000000000000C0CF R
(1782313744.924209) can0 121#00A601CF048000B3 R
(1782313744.924284) can0 129#00000001000000BA R
(1782313744.924357) can0 540#0000401100010F00 R
(1782313744.939921) can0 5B0#1000000000000034 R
(1782313744.940008) can0 120#00000000000000BE R
(1782313744.940093) can0 541#000010000001BB3C R
(1782313744.940177) can0 12D#000000000000005F R
(1782313744.940261) can0 12A#10010000000A0042 R
(1782313744.949996) can0 12D#000000000000006A R
(1782313744.950091) can0 12E#000000000000C02E R
(1782313744.950176) can0 121#00A601CF048000D9 R
(1782313744.950260) can0 129#00000001000000D0 R
(1782313744.950344) can0 120#00000000000000D4 R
(1782313744.950429) can0 541#000010000001BB56 R
(1782313744.964909) can0 12D#000000000000008B R
(1782313744.965034) can0 450#0000000000002800 R
(1782313744.965139) can0 12D#00000000000000BE R
(1782313744.965239) can0 12E#000000000000C044 R
(1782313744.965339) can0 121#00A601CF04800038 R
(1782313744.965439) can0 129#0000000100000031 R
(1782313744.980793) can0 120#0000000000000035 R
(1782313744.980946) can0 541#000010000001BB63 R
(1782313744.981058) can0 12D#00000000000000D4 R
(1782313744.981166) can0 12D#0000000000000035 R
(1782313744.981273) can0 12E#000000000000C071 R
(1782313744.981379) can0 12A#10010000000A0077 R
(1782313744.999926) can0 5A0#000000000400003B R
(1782313745.000127) can0 121#00A601CF04800052 R
(1782313745.000308) can0 129#000000010000005B R
(1782313745.000485) can0 120#000000000000005F R
(1782313745.000662) can0 541#000010000001BB82 R
(1782313745.000838) can0 12D#000000000000005F R
(1782313745.005125) can0 12D#000000000000006A R
(1782313745.005425) can0 12E#000000000000C090 R
(1782313745.005698) can0 450#0000000000002800 R
(1782313745.006057) can0 121#00A601CF04800067 R
(1782313745.006343) can0 129#000000010000006E R
(1782313745.023426) can0 120#000000000000006A R
(1782313745.023597) can0 541#000010000001BBB7 R
(1782313745.023705) can0 12D#000000000000008B R
(1782313745.023805) can0 12D#00000000000000BE R
(1782313745.023904) can0 12E#000000000000C0A5 R
(1782313745.024002) can0 121#00A601CF04800086 R
(1782313745.030238) can0 129#000000010000008F R
(1782313745.030436) can0 540#0000401100011000 R
(1782313745.030615) can0 5B0#100000000000005E R
(1782313745.030791) can0 120#000000000000008B R
(1782313745.030968) can0 541#000010000001BBDD R
(1782313745.031146) can0 12D#00000000000000D4 R
(1782313745.048379) can0 12A#10010000000A0096 R
(1782313745.048494) can0 12D#0000000000000035 R
(1782313745.048594) can0 12E#000000000000C0CF R
(1782313745.048692) can0 121#00A601CF048000B3 R
(1782313745.048790) can0 129#00000001000000BA R
(1782313745.048888) can0 120#00000000000000BE R
(1782313745.063514) can0 541#000010000001BB3C R
(1782313745.063807) can0 12D#000000000000005F R
(1782313745.064059) can0 450#0000000000002800 R
(1782313745.064305) can0 12D#000000000000006A R
(1782313745.064548) can0 12E#000000000000C02E R
(1782313745.064790) can0 121#00A601CF048000D9 R
(1782313745.080576) can0 129#00000001000000D0 R
(1782313745.080832) can0 120#00000000000000D4 R
(1782313745.081079) can0 541#000010000001BB56 R
(1782313745.081322) can0 12D#000000000000008B R
(1782313745.081564) can0 12D#00000000000000BE R
(1782313745.081806) can0 12E#000000000000C044 R
(1782313745.088613) can0 12A#10010000000A00A3 R
(1782313745.088882) can0 5A0#0000000004000051 R
(1782313745.089131) can0 121#00A601CF04800038 R
(1782313745.089376) can0 129#0000000100000031 R
(1782313745.089618) can0 120#0000000000000035 R
(1782313745.103426) can0 541#000010000001BB63 R
(1782313745.103689) can0 12D#00000000000000D4 R
(1782313745.103936) can0 12D#0000000000000035 R
(1782313745.104181) can0 12E#000000000000C071 R
(1782313745.104426) can0 450#0000000000002800 R
(1782313745.104670) can0 121#00A601CF04800052 R
(1782313745.123205) can0 129#000000010000005B R
(1782313745.123308) can0 120#000000000000005F R
(1782313745.123368) can0 541#000010000001BB82 R
(1782313745.123423) can0 12D#000000000000005F R
(1782313745.123477) can0 12D#000000000000006A R
(1782313745.123530) can0 12E#000000000000C090 R
(1782313745.130001) can0 121#00A601CF04800067 R
(1782313745.130059) can0 129#000000010000006E R
(1782313745.130112) can0 540#0000401100011000 R
(1782313745.130165) can0 5B0#100000000000006B R
(1782313745.130217) can0 120#000000000000006A R
(1782313745.130270) can0 541#000010000001BBB7 R
(1782313745.145170) can0 12D#000000000000008B R
(1782313745.145237) can0 12A#10010000000A00C9 R
(1782313745.145297) can0 12D#00000000000000BE R
(1782313745.145356) can0 12E#000000000000C0A5 R
(1782313745.145415) can0 121#00A601CF04800086 R
(1782313745.145473) can0 129#000000010000008F R
(1782313745.160102) can0 120#000000000000008B R
(1782313745.160171) can0 541#000010000001BBDD R
(1782313745.160230) can0 12D#00000000000000D4 R
(1782313745.160289) can0 450#0000000000002800 R
(1782313745.160347) can0 12D#0000000000000035 R
(1782313745.179906) can0 12E#000000000000C0CF R
(1782313745.180011) can0 121#00A601CF048000B3 R
(1782313745.180079) can0 129#00000001000000BA R
(1782313745.180146) can0 120#00000000000000BE R
(1782313745.180212) can0 541#000010000001BB3C R
(1782313745.180277) can0 12D#000000000000005F R
(1782313745.184985) can0 12D#000000000000006A R
(1782313745.185062) can0 12E#000000000000C02E R
(1782313745.185129) can0 12A#10010000000A0028 R
(1782313745.185195) can0 5A0#0000000004000064 R
(1782313745.185261) can0 121#00A601CF048000D9 R
(1782313745.185327) can0 129#00000001000000D0 R
(1782313745.203224) can0 120#00000000000000D4 R
(1782313745.203309) can0 541#000010000001BB56 R
(1782313745.203386) can0 12D#000000000000008B R
(1782313745.203460) can0 12D#00000000000000BE R
(1782313745.203534) can0 12E#000000000000C044 R
(1782313745.203607) can0 450#0000000000002800 R
(1782313745.220095) can0 121#00A601CF04800038 R
(1782313745.220187) can0 129#0000000100000031 R
(1782313745.220266) can0 120#0000000000000035 R
(1782313745.220343) can0 541#000010000001BB63 R
(1782313745.220419) can0 12D#00000000000000D4 R
(1782313745.220495) can0 12D#0000000000000035 R
(1782313745.228485) can0 12E#000000000000C071 R
(1782313745.228586) can0 121#00A601CF04800052 R
(1782313745.228675) can0 129#000000010000005B R
(1782313745.228761) can0 540#0000401100011000 R
(1782313745.228846) can0 5B0#100000000000008A R
(1782313745.228932) can0 120#000000000000005F R
(1782313745.243376) can0 541#000010000001BB82 R
(1782313745.243475) can0 12D#000000000000005F R
(1782313745.243565) can0 12A#10010000000A0042 R
(1782313745.243652) can0 12D#000000000000006A R
(1782313745.243739) can0 12E#000000000000C090 R
(1782313745.259925) can0 121#00A601CF04800067 R
(1782313745.260049) can0 129#000000010000006E R
(1782313745.260158) can0 120#000000000000006A R
(1782313745.260264) can0 541#000010000001BBB7 R
(1782313745.260369) can0 12D#000000000000008B R
(1782313745.260475) can0 450#0000000000002800 R
(1782313745.270331) can0 12D#00000000000000BE R
(1782313745.270566) can0 12E#000000000000C0A5 R
(1782313745.270685) can0 121#00A601CF04800086 R
(1782313745.270795) can0 129#000000010000008F R
(1782313745.270902) can0 120#000000000000008B R
(1782313745.271008) can0 541#000010000001BBDD R
(1782313745.283511) can0 12D#00000000000000D4 R
(1782313745.283611) can0 12D#0000000000000035 R
(1782313745.283701) can0 12E#000000000000C0CF R
(1782313745.283790) can0 12A#10010000000A0077 R
(1782313745.283876) can0 5A0#0000000004000085 R
(1782313745.283962) can0 121#00A601CF048000B3 R
(1782313745.301110) can0 129#00000001000000BA R
(1782313745.301203) can0 120#00000000000000BE R
(1782313745.301289) can0 541#000010000001BB3C R
(1782313745.301376) can0 12D#000000000000005F R
(1782313745.301461) can0 12D#000000000000006A R
(1782313745.301546) can0 12E#000000000000C02E R
(1782313745.310113) can0 450#0000000000002800 R
(1782313745.310219) can0 121#00A601CF048000D9 R
(1782313745.310322) can0 129#00000001000000D0 R
(1782313745.310426) can0 120#00000000000000D4 R
(1782313745.310529) can0 541#000010000001BB56 R
(1782313745.323916) can0 12D#000000000000008B R
(1782313745.324015) can0 12D#00000000000000BE R
(1782313745.324101) can0 12E#000000000000C044 R
(1782313745.324186) can0 121#00A601CF04800038 R
(1782313745.324272) can0 129#0000000100000031 R
(1782313745.324358) can0 540#0000401100011000 R
(1782313745.340071) can0 5B0#10000000000000BF R
(1782313745.340173) can0 120#0000000000000035 R
(1782313745.340259) can0 541#000010000001BB63 R
(1782313745.340346) can0 12D#00000000000000D4 R
(1782313745.340431) can0 12A#10010000000A0096 R
(1782313745.340517) can0 12D#0000000000000035 R
(1782313745.351264) can0 12E#000000000000C071 R
(1782313745.351473) can0 121#00A601CF04800052 R
(1782313745.351589) can0 129#000000010000005B R
(1782313745.351700) can0 120#000000000000005F R
(1782313745.351810) can0 541#000010000001BB82 R
(1782313745.351920) can0 12D#000000000000005F R
(1782313745.371726) can0 450#0000000000002800 R
(1782313745.371838) can0 12D#000000000000006A R
(1782313745.371929) can0 12E#000000000000C090 R
(1782313745.372021) can0 121#00A601CF04800067 R
(1782313745.372113) can0 129#000000010000006E R
(1782313745.372266) can0 120#000000000000006A R
(1782313745.383289) can0 541#000010000001BBB7 R
(1782313745.383388) can0 12D#000000000000008B R
(1782313745.383476) can0 12D#00000000000000BE R
(1782313745.383561) can0 12E#000000000000C0A5 R
(1782313745.383646) can0 12A#10010000000A00A3 R
(1782313745.383730) can0 5A0#00000000040000B0 R
(1782313745.399889) can0 121#00A601CF04800086 R
(1782313745.399997) can0 129#000000010000008F R
(1782313745.400101) can0 120#000000000000008B R
(1782313745.400205) can0 541#000010000001BBDD R
(1782313745.400309) can0 12D#00000000000000D4 R
(1782313745.408388) can0 12D#0000000000000035 R
(1782313745.408497) can0 12E#000000000000C0CF R
(1782313745.408599) can0 450#0000000000002800 R
(1782313745.408702) can0 121#00A601CF048000B3 R
(1782313745.408803) can0 129#00000001000000BA R
(1782313745.408904) can0 120#00000000000000BE R
(1782313745.423692) can0 541#000010000001BB3C R
(1782313745.423815) can0 12D#000000000000005F R
(1782313745.423903) can0 12D#000000000000006A R
(1782313745.423991) can0 12E#000000000000C02E R
(1782313745.424076) can0 121#00A601CF048000D9 R
(1782313745.424162) can0 129#00000001000000D0 R
(1782313745.439940) can0 540#0000401100011000 R
(1782313745.440149) can0 5B0#10000000000000D5 R
(1782313745.440261) can0 120#00000000000000D4 R
(1782313745.440364) can0 541#000010000001BB56 R
(1782313745.440465) can0 12D#000000000000008B R
(1782313745.440567) can0 12A#10010000000A00C9 R
(1782313745.450057) can0 12D#00000000000000BE R
(1782313745.450187) can0 12E#000000000000C044 R
(1782313745.450294) can0 121#00A601CF04800038 R
(1782313745.450399) can0 129#0000000100000031 R
(1782313745.450504) can0 120#0000000000000035 R
(1782313745.450612) can0 541#000010000001BB63 R
(1782313745.463531) can0 12D#00000000000000D4 R
(1782313745.463652) can0 450#0000000000002800 R
(1782313745.463760) can0 12D#0000000000000035 R
(1782313745.463869) can0 12E#000000000000C071 R
(1782313745.463974) can0 121#00A601CF04800052 R
(1782313745.480408) can0 129#000000010000005B R
(1782313745.480553) can0 120#000000000000005F R
(1782313745.480663) can0 541#000010000001BB82 R
(1782313745.480771) can0 12D#000000000000005F R
(1782313745.480877) can0 12D#000000000000006A R
(1782313745.480981) can0 12E#000000000000C090 R
(1782313745.489965) can0 12A#10010000000A0028 R
(1782313745.490099) can0 5A0#00000000040000DA R
(1782313745.490225) can0 121#00A601CF04800067 R
(1782313745.490331) can0 129#000000010000006E R
(1782313745.490435) can0 120#000000000000006A R
(1782313745.490540) can0 541#000010000001BBB7 R
(1782313745.504937) can0 12D#000000000000008B R
(1782313745.505058) can0 12D#00000000000000BE R
(1782313745.505164) can0 12E#000000000000C0A5 R
(1782313745.505271) can0 450#0000000000002800 R
(1782313745.505377) can0 121#00A601CF04800086 R
(1782313745.505483) can0 129#000000010000008F R
(1782313745.523517) can0 120#000000000000008B R
(1782313745.523637) can0 541#000010000001BBDD R
(1782313745.523758) can0 12D#00000000000000D4 R
(1782313745.523864) can0 12D#0000000000000035 R
(1782313745.523969) can0 12E#000000000000C0CF R
(1782313745.524096) can0 121#00A601CF048000B3 R
(1782313745.530491) can0 129#00000001000000BA R
(1782313745.530692) can0 540#0000401100011000 R
(1782313745.530846) can0 5B0#1000000000000034 R
(1782313745.530989) can0 120#00000000000000BE R
(1782313745.531133) can0 541#000010000001BB3C R
(1782313745.531275) can0 12D#000000000000005F R
(1782313745.545009) can0 12A#10010000000A0042 R
(1782313745.545177) can0 12D#000000000000006A R
(1782313745.545293) can0 12E#000000000000C02E R
(1782313745.545400) can0 121#00A601CF048000D9 R
(1782313745.545510) can0 129#00000001000000D0 R
(1782313745.563219) can0 120#00000000000000D4 R
(1782313745.563458) can0 541#000010000001BB56 R
(1782313745.563653) can0 12D#000000000000008B R
(1782313745.563834) can0 450#0000000000002800 R
(1782313745.564015) can0 12D#00000000000000BE R
(1782313745.564197) can0 12E#000000000000C044 R
(1782313745.580507) can0 121#00A601CF04800038 R
(1782313745.580748) can0 129#0000000100000031 R
(1782313745.580883) can0 120#0000000000000035 R
(1782313745.581007) can0 541#000010000001BB63 R
(1782313745.581132) can0 12D#00000000000000D4 R
(1782313745.581252) can0 12D#0000000000000035 R
(1782313745.588474) can0 12E#000000000000C071 R
(1782313745.588613) can0 12A#10010000000A0077 R
(1782313745.588734) can0 5A0#000000000400003B R
(1782313745.588853) can0 121#00A601CF04800052 R
(1782313745.588972) can0 129#000000010000005B R
(1782313745.589092) can0 120#000000000000005F R
(1782313745.603819) can0 541#000010000001BB82 R
(1782313745.604297) can0 12D#000000000000005F R
(1782313745.604582) can0 12D#000000000000006A R
(1782313745.604676) can0 12E#000000000000C090 R
(1782313745.604770) can0 450#0000000000002800 R
(1782313745.604857) can0 121#00A601CF04800067 R
(1782313745.620290) can0 129#000000010000006E R
(1782313745.620492) can0 120#000000000000006A R
(1782313745.620661) can0 541#000010000001BBB7 R
(1782313745.620789) can0 12D#000000000000008B R
(1782313745.620932) can0 12D#00000000000000BE R
(1782313745.628379) can0 12E#000000000000C0A5 R
(1782313745.628492) can0 121#00A601CF04800086 R
(1782313745.628598) can0 129#000000010000008F R
(1782313745.628706) can0 540#0000401100011000 R
(1782313745.628848) can0 5B0#100000000000005E R
(1782313745.628978) can0 120#000000000000008B R
(1782313745.643660) can0 541#000010000001BCD5 R
(1782313745.643793) can0 12D#00000000000000D4 R
(1782313745.643897) can0 12A#10050000000A0083 R
(1782313745.644003) can0 12D#0000000000000035 R
(1782313745.644120) can0 12E#000000000000C0CF R
(1782313745.644227) can0 121#00A601CF048000B3 R
(1782313745.660129) can0 129#00000001000000BA R
(1782313745.660246) can0 120#00000000000000BE R
(1782313745.660351) can0 541#000010000001BC34 R
(1782313745.660456) can0 12D#000000000000005F R
(1782313745.660559) can0 450#0000000000002800 R
(1782313745.660664) can0 12D#000000000000006A R
(1782313745.679942) can0 12E#000000000000C02E R
(1782313745.680069) can0 121#00A601CF048000D9 R
(1782313745.680176) can0 129#00000001000000D0 R
(1782313745.680282) can0 120#00000000000000D4 R
(1782313745.680387) can0 541#000010000001BC5E R
(1782313745.680491) can0 12D#000000000000008B R
(1782313745.685171) can0 12D#00000000000000BE R
(1782313745.685372) can0 12E#000000000000C044 R
(1782313745.685485) can0 12A#10050000000A00B6 R
(1782313745.685599) can0 5A0#0000000004000051 R
(1782313745.685721) can0 121#00A601CF04800038 R
(1782313745.685831) can0 129#0000000100000031 R
(1782313745.701190) can0 120#0000000000000035 R
(1782313745.701384) can0 541#000010000001BC6B R
(1782313745.701535) can0 12D#00000000000000D4 R
(1782313745.701688) can0 12D#0000000000000035 R
(1782313745.701835) can0 12E#000000000000C071 R
(1782313745.719789) can0 450#0000000000002800 R
(1782313745.719954) can0 121#00A601CF04800052 R
(1782313745.720121) can0 129#000000010000005B R
(1782313745.720263) can0 120#000000000000005F R
(1782313745.720402) can0 541#000010000001BC8A R
(1782313745.720528) can0 12D#000000000000005F R
(1782313745.725046) can0 12D#000000000000006A R
(1782313745.725207) can0 12E#000000000000C090 R
(1782313745.725350) can0 121#00A601CF04800067 R
(1782313745.725491) can0 129#000000010000006E R
(1782313745.725630) can0 540#0000401100011000 R
(1782313745.725772) can0 5B0#100000000000006B R
(1782313745.745689) can0 120#000000000000006A R
(1782313745.746083) can0 541#000010000001BCBF R
(1782313745.746240) can0 12D#000000000000008B R
(1782313745.746384) can0 12A#10050000000A00DC R
(1782313745.746539) can0 12D#00000000000000BE R
(1782313745.746682) can0 12E#000000000000C0A5 R
(1782313745.759986) can0 121#00A601CF04800086 R
(1782313745.760265) can0 129#000000010000008F R
(1782313745.760513) can0 120#000000000000008B R
(1782313745.760774) can0 541#000010000001BCD5 R
(1782313745.761024) can0 12D#00000000000000D4 R
(1782313745.761551) can0 450#0000000000002800 R
(1782313745.768482) can0 12D#0000000000000035 R
(1782313745.768641) can0 12E#000000000000C0CF R
(1782313745.768783) can0 121#00A601CF048000B3 R
(1782313745.768927) can0 129#00000001000000BA R
(1782313745.769068) can0 120#00000000000000BE R
(1782313745.783297) can0 541#000010000001BC34 R
(1782313745.783465) can0 12D#000000000000005F R
(1782313745.783592) can0 12D#000000000000006A R
(1782313745.783711) can0 12E#000000000000C02E R
(1782313745.783830) can0 12A#10050000000A003D R
(1782313745.783948) can0 5A0#0000000004000064 R
(1782313745.800105) can0 121#00A601CF048000D9 R
(1782313745.800291) can0 129#00000001000000D0 R
(1782313745.800441) can0 120#00000000000000D4 R
(1782313745.800583) can0 541#000010000001BC5E R
(1782313745.800724) can0 12D#000000000000008B R
(1782313745.800864) can0 12D#00000000000000BE R
(1782313745.812166) can0 12E#000000000000C044 R
(1782313745.812339) can0 450#0000000000002800 R
(1782313745.812468) can0 121#00A601CF04800038 R
(1782313745.812607) can0 129#0000000100000031 R
(1782313745.812728) can0 120#0000000000000035 R
(1782313745.812848) can0 541#000010000001BC6B R
(1782313745.824119) can0 12D#00000000000000D4 R
(1782313745.824322) can0 12D#0000000000000035 R
(1782313745.824505) can0 12E#000000000000C071 R
(1782313745.824693) can0 121#00A601CF04800052 R
(1782313745.824876) can0 129#000000010000005B R
(1782313745.825054) can0 540#0000401100011000 R
(1782313745.840267) can0 5B0#100000000000008A R
(1782313745.840562) can0 120#000000000000005F R
(1782313745.845000) can0 541#000010000001BC8A R
(1782313745.845157) can0 12D#000000000000005F R
(1782313745.845272) can0 12A#10050000000A0057 R
(1782313745.845379) can0 12D#000000000000006A R
(1782313745.850048) can0 12E#000000000000C090 R
(1782313745.850198) can0 121#00A601CF04800067 R
(1782313745.850341) can0 129#000000010000006E R
(1782313745.850474) can0 120#000000000000006A R
(1782313745.850585) can0 541#000010000001BCBF R
(1782313745.867012) can0 12D#000000000000008B R
(1782313745.867172) can0 450#0000000000002800 R
(1782313745.867234) can0 12D#00000000000000BE R
(1782313745.867290) can0 12E#000000000000C0A5 R
(1782313745.867348) can0 121#00A601CF04800086 R
(1782313745.867402) can0 129#000000010000008F R
(1782313745.880643) can0 120#000000000000008B R
(1782313745.880741) can0 541#000010000001BCD5 R
(1782313745.880830) can0 12D#00000000000000D4 R
(1782313745.880918) can0 12D#0000000000000035 R
(1782313745.881004) can0 12E#000000000000C0CF R
(1782313745.881091) can0 12A#10050000000A0062 R
(1782313745.899829) can0 5A0#0000000004000085 R
(1782313745.900029) can0 121#00A601CF048000B3 R
(1782313745.900196) can0 129#00000001000000BA R
(1782313745.900314) can0 120#00000000000000BE R
(1782313745.900446) can0 541#000010000001BC34 R
(1782313745.900569) can0 12D#000000000000005F R
(1782313745.909136) can0 12D#000000000000006A R
(1782313745.909275) can0 12E#000000000000C02E R
(1782313745.909387) can0 450#0000000000002800 R
(1782313745.909491) can0 121#00A601CF048000D9 R
(1782313745.909594) can0 129#00000001000000D0 R
(1782313745.909696) can0 120#00000000000000D4 R
(1782313745.923664) can0 541#000010000001BC5E R
(1782313745.923868) can0 12D#000000000000008B R
(1782313745.923980) can0 12D#00000000000000BE R
(1782313745.924086) can0 12E#000000000000C044 R
(1782313745.924229) can0 121#00A601CF04800038 R
(1782313745.930115) can0 129#0000000100000031 R
(1782313745.930225) can0 540#0000401100011000 R
(1782313745.930320) can0 5B0#10000000000000BF R
(1782313745.930397) can0 120#0000000000000035 R
(1782313745.930471) can0 541#000010000001BC6B R
(1782313745.930545) can0 12D#00000000000000D4 R
(1782313745.948433) can0 12A#10050000000A0083 R
(1782313745.948553) can0 12D#0000000000000035 R
(1782313745.948644) can0 12E#000000000000C071 R
(1782313745.948730) can0 121#00A601CF04800052 R
(1782313745.948816) can0 129#000000010000005B R
(1782313745.948903) can0 120#000000000000005F R
(1782313745.963520) can0 541#000010000001BC8A R
(1782313745.963618) can0 12D#000000000000005F R
(1782313745.963707) can0 450#0000000000002800 R
(1782313745.963796) can0 12D#000000000000006A R
(1782313745.963882) can0 12E#000000000000C090 R
(1782313745.963967) can0 121#00A601CF04800067 R
(1782313745.980506) can0 129#000000010000006E R
(1782313745.980676) can0 120#000000000000006A R
(1782313745.980794) can0 541#000010000001BCBF R
(1782313745.980902) can0 12D#000000000000008B R
(1782313745.981008) can0 12D#00000000000000BE R
(1782313745.981111) can0 12E#000000000000C0A5 R
(1782313745.990000) can0 12A#10050000000A00B6 R
(1782313745.990171) can0 5A0#00000000040000B0 R
(1782313745.990302) can0 121#00A601CF04800086 R
(1782313745.990434) can0 129#000000010000008F R
(1782313745.990567) can0 120#000000000000008B R
(1782313745.990810) can0 541#000010000001BCD5 R
(1782313746.003722) can0 12D#00000000000000D4 R
(1782313746.003915) can0 12D#0000000000000035 R
(1782313746.004072) can0 12E#000000000000C0CF R
(1782313746.004221) can0 450#0000000000002800 R
(1782313746.004367) can0 121#00A601CF048000B3 R
(1782313746.023447) can0 129#00000001000000BA R
(1782313746.023574) can0 120#00000000000000BE R
(1782313746.023680) can0 541#000010000001BC34 R
(1782313746.023784) can0 12D#000000000000005F R
(1782313746.023887) can0 12D#000000000000006A R
(1782313746.023990) can0 12E#000000000000C02E R
(1782313746.030025) can0 121#00A601CF048000D9 R
(1782313746.030230) can0 129#00000001000000D0 R
(1782313746.030380) can0 540#0000401100011000 R
(1782313746.030523) can0 5B0#10000000000000D5 R
(1782313746.030667) can0 120#00000000000000D4 R
(1782313746.030806) can0 541#000010000001BC5E R
(1782313746.044975) can0 12D#000000000000008B R
(1782313746.045095) can0 12A#10050000000A00DC R
(1782313746.045206) can0 12D#00000000000000BE R
(1782313746.045312) can0 12E#000000000000C044 R
(1782313746.045435) can0 121#00A601CF04800038 R
(1782313746.045558) can0 129#0000000100000031 R
(1782313746.063411) can0 120#0000000000000035 R
(1782313746.063743) can0 541#000010000001BC6B R
(1782313746.064011) can0 12D#00000000000000D4 R
(1782313746.064481) can0 450#0000000000002800 R
(1782313746.064802) can0 12D#0000000000000035 R
(1782313746.065059) can0 12E#000000000000C071 R
(1782313746.079973) can0 121#00A601CF04800052 R
(1782313746.080095) can0 129#000000010000005B R
(1782313746.080200) can0 120#000000000000005F R
(1782313746.080305) can0 541#000010000001BC8A R
(1782313746.080409) can0 12D#000000000000005F R
(1782313746.084982) can0 12D#000000000000006A R
(1782313746.085288) can0 12E#000000000000C090 R
(1782313746.085541) can0 12A#10050000000A003D R
(1782313746.085792) can0 5A0#00000000040000DA R
(1782313746.086044) can0 121#00A601CF04800067 R
(1782313746.086293) can0 129#000000010000006E R
(1782313746.103240) can0 120#000000000000006A R
(1782313746.103426) can0 541#000010000001BCBF R
(1782313746.103541) can0 12D#000000000000008B R
(1782313746.103650) can0 12D#00000000000000BE R
(1782313746.103773) can0 12E#000000000000C0A5 R
(1782313746.103891) can0 450#0000000000002800 R
(1782313746.122495) can0 121#00A601CF04800086 R
(1782313746.122809) can0 129#000000010000008F R
(1782313746.123048) can0 120#000000000000008B R
(1782313746.123154) can0 541#000010000001BCD5 R
(1782313746.123269) can0 12D#00000000000000D4 R
(1782313746.123361) can0 12D#0000000000000035 R
(1782313746.128437) can0 12E#000000000000C0CF R
(1782313746.128530) can0 121#00A601CF048000B3 R
(1782313746.128617) can0 129#00000001000000BA R
(1782313746.128723) can0 540#0000401100011000 R
(1782313746.128809) can0 5B0#1000000000000034 R
(1782313746.128896) can0 120#00000000000000BE R
(1782313746.143536) can0 541#000010000001BC34 R
(1782313746.143628) can0 12D#000000000000005F R
(1782313746.143715) can0 12A#10050000000A0057 R
(1782313746.143802) can0 12D#000000000000006A R
(1782313746.143889) can0 12E#000000000000C02E R
(1782313746.143977) can0 121#00A601CF048000D9 R
(1782313746.159928) can0 129#00000001000000D0 R
(1782313746.160038) can0 120#00000000000000D4 R
(1782313746.160144) can0 541#000010000001BC5E R
(1782313746.160248) can0 12D#000000000000008B R
(1782313746.160350) can0 450#0000000000002800 R
(1782313746.169922) can0 12D#00000000000000BE R
(1782313746.170024) can0 12E#000000000000C044 R
(1782313746.170115) can0 121#00A601CF04800038 R
(1782313746.170203) can0 129#0000000100000031 R
(1782313746.170290) can0 120#0000000000000035 R
(1782313746.170377) can0 541#000010000001BC6B R
(1782313746.183579) can0 12D#00000000000000D4 R
(1782313746.183689) can0 12D#0000000000000035 R
(1782313746.183796) can0 12E#000000000000C071 R
(1782313746.183905) can0 12A#10050000000A0062 R
(1782313746.184010) can0 5A0#000000000400003B R
(1782313746.184114) can0 121#00A601CF04800052 R
(1782313746.201072) can0 129#000000010000005B R
(1782313746.201188) can0 120#000000000000005F R
(1782313746.201294) can0 541#000010000001BC8A R
(1782313746.201398) can0 12D#000000000000005F R
(1782313746.201502) can0 12D#000000000000006A R
(1782313746.201607) can0 12E#000000000000C090 R
(1782313746.219849) can0 450#0000000000002800 R
(1782313746.219965) can0 121#00A601CF04800067 R
(1782313746.220073) can0 129#000000010000006E R
(1782313746.220183) can0 120#000000000000006A R
(1782313746.220288) can0 541#000010000001BCBF R
(1782313746.220418) can0 12D#000000000000008B R
(1782313746.224071) can0 12D#00000000000000BE R
(1782313746.224180) can0 12E#000000000000C0A5 R
(1782313746.224286) can0 121#00A601CF04800086 R
(1782313746.224391) can0 129#000000010000008F R
(1782313746.224495) can0 540#0000401100011000 R
(1782313746.240016) can0 5B0#100000000000005E R
(1782313746.240156) can0 120#000000000000008B R
(1782313746.240262) can0 541#000010000001BCD5 R
(1782313746.240368) can0 12D#00000000000000D4 R
(1782313746.240472) can0 12A#10050000000A0083 R
(1782313746.240613) can0 12D#0000000000000035 R
(1782313746.251119) can0 12E#000000000000C0CF R
(1782313746.251254) can0 121#00A601CF048000B3 R
(1782313746.251362) can0 129#00000001000000BA R
(1782313746.251467) can0 120#00000000000000BE R
(1782313746.251571) can0 541#000010000001BC34 R
(1782313746.251676) can0 12D#000000000000005F R
(1782313746.268457) can0 450#0000000000002800 R
(1782313746.268589) can0 12D#000000000000006A R
(1782313746.268696) can0 12E#000000000000C02E R
(1782313746.268801) can0 121#00A601CF048000D9 R
(1782313746.268907) can0 129#00000001000000D0 R
(1782313746.269014) can0 120#00000000000000D4 R
(1782313746.283409) can0 541#000010000001BC5E R
(1782313746.283604) can0 12D#000000000000008B R
(1782313746.283725) can0 12D#00000000000000BE R
(1782313746.283833) can0 12E#000000000000C044 R
(1782313746.283946) can0 12A#10050000000A00B6 R
(1782313746.284052) can0 5A0#0000000004000051 R
(1782313746.300181) can0 121#00A601CF04800038 R
(1782313746.300319) can0 129#0000000100000031 R
(1782313746.300414) can0 120#0000000000000035 R
(1782313746.300505) can0 541#000010000001BC6B R
(1782313746.300596) can0 12D#00000000000000D4 R
(1782313746.300706) can0 12D#0000000000000035 R
(1782313746.309573) can0 12E#000000000000C071 R
(1782313746.309676) can0 450#0000000000002800 R
(1782313746.309766) can0 121#00A601CF04800052 R
(1782313746.309856) can0 129#000000010000005B R
(1782313746.309943) can0 120#000000000000005F R
(1782313746.323744) can0 541#000010000001BC8A R
(1782313746.323862) can0 12D#000000000000005F R
(1782313746.323950) can0 12D#000000000000006A R
(1782313746.324038) can0 12E#000000000000C090 R
(1782313746.324123) can0 121#00A601CF04800067 R
(1782313746.324210) can0 129#000000010000006E R
(1782313746.339748) can0 540#0000401100011000 R
(1782313746.339890) can0 5B0#100000000000006B R
(1782313746.339997) can0 120#000000000000006A R
(1782313746.340102) can0 541#000010000001BCBF R
(1782313746.340190) can0 12D#000000000000008B R
(1782313746.340277) can0 12A#10050000000A00DC R
(1782313746.350005) can0 12D#00000000000000BE R
(1782313746.350125) can0 12E#000000000000C0A5 R
(1782313746.350248) can0 121#00A601CF04800086 R
(1782313746.350371) can0 129#000000010000008F R
(1782313746.350462) can0 120#000000000000008B R
(1782313746.350550) can0 541#000010000001BCD5 R
(1782313746.368119) can0 12D#00000000000000D4 R
(1782313746.368268) can0 450#0000000000002800 R
(1782313746.368374) can0 12D#0000000000000035 R
(1782313746.368466) can0 12E#000000000000C0CF R
(1782313746.368556) can0 121#00A601CF048000B3 R
(1782313746.368646) can0 129#00000001000000BA R
(1782313746.380475) can0 120#00000000000000BE R
(1782313746.380595) can0 541#000010000001BC34 R
(1782313746.380688) can0 12D#000000000000005F R
(1782313746.380774) can0 12D#000000000000006A R
(1782313746.380864) can0 12E#000000000000C02E R
(1782313746.389915) can0 12A#10050000000A003D R
(1782313746.390025) can0 5A0#0000000004000064 R
(1782313746.390133) can0 121#00A601CF048000D9 R
(1782313746.390233) can0 129#00000001000000D0 R
(1782313746.390311) can0 120#00000000000000D4 R
(1782313746.390386) can0 541#000010000001BC5E R
(1782313746.405125) can0 12D#000000000000008B R
(1782313746.405226) can0 12D#00000000000000BE R
(1782313746.405322) can0 12E#000000000000C044 R
(1782313746.405401) can0 450#0000000000002800 R
(1782313746.405484) can0 121#00A601CF04800038 R
(1782313746.405586) can0 129#0000000100000031 R
(1782313746.423521) can0 120#0000000000000035 R
(1782313746.423668) can0 541#000010000001BC6B R
(1782313746.423763) can0 12D#00000000000000D4 R
(1782313746.423844) can0 12D#0000000000000035 R
(1782313746.423921) can0 12E#000000000000C071 R
(1782313746.423998) can0 121#00A601CF04800052 R
(1782313746.430178) can0 129#000000010000005B R
(1782313746.430287) can0 540#0000401100011000 R
(1782313746.430396) can0 5B0#100000000000008A R
(1782313746.430485) can0 120#000000000000005F R
(1782313746.430575) can0 541#000010000001BC8A R
(1782313746.430673) can0 12D#000000000000005F R
(1782313746.448472) can0 12A#10050000000A0057 R
(1782313746.448588) can0 12D#000000000000006A R
(1782313746.448671) can0 12E#000000000000C090 R
(1782313746.448750) can0 121#00A601CF04800067 R
(1782313746.448829) can0 129#000000010000006E R
(1782313746.448907) can0 120#000000000000006A R
(1782313746.463328) can0 541#000010000001BCBF R
(1782313746.463423) can0 12D#000000000000008B R
(1782313746.463516) can0 450#0000000000002800 R
(1782313746.463596) can0 12D#00000000000000BE R
(1782313746.463674) can0 12E#000000000000C0A5 R
(1782313746.480100) can0 121#00A601CF04800086 R
(1782313746.480227) can0 129#000000010000008F R
(1782313746.480309) can0 120#000000000000008B R
(1782313746.480402) can0 541#000010000001BCD5 R
(1782313746.480503) can0 12D#00000000000000D4 R
(1782313746.480603) can0 12D#0000000000000035 R
(1782313746.488354) can0 12E#000000000000C0CF R
(1782313746.488449) can0 12A#10050000000A0062 R
(1782313746.488533) can0 5A0#0000000004000085 R
(1782313746.488611) can0 121#00A601CF048000B3 R
(1782313746.488710) can0 129#00000001000000BA R
(1782313746.488791) can0 120#00000000000000BE R
(1782313746.503499) can0 541#000010000001BC34 R
(1782313746.503611) can0 12D#000000000000005F R
(1782313746.503695) can0 12D#000000000000006A R
(1782313746.503777) can0 12E#000000000000C02E R
(1782313746.503856) can0 450#0000000000002800 R
(1782313746.503933) can0 121#00A601CF048000D9 R
(1782313746.523322) can0 129#00000001000000D0 R
(1782313746.523431) can0 120#00000000000000D4 R
(1782313746.523529) can0 541#000010000001BC5E R
(1782313746.523608) can0 12D#000000000000008B R
(1782313746.523688) can0 12D#00000000000000BE R
(1782313746.523768) can0 12E#000000000000C044 R
(1782313746.528408) can0 121#00A601CF04800038 R
(1782313746.528500) can0 129#0000000100000031 R
(1782313746.528582) can0 540#0000401100011000 R
(1782313746.528660) can0 5B0#10000000000000BF R
(1782313746.528738) can0 120#0000000000000035 R
(1782313746.543487) can0 541#000010000001BC6B R
(1782313746.543615) can0 12D#00000000000000D4 R
(1782313746.543706) can0 12A#10050000000A0083 R
(1782313746.543796) can0 12D#0000000000000035 R
(1782313746.543887) can0 12E#000000000000C071 R
(1782313746.543979) can0 121#00A601CF04800052 R
(1782313746.559993) can0 129#000000010000005B R
(1782313746.560103) can0 120#000000000000005F R
(1782313746.560196) can0 541#000010000001BC8A R
(1782313746.560286) can0 12D#000000000000005F R
(1782313746.560376) can0 450#0000000000002800 R
(1782313746.560465) can0 12D#000000000000006A R
(1782313746.579895) can0 12E#000000000000C090 R
(1782313746.580022) can0 121#00A601CF04800067 R
(1782313746.580115) can0 129#000000010000006E R
(1782313746.580204) can0 120#000000000000006A R
(1782313746.580293) can0 541#000010000001BCBF R
(1782313746.580411) can0 12D#000000000000008B R
(1782313746.585060) can0 12D#00000000000000BE R
(1782313746.585174) can0 12E#000000000000C0A5 R
(1782313746.585280) can0 12A#10050000000A00B6 R
(1782313746.585384) can0 5A0#00000000040000B0 R
(1782313746.585488) can0 121#00A601CF04800086 R
(1782313746.585611) can0 129#000000010000008F R
(1782313746.603276) can0 120#000000000000008B R
(1782313746.603403) can0 541#000010000001BCD5 R
(1782313746.603512) can0 12D#00000000000000D4 R
(1782313746.603621) can0 12D#0000000000000035 R
(1782313746.603727) can0 12E#000000000000C0CF R
(1782313746.603830) can0 450#0000000000002800 R
(1782313746.622645) can0 121#00A601CF048000B3 R
(1782313746.622763) can0 129#00000001000000BA R
(1782313746.622857) can0 120#00000000000000BE R
(1782313746.622947) can0 541#000010000001BC34 R
(1782313746.623036) can0 12D#000000000000005F R
(1782313746.625006) can0 12D#000000000000006A R
(1782313746.625101) can0 12E#000000000000C02E R
(1782313746.625189) can0 121#00A601CF048000D9 R
(1782313746.625279) can0 129#00000001000000D0 R
(1782313746.625365) can0 540#0000401100011000 R
(1782313746.625451) can0 5B0#10000000000000D5 R
(1782313746.643303) can0 120#00000000000000D4 R
(1782313746.643403) can0 541#000010000001BD48 R
(1782313746.643494) can0 12D#000000000000008B R
(1782313746.643581) can0 12A#10050000000A00DC R
(1782313746.643669) can0 12D#00000000000000BE R
(1782313746.643756) can0 12E#000000000000C044 R
(1782313746.659852) can0 121#00A601CF04800038 R
(1782313746.659960) can0 129#0000000100000031 R
(1782313746.660065) can0 120#0000000000000035 R
(1782313746.660170) can0 541#000010000001BD7D R
(1782313746.660274) can0 12D#00000000000000D4 R
(1782313746.660403) can0 450#0000000000002800 R
(1782313746.670055) can0 12D#0000000000000035 R
(1782313746.670168) can0 12E#000000000000C071 R
(1782313746.670261) can0 121#00A601CF04800052 R
(1782313746.670351) can0 129#000000010000005B R
(1782313746.670442) can0 120#000000000000005F R
(1782313746.670530) can0 541#000010000001BD9C R
(1782313746.683419) can0 12D#000000000000005F R
(1782313746.683535) can0 12D#000000000000006A R
(1782313746.683627) can0 12E#000000000000C090 R
(1782313746.683715) can0 12A#10050000000A003D R
(1782313746.683807) can0 5A0#00000000040000DA R
(1782313746.699963) can0 121#00A601CF04800067 R
(1782313746.700100) can0 129#000000010000006E R
(1782313746.700213) can0 120#000000000000006A R
(1782313746.700321) can0 541#000010000001BDA9 R
(1782313746.700431) can0 12D#000000000000008B R
(1782313746.700537) can0 12D#00000000000000BE R
(1782313746.709977) can0 12E#000000000000C0A5 R
(1782313746.710099) can0 450#0000000000002800 R
(1782313746.710209) can0 121#00A601CF04800086 R
(1782313746.710316) can0 129#000000010000008F R
(1782313746.710423) can0 120#000000000000008B R
(1782313746.710531) can0 541#000010000001BDC3 R
(1782313746.724054) can0 12D#00000000000000D4 R
(1782313746.724189) can0 12D#0000000000000035 R
(1782313746.724299) can0 12E#000000000000C0CF R
(1782313746.724406) can0 121#00A601CF048000B3 R
(1782313746.724513) can0 129#00000001000000BA R
(1782313746.724622) can0 540#0000401100011000 R
(1782313746.741779) can0 5B0#1000000000000034 R
(1782313746.741907) can0 120#00000000000000BE R
(1782313746.742017) can0 541#000010000001BD22 R
(1782313746.742180) can0 12D#000000000000005F R
(1782313746.742287) can0 12A#10050000000A0057 R
(1782313746.742394) can0 12D#000000000000006A R
(1782313746.751183) can0 12E#000000000000C02E R
(1782313746.751293) can0 121#00A601CF048000D9 R
(1782313746.751400) can0 129#00000001000000D0 R
(1782313746.751504) can0 120#00000000000000D4 R
(1782313746.751608) can0 541#000010000001BD48 R
(1782313746.751716) can0 12D#000000000000008B R
(1782313746.765137) can0 450#0000000000002800 R
(1782313746.765262) can0 12D#00000000000000BE R
(1782313746.765372) can0 12E#000000000000C044 R
(1782313746.765481) can0 121#00A601CF04800038 R
(1782313746.765587) can0 129#0000000100000031 R
(1782313746.780556) can0 120#0000000000000035 R
(1782313746.780665) can0 541#000010000001BD7D R
(1782313746.780754) can0 12D#00000000000000D4 R
(1782313746.780843) can0 12D#0000000000000035 R
(1782313746.780999) can0 12E#000000000000C071 R
(1782313746.781106) can0 12A#10050000000A0062 R
(1782313746.799801) can0 5A0#000000000400003B R
(1782313746.799917) can0 121#00A601CF04800052 R
(1782313746.800010) can0 129#000000010000005B R
(1782313746.800098) can0 120#000000000000005F R
(1782313746.800186) can0 541#000010000001BD9C R
(1782313746.800275) can0 12D#000000000000005F R
(1782313746.809467) can0 12D#000000000000006A R
(1782313746.809647) can0 12E#000000000000C090 R
(1782313746.809794) can0 450#0000000000002800 R
(1782313746.810046) can0 121#00A601CF04800067 R
(1782313746.810173) can0 129#000000010000006E R
(1782313746.810284) can0 120#000000000000006A R
(1782313746.823819) can0 541#000010000001BDA9 R
(1782313746.823948) can0 12D#000000000000008B R
(1782313746.824058) can0 12D#00000000000000BE R
(1782313746.824166) can0 12E#000000000000C0A5 R
(1782313746.824272) can0 121#00A601CF04800086 R
(1782313746.824379) can0 129#000000010000008F R
(1782313746.830199) can0 540#0000401100011100 R
(1782313746.830353) can0 5B0#100000000000005E R
(1782313746.830489) can0 120#000000000000008B R
(1782313746.830601) can0 541#000010000001BDC3 R
(1782313746.830710) can0 12D#00000000000000D4 R
(1782313746.848432) can0 12A#10050000000A0083 R
(1782313746.848691) can0 12D#0000000000000035 R
(1782313746.848856) can0 12E#000000000000C0CF R
(1782313746.848967) can0 121#00A601CF048000B3 R
(1782313746.849072) can0 129#00000001000000BA R
(1782313746.849176) can0 120#00000000000000BE R
(1782313746.869795) can0 541#000010000001BD22 R
(1782313746.870266) can0 12D#000000000000005F R
(1782313746.870371) can0 450#0000000000002800 R
(1782313746.870464) can0 12D#000000000000006A R
(1782313746.870554) can0 12E#000000000000C02E R
(1782313746.870643) can0 121#00A601CF048000D9 R
(1782313746.880450) can0 129#00000001000000D0 R
(1782313746.880563) can0 120#00000000000000D4 R
(1782313746.880682) can0 541#000010000001BD48 R
(1782313746.880828) can0 12D#000000000000008B R
(1782313746.880922) can0 12D#00000000000000BE R
(1782313746.881080) can0 12E#000000000000C044 R
(1782313746.889943) can0 12A#10050000000A00B6 R
(1782313746.890061) can0 5A0#0000000004000051 R
(1782313746.890154) can0 121#00A601CF04800038 R
(1782313746.890245) can0 129#0000000100000031 R
(1782313746.890339) can0 120#0000000000000035 R
(1782313746.890428) can0 541#000010000001BD7D R
(1782313746.904054) can0 12D#00000000000000D4 R
(1782313746.904157) can0 12D#0000000000000035 R
(1782313746.904248) can0 12E#000000000000C071 R
(1782313746.904336) can0 450#0000000000002800 R
(1782313746.904425) can0 121#00A601CF04800052 R
(1782313746.904534) can0 129#000000010000005B R
(1782313746.920047) can0 120#000000000000005F R
(1782313746.920169) can0 541#000010000001BD9C R
(1782313746.920259) can0 12D#000000000000005F R
(1782313746.925076) can0 12D#000000000000006A R
(1782313746.925184) can0 12E#000000000000C090 R
(1782313746.925274) can0 121#00A601CF04800067 R
(1782313746.925365) can0 129#000000010000006E R
(1782313746.925454) can0 540#0000401100011100 R
(1782313746.925543) can0 5B0#100000000000006B R
(1782313746.943308) can0 120#000000000000006A R
(1782313746.943418) can0 541#000010000001BDA9 R
(1782313746.943523) can0 12D#000000000000008B R
(1782313746.943629) can0 12A#10050000000A00DC R
(1782313746.943733) can0 12D#00000000000000BE R
(1782313746.943840) can0 12E#000000000000C0A5 R
(1782313746.951219) can0 121#00A601CF04800086 R
(1782313746.951330) can0 129#000000010000008F R
(1782313746.951436) can0 120#000000000000008B R
(1782313746.951540) can0 541#000010000001BDC3 R
(1782313746.951645) can0 12D#00000000000000D4 R
(1782313746.968441) can0 450#0000000000002800 R
(1782313746.968676) can0 12D#0000000000000035 R
(1782313746.968808) can0 12E#000000000000C0CF R
(1782313746.968924) can0 121#00A601CF048000B3 R
(1782313746.969057) can0 129#00000001000000BA R
(1782313746.969178) can0 120#00000000000000BE R
(1782313746.983537) can0 541#000010000001BD22 R
(1782313746.983754) can0 12D#000000000000005F R
(1782313746.983880) can0 12D#000000000000006A R
(1782313746.983997) can0 12E#000000000000C02E R
(1782313746.984106) can0 12A#10050000000A003D R
(1782313746.984215) can0 5A0#0000000004000064 R
(1782313747.000055) can0 121#00A601CF048000D9 R
(1782313747.000195) can0 129#00000001000000D0 R
(1782313747.000308) can0 120#00000000000000D4 R
(1782313747.000416) can0 541#000010000001BD48 R
(1782313747.000527) can0 12D#000000000000008B R
(1782313747.000633) can0 12D#00000000000000BE R
(1782313747.009991) can0 12E#000000000000C044 R
(1782313747.010114) can0 450#0000000000002800 R
(1782313747.010221) can0 121#00A601CF04800038 R
(1782313747.010327) can0 129#0000000100000031 R
(1782313747.010433) can0 120#0000000000000035 R
(1782313747.010542) can0 541#000010000001BD7D R
(1782313747.024099) can0 12D#00000000000000D4 R
(1782313747.024226) can0 12D#0000000000000035 R
(1782313747.024341) can0 12E#000000000000C071 R
(1782313747.024485) can0 121#00A601CF04800052 R
(1782313747.024600) can0 129#000000010000005B R
(1782313747.024708) can0 540#0000401100011100 R
(1782313747.039769) can0 5B0#100000000000008A R
(1782313747.039889) can0 120#000000000000005F R
(1782313747.040011) can0 541#000010000001BD9C R
(1782313747.040116) can0 12D#000000000000005F R
(1782313747.040234) can0 12A#10050000000A0057 R
(1782313747.049860) can0 12D#000000000000006A R
(1782313747.049997) can0 12E#000000000000C090 R
(1782313747.050104) can0 121#00A601CF04800067 R
(1782313747.050209) can0 129#000000010000006E R
(1782313747.050314) can0 120#000000000000006A R
(1782313747.050419) can0 541#000010000001BDA9 R
(1782313747.065015) can0 12D#000000000000008B R
(1782313747.065136) can0 450#0000000000002800 R
(1782313747.065245) can0 12D#00000000000000BE R
(1782313747.065352) can0 12E#000000000000C0A5 R
(1782313747.065459) can0 121#00A601CF04800086 R
(1782313747.065563) can0 129#000000010000008F R
(1782313747.080652) can0 120#000000000000008B R
(1782313747.080854) can0 541#000010000001BDC3 R
(1782313747.080973) can0 12D#00000000000000D4 R
(1782313747.081081) can0 12D#0000000000000035 R
(1782313747.081185) can0 12E#000000000000C0CF R
(1782313747.081291) can0 12A#10050000000A0062 R
(1782313747.099876) can0 5A0#0000000004000085 R
(1782313747.100006) can0 121#00A601CF048000B3 R
(1782313747.100098) can0 129#00000001000000BA R
(1782313747.100192) can0 120#00000000000000BE R
(1782313747.100281) can0 541#000010000001BD22 R
(1782313747.100369) can0 12D#000000000000005F R
(1782313747.105019) can0 12D#000000000000006A R
(1782313747.105118) can0 12E#000000000000C02E R
(1782313747.105207) can0 450#0000000000002800 R
(1782313747.105295) can0 121#00A601CF048000D9 R
(1782313747.105384) can0 129#00000001000000D0 R
(1782313747.123563) can0 120#00000000000000D4 R
(1782313747.123688) can0 541#000010000001BD48 R
(1782313747.123782) can0 12D#000000000000008B R
(1782313747.123873) can0 12D#00000000000000BE R
(1782313747.123962) can0 12E#000000000000C044 R
(1782313747.124054) can0 121#00A601CF04800038 R
(1782313747.130076) can0 129#0000000100000031 R
(1782313747.130268) can0 540#0000401100011100 R
(1782313747.130362) can0 5B0#10000000000000BF R
(1782313747.130505) can0 120#0000000000000035 R
(1782313747.130597) can0 541#000010000001BD7D R
(1782313747.130692) can0 12D#00000000000000D4 R
(1782313747.148423) can0 12A#10050000000A0083 R
(1782313747.148534) can0 12D#0000000000000035 R
(1782313747.148640) can0 12E#000000000000C071 R
(1782313747.148731) can0 121#00A601CF04800052 R
(1782313747.148821) can0 129#000000010000005B R
(1782313747.148910) can0 120#000000000000005F R
(1782313747.163718) can0 541#000010000001BD9C R
(1782313747.163834) can0 12D#000000000000005F R
(1782313747.164000) can0 450#0000000000002800 R
(1782313747.164100) can0 12D#000000000000006A R
(1782313747.164190) can0 12E#000000000000C090 R
(1782313747.164279) can0 121#00A601CF04800067 R
(1782313747.180348) can0 129#000000010000006E R
(1782313747.180494) can0 120#000000000000006A R
(1782313747.180651) can0 541#000010000001BDA9 R
(1782313747.180746) can0 12D#000000000000008B R
(1782313747.180837) can0 12D#00000000000000BE R
(1782313747.180941) can0 12E#000000000000C0A5 R
(1782313747.188397) can0 12A#10050000000A00B6 R
(1782313747.188524) can0 5A0#00000000040000B0 R
(1782313747.188662) can0 121#00A601CF04800086 R
(1782313747.188758) can0 129#000000010000008F R
(1782313747.188861) can0 120#000000000000008B R
(1782313747.203498) can0 541#000010000001BDC3 R
(1782313747.203619) can0 12D#00000000000000D4 R
(1782313747.203710) can0 12D#0000000000000035 R
(1782313747.203801) can0 12E#000000000000C0CF R
(1782313747.203903) can0 450#0000000000002800 R
(1782313747.204006) can0 121#00A601CF048000B3 R
(1782313747.223297) can0 129#00000001000000BA R
(1782313747.223430) can0 120#00000000000000BE R
(1782313747.223539) can0 541#000010000001BD22 R
(1782313747.223646) can0 12D#000000000000005F R
(1782313747.223754) can0 12D#000000000000006A R
(1782313747.223860) can0 12E#000000000000C02E R
(1782313747.229864) can0 121#00A601CF048000D9 R
(1782313747.230007) can0 129#00000001000000D0 R
(1782313747.230115) can0 540#0000401100011100 R
(1782313747.230274) can0 5B0#10000000000000D5 R
(1782313747.230443) can0 120#00000000000000D4 R
(1782313747.230560) can0 541#000010000001BD48 R
(1782313747.245078) can0 12D#000000000000008B R
(1782313747.245200) can0 12A#10050000000A00DC R
(1782313747.245309) can0 12D#00000000000000BE R
(1782313747.245416) can0 12E#000000000000C044 R
(1782313747.245521) can0 121#00A601CF04800038 R
(1782313747.245627) can0 129#0000000100000031 R
(1782313747.260066) can0 120#0000000000000035 R
(1782313747.260190) can0 541#000010000001BD7D R
(1782313747.260299) can0 12D#00000000000000D4 R
(1782313747.260406) can0 450#0000000000002800 R
(1782313747.260513) can0 12D#0000000000000035 R
(1782313747.279813) can0 12E#000000000000C071 R
(1782313747.280013) can0 121#00A601CF04800052 R
(1782313747.280123) can0 129#000000010000005B R
(1782313747.280244) can0 120#000000000000005F R
(1782313747.280351) can0 541#000010000001BD9C R
(1782313747.280901) can0 12D#000000000000005F R
(1782313747.285061) can0 12D#000000000000006A R
(1782313747.285195) can0 12E#000000000000C090 R
(1782313747.285309) can0 12A#10050000000A003D R
(1782313747.285419) can0 5A0#00000000040000DA R
(1782313747.285529) can0 121#00A601CF04800067 R
(1782313747.285643) can0 129#000000010000006E R
(1782313747.303388) can0 120#000000000000006A R
(1782313747.303742) can0 541#000010000001BDA9 R
(1782313747.303856) can0 12D#000000000000008B R
(1782313747.303967) can0 12D#00000000000000BE R
(1782313747.304074) can0 12E#000000000000C0A5 R
(1782313747.304179) can0 450#0000000000002800 R
(1782313747.319976) can0 121#00A601CF04800086 R
(1782313747.320084) can0 129#000000010000008F R
(1782313747.320175) can0 120#000000000000008B R
(1782313747.320264) can0 541#000010000001BDC3 R
(1782313747.320352) can0 12D#00000000000000D4 R
(1782313747.320440) can0 12D#0000000000000035 R
(1782313747.328428) can0 12E#000000000000C0CF R
(1782313747.328555) can0 121#00A601CF048000B3 R
(1782313747.328665) can0 129#00000001000000BA R
(1782313747.328776) can0 540#0000401100011100 R
(1782313747.328901) can0 5B0#1000000000000034 R
(1782313747.329009) can0 120#00000000000000BE R
(1782313747.343389) can0 541#000010000001BD22 R
(1782313747.343517) can0 12D#000000000000005F R
(1782313747.343628) can0 12A#10050000000A0057 R
(1782313747.343737) can0 12D#000000000000006A R
(1782313747.343847) can0 12E#000000000000C02E R
(1782313747.363431) can0 121#00A601CF048000D9 R
(1782313747.372512) can0 129#00000001000000D0 R
(1782313747.372623) can0 120#00000000000000D4 R
(1782313747.372717) can0 541#000010000001BD48 R
(1782313747.372809) can0 12D#000000000000008B R
(1782313747.372904) can0 450#0000000000002800 R
(1782313747.373135) can0 12D#00000000000000BE R
(1782313747.375165) can0 12E#000000000000C044 R
(1782313747.375317) can0 121#00A601CF04800038 R
(1782313747.375417) can0 129#0000000100000031 R
(1782313747.375497) can0 120#0000000000000035 R
(1782313747.375577) can0 541#000010000001BD7D R
(1782313747.383589) can0 12D#00000000000000D4 R
(1782313747.383684) can0 12D#0000000000000035 R
(1782313747.383775) can0 12E#000000000000C071 R
(1782313747.383865) can0 12A#10050000000A0062 R
(1782313747.383954) can0 5A0#000000000400003B R
(1782313747.384042) can0 121#00A601CF04800052 R
(1782313747.401129) can0 129#000000010000005B R
(1782313747.401226) can0 120#000000000000005F R
(1782313747.401317) can0 541#000010000001BD9C R
(1782313747.401408) can0 12D#000000000000005F R
(1782313747.401498) can0 12D#000000000000006A R
(1782313747.401593) can0 12E#000000000000C090 R
(1782313747.410002) can0 450#0000000000002800 R
(1782313747.410100) can0 121#00A601CF04800067 R
(1782313747.410192) can0 129#000000010000006E R
(1782313747.410282) can0 120#000000000000006A R
(1782313747.410372) can0 541#000010000001BDA9 R
(1782313747.424051) can0 12D#000000000000008B R
(1782313747.424194) can0 12D#00000000000000BE R
(1782313747.424283) can0 12E#000000000000C0A5 R
(1782313747.424371) can0 121#00A601CF04800086 R
(1782313747.424452) can0 129#000000010000008F R
(1782313747.424534) can0 540#0000401100011100 R
(1782313747.439978) can0 5B0#100000000000005E R
(1782313747.440088) can0 120#000000000000008B R
(1782313747.440197) can0 541#000010000001BDC3 R
(1782313747.440293) can0 12D#00000000000000D4 R
(1782313747.440384) can0 12A#10050000000A0083 R
(1782313747.440474) can0 12D#0000000000000035 R
(1782313747.451090) can0 12E#000000000000C0CF R
(1782313747.451205) can0 121#00A601CF048000B3 R
(1782313747.451297) can0 129#00000001000000BA R
(1782313747.451391) can0 120#00000000000000BE R
(1782313747.451482) can0 541#000010000001BD22 R
(1782313747.451571) can0 12D#000000000000005F R
(1782313747.468450) can0 450#0000000000002800 R
(1782313747.468568) can0 12D#000000000000006A R
(1782313747.468677) can0 12E#000000000000C02E R
(1782313747.468784) can0 121#00A601CF048000D9 R
(1782313747.468903) can0 129#00000001000000D0 R
(1782313747.469009) can0 120#00000000000000D4 R
(1782313747.483385) can0 541#000010000001BD48 R
(1782313747.483507) can0 12D#000000000000008B R
(1782313747.483616) can0 12D#00000000000000BE R
(1782313747.483725) can0 12E#000000000000C044 R
(1782313747.483831) can0 12A#10050000000A00B6 R
(1782313747.483939) can0 5A0#0000000004000051 R
(1782313747.499952) can0 121#00A601CF04800038 R
(1782313747.500156) can0 129#0000000100000031 R
(1782313747.500271) can0 120#0000000000000035 R
(1782313747.500376) can0 541#000010000001BD7D R
(1782313747.500478) can0 12D#00000000000000D4 R
(1782313747.509346) can0 12D#0000000000000035 R
(1782313747.509535) can0 12E#000000000000C071 R
(1782313747.509729) can0 450#0000000000002800 R
(1782313747.509887) can0 121#00A601CF04800052 R
(1782313747.509995) can0 129#000000010000005B R
(1782313747.510101) can0 120#000000000000005F R
(1782313747.523963) can0 541#000010000001BD9C R
(1782313747.524169) can0 12D#000000000000005F R
(1782313747.524279) can0 12D#000000000000006A R
(1782313747.524386) can0 12E#000000000000C090 R
(1782313747.524488) can0 121#00A601CF04800067 R
(1782313747.524590) can0 129#000000010000006E R
(1782313747.539792) can0 540#0000401100011100 R
(1782313747.539983) can0 5B0#100000000000006B R
(1782313747.540105) can0 120#000000000000006A R
(1782313747.540227) can0 541#000010000001BDA9 R
(1782313747.540328) can0 12D#000000000000008B R
(1782313747.540452) can0 12A#10050000000A00DC R
(1782313747.549940) can0 12D#00000000000000BE R
(1782313747.550067) can0 12E#000000000000C0A5 R
(1782313747.550169) can0 121#00A601CF04800086 R
(1782313747.550269) can0 129#000000010000008F R
(1782313747.550413) can0 120#000000000000008B R
(1782313747.550512) can0 541#000010000001BDC3 R
(1782313747.563642) can0 12D#00000000000000D4 R
(1782313747.563771) can0 450#0000000000002800 R
(1782313747.563880) can0 12D#0000000000000035 R
(1782313747.563990) can0 12E#000000000000C0CF R
(1782313747.564103) can0 121#00A601CF048000B3 R
(1782313747.580402) can0 129#00000001000000BA R
(1782313747.580572) can0 120#00000000000000BE R
(1782313747.580675) can0 541#000010000001BD22 R
(1782313747.580782) can0 12D#000000000000005F R
(1782313747.581174) can0 12D#000000000000006A R
(1782313747.581501) can0 12E#000000000000C02E R
(1782313747.589839) can0 12A#10050000000A003D R
(1782313747.589980) can0 5A0#0000000004000064 R
(1782313747.590090) can0 121#00A601CF048000D9 R
(1782313747.590199) can0 129#00000001000000D0 R
(1782313747.590309) can0 120#00000000000000D4 R
(1782313747.590418) can0 541#000010000001BD48 R
(1782313747.605142) can0 12D#000000000000008B R
(1782313747.605888) can0 12D#00000000000000BE R
(1782313747.606237) can0 12E#000000000000C044 R
(1782313747.606511) can0 450#0000000000002800 R
(1782313747.606713) can0 121#00A601CF04800038 R
(1782313747.606813) can0 129#0000000100000031 R
(1782313747.623591) can0 120#0000000000000035 R
(1782313747.623706) can0 541#000010000001BD7D R
(1782313747.623799) can0 12D#00000000000000D4 R
(1782313747.623889) can0 12D#0000000000000035 R
(1782313747.623978) can0 12E#000000000000C071 R
(1782313747.624067) can0 121#00A601CF04800052 R
(1782313747.630084) can0 129#000000010000005B R
(1782313747.630181) can0 540#0000401100011100 R
(1782313747.630271) can0 5B0#100000000000008A R
(1782313747.630361) can0 120#000000000000005F R
(1782313747.630451) can0 541#000010000001BE93 R
(1782313747.630541) can0 12D#000000000000005F R
(1782313747.645076) can0 12A#10050000000A0057 R
(1782313747.645168) can0 12D#000000000000006A R
(1782313747.645258) can0 12E#000000000000C090 R
(1782313747.645348) can0 121#00A601CF04800067 R
(1782313747.645438) can0 129#000000010000006E R
(1782313747.663341) can0 120#000000000000006A R
(1782313747.663447) can0 541#000010000001BEA6 R
(1782313747.663540) can0 12D#000000000000008B R
(1782313747.663630) can0 450#0000000000002800 R
(1782313747.663720) can0 12D#00000000000000BE R
(1782313747.663808) can0 12E#000000000000C0A5 R
(1782313747.680076) can0 121#00A601CF04800086 R
(1782313747.680199) can0 129#000000010000008F R
(1782313747.680309) can0 120#000000000000008B R
(1782313747.680418) can0 541#000010000001BECC R
(1782313747.680524) can0 12D#00000000000000D4 R
(1782313747.680631) can0 12D#0000000000000035 R
(1782313747.688434) can0 12E#000000000000C0CF R
(1782313747.688573) can0 12A#10050000000A0062 R
(1782313747.688684) can0 5A0#0000000004000085 R
(1782313747.688792) can0 121#00A601CF048000B3 R
(1782313747.688899) can0 129#00000001000000BA R
(1782313747.689005) can0 120#00000000000000BE R
(1782313747.703590) can0 541#000010000001BE2D R
(1782313747.703869) can0 12D#000000000000005F R
(1782313747.704014) can0 12D#000000000000006A R
(1782313747.704124) can0 12E#000000000000C02E R
(1782313747.704251) can0 450#0000000000002800 R
(1782313747.704361) can0 121#00A601CF048000D9 R
(1782313747.720077) can0 129#00000001000000D0 R
(1782313747.720277) can0 120#00000000000000D4 R
(1782313747.720411) can0 541#000010000001BE47 R
(1782313747.720523) can0 12D#000000000000008B R
(1782313747.720632) can0 12D#00000000000000BE R
(1782313747.728315) can0 12E#000000000000C044 R
(1782313747.728472) can0 121#00A601CF04800038 R
(1782313747.728627) can0 129#0000000100000031 R
(1782313747.728749) can0 540#0000401100011100 R
(1782313747.728858) can0 5B0#10000000000000BF R
(1782313747.728965) can0 120#0000000000000035 R
(1782313747.743519) can0 541#000010000001BE72 R
(1782313747.743646) can0 12D#00000000000000D4 R
(1782313747.743762) can0 12A#10050000000A0083 R
(1782313747.743869) can0 12D#0000000000000035 R
(1782313747.743976) can0 12E#000000000000C071 R
(1782313747.744082) can0 121#00A601CF04800052 R
(1782313747.759987) can0 129#000000010000005B R
(1782313747.760118) can0 120#000000000000005F R
(1782313747.760266) can0 541#000010000001BE93 R
(1782313747.760366) can0 12D#000000000000005F R
(1782313747.760458) can0 450#0000000000002800 R
(1782313747.760555) can0 12D#000000000000006A R
(1782313747.779833) can0 12E#000000000000C090 R
(1782313747.779954) can0 121#00A601CF04800067 R
(1782313747.780046) can0 129#000000010000006E R
(1782313747.780135) can0 120#000000000000006A R
(1782313747.780250) can0 541#000010000001BEA6 R
(1782313747.780343) can0 12D#000000000000008B R
(1782313747.785085) can0 12D#00000000000000BE R
(1782313747.785196) can0 12E#000000000000C0A5 R
(1782313747.785289) can0 12A#10050000000A00B6 R
(1782313747.785380) can0 5A0#00000000040000B0 R
(1782313747.785472) can0 121#00A601CF04800086 R
(1782313747.785562) can0 129#000000010000008F R
(1782313747.801080) can0 120#000000000000008B R
(1782313747.801210) can0 541#000010000001BECC R
(1782313747.801330) can0 12D#00000000000000D4 R
(1782313747.801440) can0 12D#0000000000000035 R
(1782313747.801630) can0 12E#000000000000C0CF R
(1782313747.819613) can0 450#0000000000002800 R
(1782313747.819743) can0 121#00A601CF048000B3 R
(1782313747.819853) can0 129#00000001000000BA R
(1782313747.819962) can0 120#00000000000000BE R
(1782313747.820068) can0 541#000010000001BE2D R
(1782313747.820175) can0 12D#000000000000005F R
(1782313747.825074) can0 12D#000000000000006A R
(1782313747.825198) can0 12E#000000000000C02E R
(1782313747.825307) can0 121#00A601CF048000D9 R
(1782313747.825455) can0 129#00000001000000D0 R
(1782313747.825601) can0 540#0000401100011100 R
(1782313747.825723) can0 5B0#10000000000000D5 R
(1782313747.844273) can0 120#00000000000000D4 R
(1782313747.844552) can0 541#000010000001BE47 R
(1782313747.844682) can0 12D#000000000000008B R
(1782313747.844795) can0 12A#10050000000A00DC R
(1782313747.844907) can0 12D#00000000000000BE R
(1782313747.845016) can0 12E#000000000000C044 R
(1782313747.863255) can0 121#00A601CF04800038 R
(1782313747.874991) can0 129#0000000100000031 R
(1782313747.875131) can0 120#0000000000000035 R
(1782313747.875226) can0 541#000010000001BE72 R
(1782313747.875313) can0 12D#00000000000000D4 R
(1782313747.875408) can0 450#0000000000002800 R
(1782313747.875484) can0 12D#0000000000000035 R
(1782313747.875558) can0 12E#000000000000C071 R
(1782313747.875631) can0 121#00A601CF04800052 R
(1782313747.875721) can0 129#000000010000005B R
(1782313747.875861) can0 120#000000000000005F R
(1782313747.883392) can0 541#000010000001BE93 R
(1782313747.883506) can0 12D#000000000000005F R
(1782313747.883598) can0 12D#000000000000006A R
(1782313747.883688) can0 12E#000000000000C090 R
(1782313747.883779) can0 12A#10050000000A003D R
(1782313747.883903) can0 5A0#00000000040000DA R
(1782313747.899930) can0 121#00A601CF04800067 R
(1782313747.900044) can0 129#000000010000006E R
(1782313747.900138) can0 120#000000000000006A R
(1782313747.900227) can0 541#000010000001BEA6 R
(1782313747.900316) can0 12D#000000000000008B R
(1782313747.900442) can0 12D#00000000000000BE R
(1782313747.909694) can0 12E#000000000000C0A5 R
(1782313747.909805) can0 450#0000000000002800 R
(1782313747.909908) can0 121#00A601CF04800086 R
(1782313747.909998) can0 129#000000010000008F R
(1782313747.910088) can0 120#000000000000008B R
(1782313747.910176) can0 541#000010000001BECC R
(1782313747.924316) can0 12D#00000000000000D4 R
(1782313747.924441) can0 12D#0000000000000035 R
(1782313747.924533) can0 12E#000000000000C0CF R
(1782313747.924621) can0 121#00A601CF048000B3 R
(1782313747.924712) can0 129#00000001000000BA R
(1782313747.924801) can0 540#0000401100011100 R
(1782313747.940038) can0 5B0#1000000000000034 R
(1782313747.940172) can0 120#00000000000000BE R
(1782313747.940286) can0 541#000010000001BE2D R
(1782313747.940429) can0 12D#000000000000005F R
(1782313747.940590) can0 12A#10050000000A0057 R
(1782313747.940846) can0 12D#000000000000006A R
(1782313747.949743) can0 12E#000000000000C02E R
(1782313747.949843) can0 121#00A601CF048000D9 R
(1782313747.949933) can0 129#00000001000000D0 R
(1782313747.950034) can0 120#00000000000000D4 R
(1782313747.950124) can0 541#000010000001BE47 R
(1782313747.965124) can0 12D#000000000000008B R
(1782313747.965265) can0 450#0000000000002800 R
(1782313747.965375) can0 12D#00000000000000BE R
(1782313747.965483) can0 12E#000000000000C044 R
(1782313747.965592) can0 121#00A601CF04800038 R
(1782313747.965700) can0 129#0000000100000031 R
(1782313747.980563) can0 120#0000000000000035 R
(1782313747.980688) can0 541#000010000001BE72 R
(1782313747.980936) can0 12D#00000000000000D4 R
(1782313747.981130) can0 12D#0000000000000035 R
(1782313747.981235) can0 12E#000000000000C071 R
(1782313747.981341) can0 12A#10050000000A0062 R
(1782313747.999705) can0 5A0#000000000400003B R
(1782313747.999882) can0 121#00A601CF04800052 R
(1782313748.000010) can0 129#000000010000005B R
(1782313748.000139) can0 120#000000000000005F R
(1782313748.000267) can0 541#000010000001BE93 R
(1782313748.000389) can0 12D#000000000000005F R
(1782313748.011181) can0 12D#000000000000006A R
(1782313748.011326) can0 12E#000000000000C090 R
(1782313748.011429) can0 450#0000000000002800 R
(1782313748.011564) can0 121#00A601CF04800067 R
(1782313748.011828) can0 129#000000010000006E R
(1782313748.011991) can0 120#000000000000006A R
(1782313748.023732) can0 541#000010000001BEA6 R
(1782313748.023859) can0 12D#000000000000008B R
(1782313748.023969) can0 12D#00000000000000BE R
(1782313748.024076) can0 12E#000000000000C0A5 R
(1782313748.024183) can0 121#00A601CF04800086 R
(1782313748.030049) can0 129#000000010000008F R
(1782313748.030177) can0 540#0000401100011100 R
(1782313748.030403) can0 5B0#100000000000005E R
(1782313748.030593) can0 120#000000000000008B R
(1782313748.030698) can0 541#000010000001BECC R
(1782313748.030801) can0 12D#00000000000000D4 R
(1782313748.048367) can0 12A#10050000000A0083 R
(1782313748.048525) can0 12D#0000000000000035 R
(1782313748.048647) can0 12E#000000000000C0CF R
(1782313748.048798) can0 121#00A601CF048000B3 R
(1782313748.048920) can0 129#00000001000000BA R
(1782313748.049030) can0 120#00000000000000BE R
(1782313748.063659) can0 541#000010000001BE2D R
(1782313748.063853) can0 12D#000000000000005F R
(1782313748.063966) can0 450#0000000000002800 R
(1782313748.064073) can0 12D#000000000000006A R
(1782313748.064174) can0 12E#000000000000C02E R
(1782313748.064277) can0 121#00A601CF048000D9 R
(1782313748.080332) can0 129#00000001000000D0 R
(1782313748.080476) can0 120#00000000000000D4 R
(1782313748.080582) can0 541#000010000001BE47 R
(1782313748.080735) can0 12D#000000000000008B R
(1782313748.080849) can0 12D#00000000000000BE R
(1782313748.080955) can0 12E#000000000000C044 R
(1782313748.089989) can0 12A#10050000000A00B6 R
(1782313748.090230) can0 5A0#0000000004000051 R
(1782313748.090420) can0 121#00A601CF04800038 R
(1782313748.090606) can0 129#0000000100000031 R
(1782313748.090790) can0 120#0000000000000035 R
(1782313748.090993) can0 541#000010000001BE72 R
(1782313748.103746) can0 12D#00000000000000D4 R
(1782313748.104009) can0 12D#0000000000000035 R
(1782313748.104257) can0 12E#000000000000C071 R
(1782313748.104502) can0 450#0000000000002800 R
(1782313748.104749) can0 121#00A601CF04800052 R
(1782313748.127437) can0 129#000000010000005B R
(1782313748.127751) can0 120#000000000000005F R
(1782313748.127843) can0 541#000010000001BE93 R
(1782313748.127922) can0 12D#000000000000005F R
(1782313748.127998) can0 12D#000000000000006A R
(1782313748.128073) can0 12E#000000000000C090 R
(1782313748.129783) can0 121#00A601CF04800067 R
(1782313748.129861) can0 129#000000010000006E R
(1782313748.129938) can0 540#0000401100011100 R
(1782313748.130016) can0 5B0#100000000000006B R
(1782313748.130093) can0 120#000000000000006A R
(1782313748.130167) can0 541#000010000001BEA6 R
(1782313748.145055) can0 12D#000000000000008B R
(1782313748.145139) can0 12A#10050000000A00DC R
(1782313748.145216) can0 12D#00000000000000BE R
(1782313748.145290) can0 12E#000000000000C0A5 R
(1782313748.145369) can0 121#00A601CF04800086 R
(1782313748.145444) can0 129#000000010000008F R
(1782313748.163365) can0 120#000000000000008B R
(1782313748.163460) can0 541#000010000001BECC R
(1782313748.163550) can0 12D#00000000000000D4 R
(1782313748.163636) can0 450#0000000000002800 R
(1782313748.163724) can0 12D#0000000000000035 R
(1782313748.163809) can0 12E#000000000000C0CF R
(1782313748.179963) can0 121#00A601CF048000B3 R
(1782313748.180064) can0 129#00000001000000BA R
(1782313748.180153) can0 120#00000000000000BE R
(1782313748.180241) can0 541#000010000001BE2D R
(1782313748.180327) can0 12D#000000000000005F R
(1782313748.185328) can0 12D#000000000000006A R
(1782313748.185427) can0 12E#000000000000C02E R
(1782313748.185515) can0 12A#10050000000A003D R
(1782313748.185609) can0 5A0#0000000004000064 R
(1782313748.185695) can0 121#00A601CF048000D9 R
(1782313748.185824) can0 129#00000001000000D0 R
(1782313748.203454) can0 120#00000000000000D4 R
(1782313748.203564) can0 541#000010000001BE47 R
(1782313748.203667) can0 12D#000000000000008B R
(1782313748.203771) can0 12D#00000000000000BE R
(1782313748.203874) can0 12E#000000000000C044 R
(1782313748.203977) can0 450#0000000000002800 R
(1782313748.219989) can0 121#00A601CF04800038 R
(1782313748.220151) can0 129#0000000100000031 R
(1782313748.220253) can0 120#0000000000000035 R
(1782313748.220352) can0 541#000010000001BE72 R
(1782313748.220453) can0 12D#00000000000000D4 R
(1782313748.220559) can0 12D#0000000000000035 R
(1782313748.228364) can0 12E#000000000000C071 R
(1782313748.228490) can0 121#00A601CF04800052 R
(1782313748.228588) can0 129#000000010000005B R
(1782313748.228686) can0 540#0000401100011100 R
(1782313748.228785) can0 5B0#100000000000008A R
(1782313748.228887) can0 120#000000000000005F R
(1782313748.243634) can0 541#000010000001BE93 R
(1782313748.243790) can0 12D#000000000000005F R
(1782313748.243892) can0 12A#10050000000A0057 R
(1782313748.243990) can0 12D#000000000000006A R
(1782313748.244085) can0 12E#000000000000C090 R
(1782313748.244182) can0 121#00A601CF04800067 R
(1782313748.259958) can0 129#000000010000006E R
(1782313748.260345) can0 120#000000000000006A R
(1782313748.260730) can0 541#000010000001BEA6 R
(1782313748.261005) can0 12D#000000000000008B R
(1782313748.261258) can0 450#0000000000002800 R
(1782313748.269787) can0 12D#00000000000000BE R
(1782313748.270084) can0 12E#000000000000C0A5 R
(1782313748.270348) can0 121#00A601CF04800086 R
(1782313748.270598) can0 129#000000010000008F R
(1782313748.270850) can0 120#000000000000008B R
(1782313748.271095) can0 541#000010000001BECC R
(1782313748.283681) can0 12D#00000000000000D4 R
(1782313748.283820) can0 12D#0000000000000035 R
(1782313748.283933) can0 12E#000000000000C0CF R
(1782313748.284043) can0 12A#10050000000A0062 R
(1782313748.284149) can0 5A0#0000000004000085 R
(1782313748.284254) can0 121#00A601CF048000B3 R
(1782313748.301111) can0 129#00000001000000BA R
(1782313748.301326) can0 120#00000000000000BE R
(1782313748.301498) can0 541#000010000001BE2D R
(1782313748.301643) can0 12D#000000000000005F R
(1782313748.301815) can0 12D#000000000000006A R
(1782313748.301938) can0 12E#000000000000C02E R
(1782313748.319799) can0 450#0000000000002800 R
(1782313748.319955) can0 121#00A601CF048000D9 R
(1782313748.320098) can0 129#00000001000000D0 R
(1782313748.320237) can0 120#00000000000000D4 R
(1782313748.320389) can0 541#000010000001BE47 R
(1782313748.320526) can0 12D#000000000000008B R
(1782313748.324152) can0 12D#00000000000000BE R
(1782313748.324340) can0 12E#000000000000C044 R
(1782313748.324518) can0 121#00A601CF04800038 R
(1782313748.324694) can0 129#0000000100000031 R
(1782313748.324877) can0 540#0000401100011100 R
(1782313748.339881) can0 5B0#10000000000000BF R
(1782313748.340148) can0 120#0000000000000035 R
(1782313748.340336) can0 541#000010000001BE72 R
(1782313748.340435) can0 12D#00000000000000D4 R
(1782313748.340535) can0 12A#10050000000A0083 R
(1782313748.340711) can0 12D#0000000000000035 R
(1782313748.351157) can0 12E#000000000000C071 R
(1782313748.351365) can0 121#00A601CF04800052 R
(1782313748.351546) can0 129#000000010000005B R
(1782313748.351725) can0 120#000000000000005F R
(1782313748.351907) can0 541#000010000001BE93 R
(1782313748.352086) can0 12D#000000000000005F R
(1782313748.369996) can0 450#0000000000002800 R
(1782313748.370304) can0 12D#000000000000006A R
(1782313748.370411) can0 12E#000000000000C090 R
(1782313748.370529) can0 121#00A601CF04800067 R
(1782313748.370620) can0 129#000000010000006E R
(1782313748.370713) can0 120#000000000000006A R
(1782313748.383392) can0 541#000010000001BEA6 R
(1782313748.383491) can0 12D#000000000000008B R
(1782313748.383580) can0 12D#00000000000000BE R
(1782313748.383667) can0 12E#000000000000C0A5 R
(1782313748.383756) can0 12A#10050000000A00B6 R
(1782313748.383843) can0 5A0#00000000040000B0 R
(1782313748.399956) can0 121#00A601CF04800086 R
(1782313748.400097) can0 129#000000010000008F R
(1782313748.400199) can0 120#000000000000008B R
(1782313748.400300) can0 541#000010000001BECC R
(1782313748.400400) can0 12D#00000000000000D4 R
(1782313748.400500) can0 12D#0000000000000035 R
(1782313748.408580) can0 12E#000000000000C0CF R
(1782313748.408703) can0 450#0000000000002800 R
(1782313748.408813) can0 121#00A601CF048000B3 R
(1782313748.408917) can0 129#00000001000000BA R
(1782313748.409021) can0 120#00000000000000BE R
(1782313748.423857) can0 541#000010000001BE2D R
(1782313748.424034) can0 12D#000000000000005F R
(1782313748.424148) can0 12D#000000000000006A R
(1782313748.424260) can0 12E#000000000000C02E R
(1782313748.424368) can0 121#00A601CF048000D9 R
(1782313748.424477) can0 129#00000001000000D0 R
(1782313748.439705) can0 540#0000401100011100 R
(1782313748.439872) can0 5B0#10000000000000D5 R
(1782313748.440003) can0 120#00000000000000D4 R
(1782313748.440126) can0 541#000010000001BE47 R
(1782313748.440250) can0 12D#000000000000008B R
