(1781871007.639581) can0 12D#0000000000000000 R
(1781871007.640053) can0 12D#0000000000000000 R
(1781871007.640360) can0 12D#0000000000000000 R
(1781871007.640622) can0 12D#0000000000000000 R
(1781871007.640873) can0 12D#0000000000000000 R
(1781871007.641121) can0 12D#0000000000000000 R
(1781871007.641367) can0 12D#0000000000000000 R
(1781871007.641636) can0 12D#0000000000000000 R
(1781871007.641885) can0 12D#0000000000000000 R
(1781871007.642128) can0 12D#0000000000000000 R
(1781871007.642371) can0 12D#0000000000000000 R
(1781871007.642616) can0 12D#0000000000000000 R
(1781871007.642860) can0 12D#0000000000000000 R
(1781871007.643197) can0 12D#0000000000000000 R
(1781871007.643305) can0 12D#0000000000000000 R
(1781871007.643404) can0 12D#0000000000000000 R
(1781871007.643502) can0 12D#0000000000000000 R
(1781871007.643600) can0 12D#0000000000000000 R
(1781871007.643699) can0 12D#0000000000000000 R
(1781871007.644885) can0 12D#0000000000000000 R
(1781871007.645020) can0 12D#0000000000000000 R
(1781871007.645122) can0 12D#0000000000000035 R
(1781871007.645222) can0 12D#0000000000000035 R
(1781871007.645319) can0 12D#0000000000000035 R
(1781871007.645416) can0 12D#0000000000000035 R
(1781871007.646271) can0 12D#0000000000000035 R
(1781871007.646378) can0 12D#0000000000000035 R
(1781871007.646483) can0 12D#0000000000000035 R
(1781871007.646587) can0 12D#0000000000000035 R
(1781871007.646691) can0 12D#0000000000000035 R
(1781871007.647801) can0 12D#0000000000000035 R
(1781871007.647928) can0 12D#0000000000000035 R
(1781871007.648033) can0 12D#0000000000000035 R
(1781871007.648139) can0 12D#0000000000000035 R
(1781871007.648242) can0 12D#0000000000000035 R
(1781871007.648346) can0 12D#0000000000000035 R
(1781871007.649474) can0 12D#0000000000000035 R
(1781871007.649585) can0 12D#0000000000000035 R
(1781871007.649689) can0 12D#0000000000000035 R
(1781871007.649793) can0 12D#0000000000000035 R
(1781871007.649896) can0 12D#0000000000000035 R
(1781871007.650009) can0 12D#0000000000000035 R
(1781871007.651129) can0 12D#0000000000000035 R
(1781871007.651241) can0 12D#0000000000000035 R
(1781871007.651346) can0 12D#0000000000000035 R
(1781871007.651450) can0 12D#0000000000000035 R
(1781871007.651554) can0 12D#0000000000000035 R
(1781871007.651658) can0 12D#0000000000000035 R
(1781871007.652801) can0 12D#0000000000000035 R
(1781871007.652908) can0 12D#0000000000000035 R
(1781871007.653011) can0 12D#0000000000000035 R
(1781871007.653115) can0 12D#0000000000000035 R
(1781871007.653219) can0 12D#0000000000000035 R
(1781871007.653324) can0 12D#0000000000000035 R
(1781871007.654206) can0 12D#0000000000000035 R
(1781871007.654324) can0 12D#0000000000000035 R
(1781871007.654440) can0 12D#0000000000000035 R
(1781871007.654555) can0 12D#0000000000000035 R
(1781871007.654671) can0 12D#000000000000005F R
(1781871007.654787) can0 12D#000000000000005F R
(1781871007.655890) can0 12D#000000000000005F R
(1781871007.656007) can0 12D#000000000000005F R
(1781871007.656123) can0 12D#000000000000005F R
(1781871007.656239) can0 12D#000000000000005F R
(1781871007.656353) can0 12D#000000000000005F R
(1781871007.657436) can0 12D#000000000000005F R
(1781871007.657565) can0 12D#000000000000005F R
(1781871007.657682) can0 12D#000000000000005F R
(1781871007.657798) can0 12D#000000000000005F R
(1781871007.657913) can0 12D#000000000000005F R
(1781871007.658028) can0 12D#000000000000005F R
(1781871007.668363) can0 12E#0000000000000000 R
(1781871007.668575) can0 12D#000000000000006A R
(1781871007.668758) can0 12E#0000000000000035 R
(1781871007.668935) can0 121#0000000004840010 R
(1781871007.669111) can0 129#0000000100000004 R
(1781871007.669286) can0 540#0000000000000000 R
(1781871007.687354) can0 5B0#0000000000000000 R
(1781871007.687608) can0 120#0000000000000000 R
(1781871007.687851) can0 12D#000000000000008B R
(1781871007.688091) can0 12A#10010000000A001D R
(1781871007.688332) can0 12D#00000000000000BE R
(1781871007.688575) can0 12E#000000000000005F R
(1781871007.707662) can0 121#0000000004840025 R
(1781871007.707908) can0 129#0000000100000031 R
(1781871007.708147) can0 120#0000000000000035 R
(1781871007.708388) can0 12D#00000000000000D4 R
(1781871007.708629) can0 12D#0000000000000035 R
(1781871007.708869) can0 12E#000000000000006A R
(1781871007.724216) can0 121#00AC01D604800053 R
(1781871007.724471) can0 129#000000010000005B R
(1781871007.724714) can0 120#000000000000005F R
(1781871007.724953) can0 12D#000000000000005F R
(1781871007.725212) can0 12D#000000000000006A R
(1781871007.733789) can0 12E#000000000000008B R
(1781871007.734054) can0 12A#10010000000A0028 R
(1781871007.734297) can0 5A0#0000000000000000 R
(1781871007.734536) can0 121#00AC01D604800066 R
(1781871007.734776) can0 129#000000010000006E R
(1781871007.735016) can0 120#000000000000006A R
(1781871007.747589) can0 12D#000000000000008B R
(1781871007.748454) can0 12D#00000000000000BE R
(1781871007.748696) can0 12E#00000000000000BE R
(1781871007.748936) can0 121#00AC01D604800087 R
(1781871007.767564) can0 129#000000010000008F R
(1781871007.767816) can0 120#000000000000008B R
(1781871007.768059) can0 12D#00000000000000D4 R
(1781871007.768301) can0 12D#0000000000000035 R
(1781871007.768542) can0 12E#00000000000000D4 R
(1781871007.774010) can0 121#00AC01D6048000B2 R
(1781871007.774267) can0 129#00000001000000BA R
(1781871007.774507) can0 540#000000010000FC00 R
(1781871007.774745) can0 5B0#0000000000000035 R
(1781871007.774984) can0 120#00000000000000BE R
(1781871007.775222) can0 12D#000000000000005F R
(1781871007.793776) can0 12A#10010000000A0042 R
(1781871007.794030) can0 12D#000000000000006A R
(1781871007.794274) can0 12E#0000000000000035 R
(1781871007.794535) can0 121#00AC01D6048000D8 R
(1781871007.794758) can0 129#00000001000000D0 R
(1781871007.795064) can0 120#00000000000000D4 R
(1781871007.813840) can0 12D#000000000000008B R
(1781871007.814093) can0 12D#00000000000000BE R
(1781871007.814333) can0 12E#000000000000005F R
(1781871007.814572) can0 121#00AC01D604800039 R
(1781871007.814809) can0 129#0000000100000031 R
(1781871007.815049) can0 120#0000000000000035 R
(1781871007.827694) can0 12D#00000000000000D4 R
(1781871007.827904) can0 12D#0000000000000035 R
(1781871007.828092) can0 12E#000000000000006A R
(1781871007.828266) can0 12A#10010000000A0077 R
(1781871007.828441) can0 5A0#0000000000000035 R
(1781871007.828615) can0 121#00AC01D604800053 R
(1781871007.847710) can0 129#000000010000005B R
(1781871007.847954) can0 120#000000000000005F R
(1781871007.848193) can0 12D#000000000000005F R
(1781871007.848432) can0 12D#000000000000006A R
(1781871007.848670) can0 12E#000000000000008B R
(1781871007.848844) can0 121#00AC01D604800066 R
(1781871007.867496) can0 129#000000010000006E R
(1781871007.867740) can0 120#000000000000006A R
(1781871007.867977) can0 12D#000000000000008B R
(1781871007.868215) can0 12D#00000000000000BE R
(1781871007.868455) can0 12E#00000000000000BE R
(1781871007.873891) can0 121#00AC01D604800087 R
(1781871007.874142) can0 129#000000010000008F R
(1781871007.874383) can0 540#000000010000FC00 R
(1781871007.874620) can0 5B0#100000000000005E R
(1781871007.874860) can0 120#000000000000008B R
(1781871007.875112) can0 541#000110000004C117 R
(1781871007.889081) can0 12D#00000000000000D4 R
(1781871007.889327) can0 12A#10010000000A0096 R
(1781871007.889568) can0 12D#0000000000000035 R
(1781871007.889808) can0 12E#00000000000000D4 R
(1781871007.890047) can0 121#00AC01D6048000B2 R
(1781871007.890324) can0 129#00000001000000BA R
(1781871007.907403) can0 120#00000000000000BE R
(1781871007.907652) can0 541#000110000004C122 R
(1781871007.907896) can0 12D#000000000000005F R
(1781871007.908138) can0 450#0000000000002800 R
(1781871007.908380) can0 12D#000000000000006A R
(1781871007.908622) can0 12E#0000000000000035 R
(1781871007.924209) can0 121#00A601CF048000D9 R
(1781871007.924468) can0 129#00000001000000D0 R
(1781871007.924712) can0 120#00000000000000D4 R
(1781871007.924951) can0 541#000110000004C148 R
(1781871007.925191) can0 12D#000000000000008B R
(1781871007.925431) can0 12D#00000000000000BE R
(1781871007.929211) can0 12E#000000000000005F R
(1781871007.929457) can0 12A#10010000000A00A3 R
(1781871007.929697) can0 5A0#000000000000005F R
(1781871007.929970) can0 121#00A601CF04800038 R
(1781871007.930211) can0 129#0000000100000031 R
(1781871007.947285) can0 120#0000000000000035 R
(1781871007.947541) can0 541#000110000004C17D R
(1781871007.947781) can0 12D#00000000000000D4 R
(1781871007.948023) can0 12D#0000000000000035 R
(1781871007.948263) can0 12E#000000000000006A R
(1781871007.948501) can0 450#0000000000002800 R
(1781871007.963934) can0 121#00A601CF04800052 R
(1781871007.964188) can0 129#000000010000005B R
(1781871007.964429) can0 120#000000000000005F R
(1781871007.964669) can0 541#000110000004C19C R
(1781871007.964909) can0 12D#000000000000005F R
(1781871007.965148) can0 12D#000000000000006A R
(1781871007.970576) can0 12E#000000000000008B R
(1781871007.970821) can0 121#00A601CF04800067 R
(1781871007.971061) can0 129#000000010000006E R
(1781871007.971302) can0 540#000000110000FC00 R
(1781871007.971540) can0 5B0#100000000000006B R
(1781871007.971778) can0 120#000000000000006A R
(1781871007.987661) can0 541#000110000004C1A9 R
(1781871007.987901) can0 12D#000000000000008B R
(1781871007.988141) can0 12A#10010000000A00C9 R
(1781871007.988380) can0 12D#00000000000000BE R
(1781871007.988619) can0 12E#00000000000000BE R
(1781871007.988860) can0 121#00A601CF04800086 R
(1781871008.004205) can0 129#000000010000008F R
(1781871008.004478) can0 120#000000000000008B R
(1781871008.004731) can0 541#000110000004C1C3 R
(1781871008.005092) can0 12D#00000000000000D4 R
(1781871008.005342) can0 450#0000000000002800 R
(1781871008.005589) can0 12D#0000000000000035 R
(1781871008.014499) can0 12E#00000000000000D4 R
(1781871008.014777) can0 121#00A601CF048000B3 R
(1781871008.015031) can0 129#00000001000000BA R
(1781871008.015286) can0 120#00000000000000BE R
(1781871008.015535) can0 541#000110000004C122 R
(1781871008.027592) can0 12D#000000000000005F R
(1781871008.027845) can0 12D#000000000000006A R
(1781871008.028087) can0 12E#0000000000000035 R
(1781871008.028329) can0 12A#10010000000A0028 R
(1781871008.028571) can0 5A0#000000000000006A R
(1781871008.028810) can0 121#00A601CF048000D9 R
(1781871008.045251) can0 129#00000001000000D0 R
(1781871008.045509) can0 120#00000000000000D4 R
(1781871008.045754) can0 541#000110000004C148 R
(1781871008.045996) can0 12D#000000000000008B R
(1781871008.046237) can0 12D#00000000000000BE R
(1781871008.046480) can0 12E#000000000000005F R
(1781871008.064153) can0 450#0000000000002800 R
(1781871008.064399) can0 121#00A601CF04800038 R
(1781871008.064640) can0 129#0000000100000031 R
(1781871008.064884) can0 120#0000000000000035 R
(1781871008.065126) can0 541#000110000004C17D R
(1781871008.065379) can0 12D#00000000000000D4 R
(1781871008.069199) can0 12D#0000000000000035 R
(1781871008.069453) can0 12E#000000000000006A R
(1781871008.069696) can0 121#00A601CF04800052 R
(1781871008.069937) can0 129#000000010000005B R
(1781871008.070178) can0 540#000040100000FC00 R
(1781871008.070419) can0 5B0#100000000000008A R
(1781871008.084478) can0 120#000000000000005F R
(1781871008.084723) can0 541#000110000004C19C R
(1781871008.084964) can0 12D#000000000000005F R
(1781871008.085207) can0 12A#10010000000A0042 R
(1781871008.085455) can0 12D#000000000000006A R
(1781871008.095257) can0 12E#000000000000008B R
(1781871008.095516) can0 121#00A601CF04800067 R
(1781871008.095758) can0 129#000000010000006E R
(1781871008.095999) can0 120#000000000000006A R
(1781871008.096240) can0 541#000110000004C1A9 R
(1781871008.096483) can0 12D#000000000000008B R
(1781871008.110528) can0 450#0000000000002800 R
(1781871008.110781) can0 12D#00000000000000BE R
(1781871008.111020) can0 12E#00000000000000BE R
(1781871008.111260) can0 121#00A601CF04800086 R
(1781871008.111500) can0 129#000000010000008F R
(1781871008.111746) can0 120#000000000000008B R
(1781871008.127440) can0 541#000110000004C1C3 R
(1781871008.127706) can0 12D#00000000000000D4 R
(1781871008.127953) can0 12D#0000000000000035 R
(1781871008.128196) can0 12E#00000000000000D4 R
(1781871008.128436) can0 12A#10010000000A0077 R
(1781871008.128677) can0 5A0#000000000000008B R
(1781871008.144391) can0 121#00A601CF048000B3 R
(1781871008.144637) can0 129#00000001000000BA R
(1781871008.144878) can0 120#00000000000000BE R
(1781871008.145118) can0 541#000110000004C122 R
(1781871008.145358) can0 12D#000000000000005F R
(1781871008.145595) can0 12D#000000000000006A R
(1781871008.154377) can0 12E#0000000000000035 R
(1781871008.154618) can0 450#0000000000002800 R
(1781871008.154858) can0 121#00A601CF048000D9 R
(1781871008.155103) can0 129#00000001000000D0 R
(1781871008.155341) can0 120#00000000000000D4 R
(1781871008.155579) can0 541#000110000004C148 R
(1781871008.168226) can0 12D#000000000000008B R
(1781871008.168470) can0 12D#00000000000000BE R
(1781871008.168709) can0 12E#000000000000005F R
(1781871008.168949) can0 121#00A601CF04800038 R
(1781871008.169190) can0 129#0000000100000031 R
(1781871008.184023) can0 540#000040100000FC00 R
(1781871008.184278) can0 5B0#10000000000000BF R
(1781871008.184519) can0 120#0000000000000035 R
(1781871008.184759) can0 541#000110000004C17D R
(1781871008.184997) can0 12D#00000000000000D4 R
(1781871008.185236) can0 12A#10010000000A0096 R
(1781871008.194257) can0 12D#0000000000000035 R
(1781871008.194512) can0 12E#000000000000006A R
(1781871008.194758) can0 121#00A601CF04800052 R
(1781871008.195000) can0 129#000000010000005B R
(1781871008.195241) can0 120#000000000000005F R
(1781871008.195482) can0 541#000110000004C19C R
(1781871008.209209) can0 12D#000000000000005F R
(1781871008.209454) can0 450#0000000000002800 R
(1781871008.209693) can0 12D#000000000000006A R
(1781871008.209935) can0 12E#000000000000008B R
(1781871008.210174) can0 121#00A601CF04800067 R
(1781871008.210413) can0 129#000000010000006E R
(1781871008.224982) can0 120#000000000000006A R
(1781871008.225224) can0 541#000110000004C1A9 R
(1781871008.225469) can0 12D#000000000000008B R
(1781871008.225708) can0 12D#00000000000000BE R
(1781871008.225947) can0 12E#00000000000000BE R
(1781871008.226186) can0 12A#10010000000A00A3 R
(1781871008.234392) can0 5A0#00000000000000BE R
(1781871008.234634) can0 121#00A601CF04800086 R
(1781871008.234872) can0 129#000000010000008F R
(1781871008.235112) can0 120#000000000000008B R
(1781871008.235355) can0 541#000110000004C1C3 R
(1781871008.249031) can0 12D#00000000000000D4 R
(1781871008.249288) can0 12D#0000000000000035 R
(1781871008.249528) can0 12E#00000000000000D4 R
(1781871008.249769) can0 450#0000000000002800 R
(1781871008.250008) can0 121#00A601CF048000B3 R
(1781871008.250248) can0 129#00000001000000BA R
(1781871008.267640) can0 120#00000000000000BE R
(1781871008.267900) can0 541#000110000004C122 R
(1781871008.268144) can0 12D#000000000000005F R
(1781871008.268384) can0 12D#000000000000006A R
(1781871008.268623) can0 12E#0000000000000035 R
(1781871008.268863) can0 121#00A601CF048000D9 R
(1781871008.274498) can0 129#00000001000000D0 R
(1781871008.274742) can0 540#000040100000FC00 R
(1781871008.274982) can0 5B0#10000000000000D5 R
(1781871008.275222) can0 120#00000000000000D4 R
(1781871008.275464) can0 541#000110000004C148 R
(1781871008.275704) can0 12D#000000000000008B R
(1781871008.290622) can0 12A#10010000000A00C9 R
(1781871008.290869) can0 12D#00000000000000BE R
(1781871008.291108) can0 12E#000000000000005F R
(1781871008.291348) can0 121#00A601CF04800038 R
(1781871008.291589) can0 129#0000000100000031 R
(1781871008.291829) can0 120#0000000000000035 R
(1781871008.307752) can0 541#000110000004C17D R
(1781871008.307995) can0 12D#00000000000000D4 R
(1781871008.308234) can0 450#0000000000002800 R
(1781871008.308475) can0 12D#0000000000000035 R
(1781871008.308714) can0 12E#000000000000006A R
(1781871008.308954) can0 121#00A601CF04800052 R
(1781871008.324609) can0 129#000000010000005B R
(1781871008.324851) can0 120#000000000000005F R
(1781871008.325090) can0 541#000110000004C19C R
(1781871008.325329) can0 12D#000000000000005F R
(1781871008.325569) can0 12D#000000000000006A R
(1781871008.330509) can0 12E#000000000000008B R
(1781871008.330763) can0 12A#10010000000A0028 R
(1781871008.331003) can0 5A0#00000000000000D4 R
(1781871008.331241) can0 121#00A601CF04800067 R
(1781871008.331479) can0 129#000000010000006E R
(1781871008.331718) can0 120#000000000000006A R
(1781871008.347684) can0 541#000110000004C1A9 R
(1781871008.347928) can0 12D#000000000000008B R
(1781871008.348167) can0 12D#00000000000000BE R
(1781871008.348406) can0 12E#00000000000000BE R
(1781871008.348646) can0 450#0000000000002800 R
(1781871008.348885) can0 121#00A601CF04800086 R
(1781871008.367451) can0 129#000000010000008F R
(1781871008.367694) can0 120#000000000000008B R
(1781871008.367933) can0 541#000110000004C1C3 R
(1781871008.368174) can0 12D#00000000000000D4 R
(1781871008.368413) can0 12D#0000000000000035 R
(1781871008.368652) can0 12E#00000000000000D4 R
(1781871008.374363) can0 121#00A601CF048000B3 R
(1781871008.374604) can0 129#00000001000000BA R
(1781871008.374844) can0 540#000040100000FC00 R
(1781871008.375084) can0 5B0#1000000000000034 R
(1781871008.375325) can0 120#00000000000000BE R
(1781871008.375568) can0 541#000110000004C122 R
(1781871008.387791) can0 12D#000000000000005F R
(1781871008.388034) can0 12A#10010000000A0042 R
(1781871008.388273) can0 12D#000000000000006A R
(1781871008.388512) can0 12E#0000000000000035 R
(1781871008.388750) can0 121#00A601CF048000D9 R
(1781871008.404286) can0 129#00000001000000D0 R
(1781871008.404539) can0 120#00000000000000D4 R
(1781871008.404781) can0 541#000110000004C148 R
(1781871008.405022) can0 12D#000000000000008B R
(1781871008.405260) can0 450#0000000000002800 R
(1781871008.405499) can0 12D#00000000000000BE R
(1781871008.424138) can0 12E#000000000000005F R
(1781871008.424416) can0 121#00A601CF04800038 R
(1781871008.424673) can0 129#0000000100000031 R
(1781871008.424924) can0 120#0000000000000035 R
(1781871008.425177) can0 541#000110000004C17D R
(1781871008.425427) can0 12D#00000000000000D4 R
(1781871008.429431) can0 12D#0000000000000035 R
(1781871008.429685) can0 12E#000000000000006A R
(1781871008.429932) can0 12A#10010000000A0077 R
(1781871008.430176) can0 5A0#0000000000000035 R
(1781871008.430420) can0 121#00A601CF04800052 R
(1781871008.430665) can0 129#000000010000005B R
(1781871008.447483) can0 120#000000000000005F R
(1781871008.447728) can0 541#000110000004C19C R
(1781871008.447971) can0 12D#000000000000005F R
(1781871008.448215) can0 12D#000000000000006A R
(1781871008.448457) can0 12E#000000000000008B R
(1781871008.448699) can0 450#0000000000002800 R
(1781871008.464458) can0 121#00A601CF04800067 R
(1781871008.464703) can0 129#000000010000006E R
(1781871008.464945) can0 120#000000000000006A R
(1781871008.465188) can0 541#000110000004C1A9 R
(1781871008.465430) can0 12D#000000000000008B R
(1781871008.465673) can0 12D#00000000000000BE R
(1781871008.469340) can0 12E#00000000000000BE R
(1781871008.469586) can0 121#00A601CF04800086 R
(1781871008.469828) can0 129#000000010000008F R
(1781871008.470071) can0 540#000040100000FC00 R
(1781871008.470314) can0 5B0#100000000000005E R
(1781871008.487368) can0 120#000000000000008B R
(1781871008.487624) can0 541#000110000004C1C3 R
(1781871008.487863) can0 12D#00000000000000D4 R
(1781871008.488107) can0 12A#10010000000A0096 R
(1781871008.488349) can0 12D#0000000000000035 R
(1781871008.488590) can0 12E#00000000000000D4 R
(1781871008.504112) can0 121#00A601CF048000B3 R
(1781871008.504368) can0 129#00000001000000BA R
(1781871008.504612) can0 120#00000000000000BE R
(1781871008.504853) can0 541#000110000004C122 R
(1781871008.505095) can0 12D#000000000000005F R
(1781871008.505334) can0 450#0000000000002800 R
(1781871008.514313) can0 12D#000000000000006A R
(1781871008.514559) can0 12E#0000000000000035 R
(1781871008.514799) can0 121#00A601CF048000D9 R
(1781871008.515041) can0 129#00000001000000D0 R
(1781871008.515281) can0 120#00000000000000D4 R
(1781871008.515521) can0 541#000010000004C140 R
(1781871008.527841) can0 12D#000000000000008B R
(1781871008.528088) can0 12D#00000000000000BE R
(1781871008.528330) can0 12E#000000000000005F R
(1781871008.528571) can0 12A#10010000000A00A3 R
(1781871008.528812) can0 5A0#000000000000005F R
(1781871008.529053) can0 121#00A601CF04800038 R
(1781871008.544450) can0 129#0000000100000031 R
(1781871008.544694) can0 120#0000000000000035 R
(1781871008.544934) can0 541#000010000004C175 R
(1781871008.545175) can0 12D#00000000000000D4 R
(1781871008.545414) can0 12D#0000000000000035 R
(1781871008.554208) can0 12E#000000000000006A R
(1781871008.554463) can0 450#0000000000002800 R
(1781871008.554704) can0 121#00A601CF04800052 R
(1781871008.554944) can0 129#000000010000005B R
(1781871008.555183) can0 120#000000000000005F R
(1781871008.555422) can0 541#000010000004C194 R
(1781871008.568163) can0 12D#000000000000005F R
(1781871008.568417) can0 12D#000000000000006A R
(1781871008.568656) can0 12E#000000000000008B R
(1781871008.568895) can0 121#00A601CF04800067 R
(1781871008.569135) can0 129#000000010000006E R
(1781871008.569374) can0 540#000040100000FC00 R
(1781871008.584372) can0 5B0#100000000000006B R
(1781871008.584616) can0 120#000000000000006A R
(1781871008.584858) can0 541#000010000004C1A1 R
(1781871008.585098) can0 12D#000000000000008B R
(1781871008.585336) can0 12A#10010000000A00C9 R
(1781871008.585576) can0 12D#00000000000000BE R
(1781871008.595399) can0 12E#00000000000000BE R
(1781871008.595643) can0 121#00A601CF04800086 R
(1781871008.595881) can0 129#000000010000008F R
(1781871008.596121) can0 120#000000000000008B R
(1781871008.596363) can0 541#000010000004C1CB R
(1781871008.596602) can0 12D#00000000000000D4 R
(1781871008.611652) can0 450#0000000000002800 R
(1781871008.611898) can0 12D#0000000000000035 R
(1781871008.612140) can0 12E#00000000000000D4 R
(1781871008.612381) can0 121#00A601CF048000B3 R
(1781871008.612622) can0 129#00000001000000BA R
(1781871008.612863) can0 120#00000000000000BE R
(1781871008.625045) can0 541#000010000004C225 R
(1781871008.625289) can0 12D#000000000000005F R
(1781871008.625529) can0 12D#000000000000006A R
(1781871008.625770) can0 12E#0000000000000035 R
(1781871008.626011) can0 12A#10010000000A0028 R
(1781871008.644033) can0 5A0#000000000000006A R
(1781871008.644287) can0 121#00A601CF048000D9 R
(1781871008.644530) can0 129#00000001000000D0 R
(1781871008.644772) can0 120#00000000000000D4 R
(1781871008.645011) can0 541#000010000004C24F R
(1781871008.645252) can0 12D#000000000000008B R
(1781871008.651566) can0 12D#00000000000000BE R
(1781871008.651826) can0 12E#000000000000C044 R
(1781871008.652071) can0 450#0000000000002800 R
(1781871008.652312) can0 121#00A601CF04800038 R
(1781871008.652554) can0 129#0000000100000031 R
(1781871008.652795) can0 120#0000000000000035 R
(1781871008.667964) can0 541#000010000004C27A R
(1781871008.668207) can0 12D#00000000000000D4 R
(1781871008.668446) can0 12D#0000000000000035 R
(1781871008.668686) can0 12E#000000000000C071 R
(1781871008.668924) can0 121#00A601CF04800052 R
(1781871008.669164) can0 129#000000010000005B R
(1781871008.684157) can0 540#000040100000FC00 R
(1781871008.684400) can0 5B0#100000000000008A R
(1781871008.684639) can0 120#000000000000005F R
(1781871008.684878) can0 541#000010000004C29B R
(1781871008.685118) can0 12D#000000000000005F R
(1781871008.685357) can0 12A#10010000000A0042 R
(1781871008.691681) can0 12D#000000000000006A R
(1781871008.691923) can0 12E#000000000000C090 R
(1781871008.692164) can0 121#00A601CF04800067 R
(1781871008.692406) can0 129#000000010000006E R
(1781871008.692668) can0 120#000000000000006A R
(1781871008.707610) can0 541#000010000004C2AE R
(1781871008.707863) can0 12D#000000000000008B R
(1781871008.708103) can0 450#0000000000002800 R
(1781871008.708343) can0 12D#00000000000000BE R
(1781871008.708583) can0 12E#000000000000C0A5 R
(1781871008.708822) can0 121#00A601CF04800086 R
(1781871008.724612) can0 129#000000010000008F R
(1781871008.724865) can0 120#000000000000008B R
(1781871008.725105) can0 541#000010000004C2C4 R
(1781871008.725345) can0 12D#00000000000000D4 R
(1781871008.725588) can0 12D#0000000000000035 R
(1781871008.725825) can0 12E#000000000000C0CF R
(1781871008.734271) can0 12A#10010000000A0077 R
(1781871008.734514) can0 5A0#0000000004000085 R
(1781871008.734755) can0 121#00A601CF048000B3 R
(1781871008.734995) can0 129#00000001000000BA R
(1781871008.735234) can0 120#00000000000000BE R
(1781871008.735474) can0 541#000010000004C225 R
(1781871008.749215) can0 12D#000000000000005F R
(1781871008.749517) can0 12D#000000000000006A R
(1781871008.749772) can0 12E#000000000000C02E R
(1781871008.750013) can0 450#0000000000002800 R
(1781871008.750252) can0 121#00A601CF048000D9 R
(1781871008.750490) can0 129#00000001000000D0 R
(1781871008.767787) can0 120#00000000000000D4 R
(1781871008.768029) can0 541#000010000004C24F R
(1781871008.768269) can0 12D#000000000000008B R
(1781871008.768508) can0 12D#00000000000000BE R
(1781871008.768748) can0 12E#000000000000C044 R
(1781871008.768987) can0 121#00A601CF04800038 R
(1781871008.774352) can0 129#0000000100000031 R
(1781871008.774595) can0 540#000040100000FC00 R
(1781871008.774835) can0 5B0#10000000000000BF R
(1781871008.775075) can0 120#0000000000000035 R
(1781871008.775314) can0 541#000010000004C27A R
(1781871008.789148) can0 12D#00000000000000D4 R
(1781871008.789410) can0 12A#10010000000A0096 R
(1781871008.789652) can0 12D#0000000000000035 R
(1781871008.789892) can0 12E#000000000000C071 R
(1781871008.790131) can0 121#00A601CF04800052 R
(1781871008.790370) can0 129#000000010000005B R
(1781871008.807450) can0 120#000000000000005F R
(1781871008.807719) can0 541#000010000004C29B R
(1781871008.807960) can0 12D#000000000000005F R
(1781871008.808200) can0 450#0000000000002800 R
(1781871008.808441) can0 12D#000000000000006A R
(1781871008.808680) can0 12E#000000000000C090 R
(1781871008.824496) can0 121#00A601CF04800067 R
(1781871008.824744) can0 129#000000010000006E R
(1781871008.824983) can0 120#000000000000006A R
(1781871008.825224) can0 541#000010000004C2AE R
(1781871008.825462) can0 12D#000000000000008B R
(1781871008.825706) can0 12D#00000000000000BE R
(1781871008.831632) can0 12E#000000000000C0A5 R
(1781871008.831876) can0 12A#10010000000A00A3 R
(1781871008.832126) can0 5A0#00000000040000B0 R
(1781871008.832365) can0 121#00A601CF04800086 R
(1781871008.832605) can0 129#000000010000008F R
(1781871008.832844) can0 120#000000000000008B R
(1781871008.847575) can0 541#000010000004C2C4 R
(1781871008.847820) can0 12D#00000000000000D4 R
(1781871008.848063) can0 12D#0000000000000035 R
(1781871008.848302) can0 12E#000000000000C0CF R
(1781871008.848541) can0 450#0000000000002800 R
(1781871008.864231) can0 121#00A601CF048000B3 R
(1781871008.864488) can0 129#00000001000000BA R
(1781871008.864731) can0 120#00000000000000BE R
(1781871008.864970) can0 541#000010000004C225 R
(1781871008.865211) can0 12D#000000000000005F R
(1781871008.865449) can0 12D#000000000000006A R
(1781871008.871525) can0 12E#000000000000C02E R
(1781871008.871779) can0 121#00A601CF048000D9 R
(1781871008.872017) can0 129#00000001000000D0 R
(1781871008.872257) can0 540#000040100000FC00 R
(1781871008.872494) can0 5B0#10000000000000D5 R
(1781871008.872733) can0 120#00000000000000D4 R
(1781871008.887713) can0 541#000010000004C24F R
(1781871008.887960) can0 12D#000000000000008B R
(1781871008.888203) can0 12A#10010000000A00C9 R
(1781871008.888443) can0 12D#00000000000000BE R
(1781871008.888682) can0 12E#000000000000C044 R
(1781871008.888921) can0 121#00A601CF04800038 R
(1781871008.904400) can0 129#0000000100000031 R
(1781871008.904648) can0 120#0000000000000035 R
(1781871008.904887) can0 541#000010000004C27A R
(1781871008.905129) can0 12D#00000000000000D4 R
(1781871008.905367) can0 450#0000000000002800 R
(1781871008.905607) can0 12D#0000000000000035 R
(1781871008.924256) can0 12E#000000000000C071 R
(1781871008.924495) can0 121#00A601CF04800052 R
(1781871008.924733) can0 129#000000010000005B R
(1781871008.924970) can0 120#000000000000005F R
(1781871008.925208) can0 541#000010000004C29B R
(1781871008.925445) can0 12D#000000000000005F R
(1781871008.928066) can0 12D#000000000000006A R
(1781871008.928308) can0 12E#000000000000C090 R
(1781871008.928546) can0 12A#10010000000A0028 R
(1781871008.928786) can0 5A0#00000000040000DA R
(1781871008.929023) can0 121#00A601CF04800067 R
(1781871008.945205) can0 129#000000010000006E R
(1781871008.945458) can0 120#000000000000006A R
(1781871008.945698) can0 541#000010000004C2AE R
(1781871008.945938) can0 12D#000000000000008B R
(1781871008.946179) can0 12D#00000000000000BE R
(1781871008.946420) can0 12E#000000000000C0A5 R
(1781871008.964067) can0 450#0000000000002800 R
(1781871008.964319) can0 121#00A601CF04800086 R
(1781871008.964558) can0 129#000000010000008F R
(1781871008.964796) can0 120#000000000000008B R
(1781871008.965035) can0 541#000010000004C2C4 R
(1781871008.965274) can0 12D#00000000000000D4 R
(1781871008.969336) can0 12D#0000000000000035 R
(1781871008.969576) can0 12E#000000000000C0CF R
(1781871008.969817) can0 121#00A601CF048000B3 R
(1781871008.970055) can0 129#00000001000000BA R
(1781871008.970292) can0 540#000040100000FC00 R
(1781871008.970531) can0 5B0#1000000000000034 R
(1781871008.987528) can0 120#00000000000000BE R
(1781871008.987770) can0 541#000010000004C225 R
(1781871008.988007) can0 12D#000000000000005F R
(1781871008.988255) can0 12A#10010000000A0042 R
(1781871008.988493) can0 12D#000000000000006A R
(1781871008.988730) can0 12E#000000000000C02E R
(1781871008.995452) can0 121#00A601CF048000D9 R
(1781871008.995693) can0 129#00000001000000D0 R
(1781871008.995933) can0 120#00000000000000D4 R
(1781871008.996173) can0 541#000010000004C24F R
(1781871008.996412) can0 12D#000000000000008B R
(1781871009.011613) can0 450#0000000000002800 R
(1781871009.011819) can0 12D#00000000000000BE R
(1781871009.012027) can0 12E#000000000000C044 R
(1781871009.012250) can0 121#00A601CF04800038 R
(1781871009.012439) can0 129#0000000100000031 R
(1781871009.012635) can0 120#0000000000000035 R
(1781871009.027473) can0 541#000010000004C27A R
(1781871009.027740) can0 12D#00000000000000D4 R
(1781871009.027991) can0 12D#0000000000000035 R
(1781871009.028235) can0 12E#000000000000C071 R
(1781871009.028478) can0 12A#10010000000A0077 R
(1781871009.028720) can0 5A0#000000000400003B R
(1781871009.044312) can0 121#00A601CF04800052 R
(1781871009.044568) can0 129#000000010000005B R
(1781871009.044812) can0 120#000000000000005F R
(1781871009.045053) can0 541#000010000004C29B R
(1781871009.045295) can0 12D#000000000000005F R
(1781871009.045535) can0 12D#000000000000006A R
(1781871009.054300) can0 12E#000000000000C090 R
(1781871009.054544) can0 450#0000000000002800 R
(1781871009.054785) can0 121#00A601CF04800067 R
(1781871009.055032) can0 129#000000010000006E R
(1781871009.055274) can0 120#000000000000006A R
(1781871009.055516) can0 541#000010000004C2AE R
(1781871009.068279) can0 12D#000000000000008B R
(1781871009.068526) can0 12D#00000000000000BE R
(1781871009.068768) can0 12E#000000000000C0A5 R
(1781871009.069009) can0 121#00A601CF04800086 R
(1781871009.069285) can0 129#000000010000008F R
(1781871009.069531) can0 540#000040100000FC00 R
(1781871009.084224) can0 5B0#100000000000005E R
(1781871009.084467) can0 120#000000000000008B R
(1781871009.084707) can0 541#000010000004C2C4 R
(1781871009.084947) can0 12D#00000000000000D4 R
(1781871009.085185) can0 12A#10010000000A0096 R
(1781871009.094196) can0 12D#0000000000000035 R
(1781871009.094449) can0 12E#000000000000C0CF R
(1781871009.094689) can0 121#00A601CF048000B3 R
(1781871009.094930) can0 129#00000001000000BA R
(1781871009.095169) can0 120#00000000000000BE R
(1781871009.095409) can0 541#000010000004C225 R
(1781871009.109154) can0 12D#000000000000005F R
(1781871009.109407) can0 450#0000000000002800 R
(1781871009.109645) can0 12D#000000000000006A R
(1781871009.109884) can0 12E#000000000000C02E R
(1781871009.110124) can0 121#00A601CF048000D9 R
(1781871009.110362) can0 129#00000001000000D0 R
(1781871009.124894) can0 120#00000000000000D4 R
(1781871009.125147) can0 541#000010000004C24F R
(1781871009.125387) can0 12D#000000000000008B R
(1781871009.125626) can0 12D#00000000000000BE R
(1781871009.125865) can0 12E#000000000000C044 R
(1781871009.126104) can0 12A#10010000000A00A3 R
(1781871009.144160) can0 5A0#0000000004000051 R
(1781871009.144405) can0 121#00A601CF04800038 R
(1781871009.144645) can0 129#0000000100000031 R
(1781871009.144884) can0 120#0000000000000035 R
(1781871009.145123) can0 541#000010000004C27A R
(1781871009.145362) can0 12D#00000000000000D4 R
(1781871009.149306) can0 12D#0000000000000035 R
(1781871009.149549) can0 12E#000000000000C071 R
(1781871009.149789) can0 450#0000000000002800 R
(1781871009.150028) can0 121#00A601CF04800052 R
(1781871009.150290) can0 129#000000010000005B R
(1781871009.167637) can0 120#000000000000005F R
(1781871009.167891) can0 541#000010000004C29B R
(1781871009.168132) can0 12D#000000000000005F R
(1781871009.168372) can0 12D#000000000000006A R
(1781871009.168611) can0 12E#000000000000C090 R
(1781871009.168848) can0 121#00A601CF04800067 R
(1781871009.174403) can0 129#000000010000006E R
(1781871009.174654) can0 540#000040100000FC00 R
(1781871009.174896) can0 5B0#100000000000006B R
(1781871009.175136) can0 120#000000000000006A R
(1781871009.175374) can0 541#000010000004C2AE R
(1781871009.175613) can0 12D#000000000000008B R
(1781871009.191574) can0 12A#10010000000A00C9 R
(1781871009.191817) can0 12D#00000000000000BE R
(1781871009.192059) can0 12E#000000000000C0A5 R
(1781871009.192298) can0 121#00A601CF04800086 R
(1781871009.192538) can0 129#000000010000008F R
(1781871009.192779) can0 120#000000000000008B R
(1781871009.207765) can0 541#000010000004C2C4 R
(1781871009.208007) can0 12D#00000000000000D4 R
(1781871009.208247) can0 450#0000000000002800 R
(1781871009.208487) can0 12D#0000000000000035 R
(1781871009.208727) can0 12E#000000000000C0CF R
(1781871009.208966) can0 121#00A601CF048000B3 R
(1781871009.224718) can0 129#00000001000000BA R
(1781871009.224962) can0 120#00000000000000BE R
(1781871009.225203) can0 541#000010000004C225 R
(1781871009.225443) can0 12D#000000000000005F R
(1781871009.225683) can0 12D#000000000000006A R
(1781871009.225921) can0 12E#000000000000C02E R
(1781871009.231707) can0 12A#10010000000A0028 R
(1781871009.231948) can0 5A0#0000000004000064 R
(1781871009.232190) can0 121#00A601CF048000D9 R
(1781871009.232431) can0 129#00000001000000D0 R
(1781871009.232670) can0 120#00000000000000D4 R
(1781871009.247664) can0 541#000010000004C24F R
(1781871009.247917) can0 12D#000000000000008B R
(1781871009.248157) can0 12D#00000000000000BE R
(1781871009.248394) can0 12E#000000000000C044 R
(1781871009.248633) can0 450#0000000000002800 R
(1781871009.248873) can0 121#00A601CF04800038 R
(1781871009.267449) can0 129#0000000100000031 R
(1781871009.267704) can0 120#0000000000000035 R
(1781871009.267944) can0 541#000010000004C27A R
(1781871009.268184) can0 12D#00000000000000D4 R
(1781871009.268424) can0 12D#0000000000000035 R
(1781871009.268667) can0 12E#000000000000C071 R
(1781871009.274227) can0 121#00A601CF04800052 R
(1781871009.274468) can0 129#000000010000005B R
(1781871009.274706) can0 540#000040100000FC00 R
(1781871009.274943) can0 5B0#100000000000008A R
(1781871009.275181) can0 120#000000000000005F R
(1781871009.275419) can0 541#000010000004C29B R
(1781871009.289339) can0 12D#000000000000005F R
(1781871009.289583) can0 12A#10010000000A0042 R
(1781871009.289822) can0 12D#000000000000006A R
(1781871009.290063) can0 12E#000000000000C090 R
(1781871009.290302) can0 121#00A601CF04800067 R
(1781871009.290541) can0 129#000000010000006E R
(1781871009.304488) can0 120#000000000000006A R
(1781871009.304755) can0 541#000010000004C2AE R
(1781871009.305003) can0 12D#000000000000008B R
(1781871009.305245) can0 450#0000000000002800 R
(1781871009.305485) can0 12D#00000000000000BE R
(1781871009.324049) can0 12E#000000000000C0A5 R
(1781871009.324302) can0 121#00A601CF04800086 R
(1781871009.324542) can0 129#000000010000008F R
(1781871009.324779) can0 120#000000000000008B R
(1781871009.325017) can0 541#000010000004C2C4 R
(1781871009.325252) can0 12D#00000000000000D4 R
(1781871009.329196) can0 12D#0000000000000035 R
(1781871009.329447) can0 12E#000000000000C0CF R
(1781871009.329685) can0 12A#10010000000A0077 R
(1781871009.329924) can0 5A0#0000000004000085 R
(1781871009.330161) can0 121#00A601CF048000B3 R
(1781871009.330400) can0 129#00000001000000BA R
(1781871009.347506) can0 120#00000000000000BE R
(1781871009.347748) can0 541#000010000004C225 R
(1781871009.347987) can0 12D#000000000000005F R
(1781871009.348225) can0 12D#000000000000006A R
(1781871009.348464) can0 12E#000000000000C02E R
(1781871009.348702) can0 450#0000000000002800 R
(1781871009.364345) can0 121#00A601CF048000D9 R
(1781871009.364587) can0 129#00000001000000D0 R
(1781871009.364827) can0 120#00000000000000D4 R
(1781871009.365066) can0 541#000010000004C24F R
(1781871009.365304) can0 12D#000000000000008B R
(1781871009.365543) can0 12D#00000000000000BE R
(1781871009.371652) can0 12E#000000000000C044 R
(1781871009.371894) can0 121#00A601CF04800038 R
(1781871009.372133) can0 129#0000000100000031 R
(1781871009.372372) can0 540#000040100000FC00 R
(1781871009.372615) can0 5B0#10000000000000BF R
(1781871009.372855) can0 120#0000000000000035 R
(1781871009.387615) can0 541#000010000004C27A R
(1781871009.387857) can0 12D#00000000000000D4 R
(1781871009.388096) can0 12A#10010000000A0096 R
(1781871009.388335) can0 12D#0000000000000035 R
(1781871009.388572) can0 12E#000000000000C071 R
(1781871009.404021) can0 121#00A601CF04800052 R
(1781871009.404273) can0 129#000000010000005B R
(1781871009.404514) can0 120#000000000000005F R
(1781871009.404753) can0 541#000010000004C29B R
(1781871009.404992) can0 12D#000000000000005F R
(1781871009.405230) can0 450#0000000000002800 R
(1781871009.414178) can0 12D#000000000000006A R
(1781871009.414422) can0 12E#000000000000C090 R
(1781871009.414662) can0 121#00A601CF04800067 R
(1781871009.414905) can0 129#000000010000006E R
(1781871009.415144) can0 120#000000000000006A R
(1781871009.415409) can0 541#000010000004C2AE R
(1781871009.427798) can0 12D#000000000000008B R
(1781871009.428042) can0 12D#00000000000000BE R
(1781871009.428280) can0 12E#000000000000C0A5 R
(1781871009.428519) can0 12A#10010000000A00A3 R
(1781871009.428759) can0 5A0#00000000040000B0 R
(1781871009.428999) can0 121#00A601CF04800086 R
(1781871009.445331) can0 129#000000010000008F R
(1781871009.445573) can0 120#000000000000008B R
(1781871009.445812) can0 541#000010000004C2C4 R
(1781871009.446052) can0 12D#00000000000000D4 R
(1781871009.446292) can0 12D#0000000000000035 R
(1781871009.446532) can0 12E#000000000000C0CF R
(1781871009.454344) can0 450#0000000000002800 R
(1781871009.454584) can0 121#00A601CF048000B3 R
(1781871009.454824) can0 129#00000001000000BA R
(1781871009.455062) can0 120#00000000000000BE R
(1781871009.455302) can0 541#000010000004C225 R
(1781871009.468145) can0 12D#000000000000005F R
(1781871009.468401) can0 12D#000000000000006A R
(1781871009.468642) can0 12E#000000000000C02E R
(1781871009.468882) can0 121#00A601CF048000D9 R
(1781871009.469122) can0 129#00000001000000D0 R
(1781871009.469360) can0 540#000040100000FC00 R
(1781871009.484248) can0 5B0#10000000000000D5 R
(1781871009.484499) can0 120#00000000000000D4 R
(1781871009.484740) can0 541#000010000004C24F R
(1781871009.484980) can0 12D#000000000000008B R
(1781871009.485220) can0 12A#10010000000A00C9 R
(1781871009.485460) can0 12D#00000000000000BE R
(1781871009.495361) can0 12E#000000000000C044 R
(1781871009.495604) can0 121#00A601CF04800038 R
(1781871009.495842) can0 129#0000000100000031 R
(1781871009.496081) can0 120#0000000000000035 R
(1781871009.496321) can0 541#000010000004C27A R
(1781871009.496560) can0 12D#00000000000000D4 R
(1781871009.511618) can0 450#0000000000002800 R
(1781871009.511860) can0 12D#0000000000000035 R
(1781871009.512102) can0 12E#000000000000C071 R
(1781871009.512341) can0 121#00A601CF04800052 R
(1781871009.512578) can0 129#000000010000005B R
(1781871009.512816) can0 120#000000000000005F R
(1781871009.527613) can0 541#000010000004C29B R
(1781871009.527856) can0 12D#000000000000005F R
(1781871009.528096) can0 12D#000000000000006A R
(1781871009.528335) can0 12E#000000000000C090 R
(1781871009.528572) can0 12A#10010000000A0028 R
(1781871009.528810) can0 5A0#00000000040000DA R
(1781871009.544218) can0 121#00A601CF04800067 R
(1781871009.544460) can0 129#000000010000006E R
(1781871009.544700) can0 120#000000000000006A R
(1781871009.544939) can0 541#000010000004C2AE R
(1781871009.545178) can0 12D#000000000000008B R
(1781871009.551507) can0 12D#00000000000000BE R
(1781871009.551758) can0 12E#000000000000C0A5 R
(1781871009.551997) can0 450#0000000000002800 R
(1781871009.552237) can0 121#00A601CF04800086 R
(1781871009.552475) can0 129#000000010000008F R
(1781871009.552713) can0 120#000000000000008B R
(1781871009.567963) can0 541#000010000004C2C4 R
(1781871009.568236) can0 12D#00000000000000D4 R
(1781871009.568478) can0 12D#0000000000000035 R
(1781871009.568718) can0 12E#000000000000C0CF R
(1781871009.568956) can0 121#00A601CF048000B3 R
(1781871009.569194) can0 129#00000001000000BA R
(1781871009.584110) can0 540#000040100000FC00 R
(1781871009.584351) can0 5B0#1000000000000034 R
(1781871009.584588) can0 120#00000000000000BE R
(1781871009.584825) can0 541#000010000004C225 R
(1781871009.585064) can0 12D#000000000000005F R
(1781871009.585302) can0 12A#10010000000A0042 R
(1781871009.594257) can0 12D#000000000000006A R
(1781871009.594496) can0 12E#000000000000C02E R
(1781871009.594734) can0 121#00A601CF048000D9 R
(1781871009.594973) can0 129#00000001000000D0 R
(1781871009.595209) can0 120#00000000000000D4 R
(1781871009.595448) can0 541#000010000004C24F R
(1781871009.607872) can0 12D#000000000000008B R
(1781871009.608141) can0 450#0000000000002800 R
(1781871009.608387) can0 12D#00000000000000BE R
(1781871009.608628) can0 12E#000000000000C044 R
(1781871009.608866) can0 121#00A601CF04800038 R
(1781871009.624546) can0 129#0000000100000031 R
(1781871009.624834) can0 120#0000000000000035 R
(1781871009.625080) can0 541#000010000004C36C R
(1781871009.625322) can0 12D#00000000000000D4 R
(1781871009.625560) can0 12D#0000000000000035 R
(1781871009.625797) can0 12E#000000000000C071 R
(1781871009.634191) can0 12A#10010000000A0077 R
(1781871009.634444) can0 5A0#000000000400003B R
(1781871009.634683) can0 121#00A601CF04800052 R
(1781871009.634922) can0 129#000000010000005B R
(1781871009.635160) can0 120#000000000000005F R
(1781871009.635400) can0 541#000010000004C38D R
(1781871009.649228) can0 12D#000000000000005F R
(1781871009.649472) can0 12D#000000000000006A R
(1781871009.649710) can0 12E#000000000000C090 R
(1781871009.649956) can0 450#0000000000002800 R
(1781871009.650192) can0 121#00A601CF04800067 R
(1781871009.650428) can0 129#000000010000006E R
(1781871009.667886) can0 120#000000000000006A R
(1781871009.668130) can0 541#000010000004C3B8 R
(1781871009.668369) can0 12D#000000000000008B R
(1781871009.668606) can0 12D#00000000000000BE R
(1781871009.668846) can0 12E#000000000000C0A5 R
(1781871009.669084) can0 121#00A601CF04800086 R
(1781871009.674532) can0 129#000000010000008F R
(1781871009.674774) can0 540#000040100000FC00 R
(1781871009.675012) can0 5B0#100000000000005E R
(1781871009.675250) can0 120#000000000000008B R
(1781871009.675487) can0 541#000010000004C3D2 R
(1781871009.675725) can0 12D#00000000000000D4 R
(1781871009.689556) can0 12A#10050000000A0083 R
(1781871009.689799) can0 12D#0000000000000035 R
(1781871009.690038) can0 12E#000000000000C0CF R
(1781871009.690275) can0 121#00A601CF048000B3 R
(1781871009.690513) can0 129#00000001000000BA R
(1781871009.707445) can0 120#00000000000000BE R
(1781871009.707698) can0 541#000010000004C333 R
(1781871009.707937) can0 12D#000000000000005F R
(1781871009.708176) can0 450#0000000000002800 R
(1781871009.708417) can0 12D#000000000000006A R
(1781871009.708658) can0 12E#000000000000C02E R
(1781871009.724382) can0 121#00A601CF048000D9 R
(1781871009.724636) can0 129#00000001000000D0 R
(1781871009.724876) can0 120#00000000000000D4 R
(1781871009.725116) can0 541#000010000004C359 R
(1781871009.725354) can0 12D#000000000000008B R
(1781871009.725592) can0 12D#00000000000000BE R
(1781871009.731672) can0 12E#000000000000C044 R
(1781871009.731924) can0 12A#10050000000A00B6 R
(1781871009.732164) can0 5A0#0000000004000051 R
(1781871009.732402) can0 121#00A601CF04800038 R
(1781871009.732639) can0 129#0000000100000031 R
(1781871009.732878) can0 120#0000000000000035 R
(1781871009.744361) can0 541#000010000004C36C R
(1781871009.744602) can0 12D#00000000000000D4 R
(1781871009.745394) can0 12D#0000000000000035 R
(1781871009.754184) can0 12E#000000000000C071 R
(1781871009.754500) can0 450#0000000000002800 R
(1781871009.754743) can0 121#00A601CF04800052 R
(1781871009.754983) can0 129#000000010000005B R
(1781871009.755225) can0 120#000000000000005F R
(1781871009.755464) can0 541#000010000004C38D R
(1781871009.768280) can0 12D#000000000000005F R
(1781871009.768538) can0 12D#000000000000006A R
(1781871009.768779) can0 12E#000000000000C090 R
(1781871009.769022) can0 121#00A601CF04800067 R
(1781871009.769262) can0 129#000000010000006E R
(1781871009.769501) can0 540#000040100000FC00 R
(1781871009.784323) can0 5B0#100000000000006B R
(1781871009.784564) can0 120#000000000000006A R
(1781871009.784801) can0 541#000010000004C3B8 R
(1781871009.785042) can0 12D#000000000000008B R
(1781871009.785282) can0 12A#10050000000A00DC R
(1781871009.785519) can0 12D#00000000000000BE R
(1781871009.794233) can0 12E#000000000000C0A5 R
(1781871009.794358) can0 121#00A601CF04800086 R
(1781871009.794479) can0 129#000000010000008F R
(1781871009.794598) can0 120#000000000000008B R
(1781871009.794717) can0 541#000010000004C3D2 R
(1781871009.794836) can0 12D#00000000000000D4 R
(1781871009.809378) can0 450#0000000000002800 R
(1781871009.809633) can0 12D#0000000000000035 R
(1781871009.809876) can0 12E#000000000000C0CF R
(1781871009.810115) can0 121#00A601CF048000B3 R
(1781871009.810355) can0 129#00000001000000BA R
(1781871009.824825) can0 120#00000000000000BE R
(1781871009.825084) can0 541#000010000004C333 R
(1781871009.825329) can0 12D#000000000000005F R
(1781871009.825568) can0 12D#000000000000006A R
(1781871009.825808) can0 12E#000000000000C02E R
(1781871009.826049) can0 12A#10050000000A003D R
(1781871009.844083) can0 5A0#0000000004000064 R
(1781871009.844364) can0 121#00A601CF048000D9 R
(1781871009.844620) can0 129#00000001000000D0 R
(1781871009.844863) can0 120#00000000000000D4 R
(1781871009.845101) can0 541#000010000004C359 R
(1781871009.845342) can0 12D#000000000000008B R
(1781871009.851608) can0 12D#00000000000000BE R
(1781871009.851852) can0 12E#000000000000C044 R
(1781871009.852090) can0 450#0000000000002800 R
(1781871009.852330) can0 121#00A601CF04800038 R
(1781871009.852568) can0 129#0000000100000031 R
(1781871009.852809) can0 120#0000000000000035 R
(1781871009.868077) can0 541#000010000004C36C R
(1781871009.868319) can0 12D#00000000000000D4 R
(1781871009.868559) can0 12D#0000000000000035 R
(1781871009.868799) can0 12E#000000000000C071 R
(1781871009.869043) can0 121#00A601CF04800052 R
(1781871009.869285) can0 129#000000010000005B R
(1781871009.874553) can0 540#000040100000FC00 R
(1781871009.874795) can0 5B0#100000000000008A R
(1781871009.875034) can0 120#000000000000005F R
(1781871009.875273) can0 541#000010000004C38D R
(1781871009.875512) can0 12D#000000000000005F R
(1781871009.891501) can0 12A#10050000000A0057 R
(1781871009.891756) can0 12D#000000000000006A R
(1781871009.891995) can0 12E#000000000000C090 R
(1781871009.892234) can0 121#00A601CF04800067 R
(1781871009.892472) can0 129#000000010000006E R
(1781871009.892710) can0 120#000000000000006A R
(1781871009.907715) can0 541#000010000004C3B8 R
(1781871009.907965) can0 12D#000000000000008B R
(1781871009.908206) can0 450#0000000000002800 R
(1781871009.908445) can0 12D#00000000000000BE R
(1781871009.908686) can0 12E#000000000000C0A5 R
(1781871009.908923) can0 121#00A601CF04800086 R
(1781871009.924605) can0 129#000000010000008F R
(1781871009.924853) can0 120#000000000000008B R
(1781871009.925092) can0 541#000010000004C3D2 R
(1781871009.925333) can0 12D#00000000000000D4 R
(1781871009.925574) can0 12D#0000000000000035 R
(1781871009.925814) can0 12E#000000000000C0CF R
(1781871009.934255) can0 12A#10050000000A0062 R
(1781871009.934498) can0 5A0#0000000004000085 R
(1781871009.934738) can0 121#00A601CF048000B3 R
(1781871009.934979) can0 129#00000001000000BA R
(1781871009.935219) can0 120#00000000000000BE R
(1781871009.935459) can0 541#000010000004C333 R
(1781871009.947855) can0 12D#000000000000005F R
(1781871009.948098) can0 12D#000000000000006A R
(1781871009.948336) can0 12E#000000000000C02E R
(1781871009.948576) can0 450#0000000000002800 R
(1781871009.948815) can0 121#00A601CF048000D9 R
(1781871009.949055) can0 129#00000001000000D0 R
(1781871009.967652) can0 120#00000000000000D4 R
(1781871009.967892) can0 541#000010000004C359 R
(1781871009.968130) can0 12D#000000000000008B R
(1781871009.968367) can0 12D#00000000000000BE R
(1781871009.968607) can0 12E#000000000000C044 R
(1781871009.974116) can0 121#00A601CF04800038 R
(1781871009.974369) can0 129#0000000100000031 R
(1781871009.974609) can0 540#000040100000FC00 R
(1781871009.974848) can0 5B0#10000000000000BF R
(1781871009.975085) can0 120#0000000000000035 R
(1781871009.975323) can0 541#000010000004C36C R
(1781871009.989244) can0 12D#00000000000000D4 R
(1781871009.989494) can0 12A#10050000000A0083 R
(1781871009.989735) can0 12D#0000000000000035 R
(1781871009.989972) can0 12E#000000000000C071 R
(1781871009.990210) can0 121#00A601CF04800052 R
(1781871009.990448) can0 129#000000010000005B R
(1781871010.007830) can0 120#000000000000005F R
(1781871010.008099) can0 541#000010000004C38D R
(1781871010.008355) can0 12D#000000000000005F R
(1781871010.008608) can0 450#0000000000002800 R
(1781871010.008859) can0 12D#000000000000006A R
(1781871010.009112) can0 12E#000000000000C090 R
(1781871010.024509) can0 121#00A601CF04800067 R
(1781871010.024793) can0 129#000000010000006E R
(1781871010.025042) can0 120#000000000000006A R
(1781871010.025284) can0 541#000010000004C3B8 R
(1781871010.025526) can0 12D#000000000000008B R
(1781871010.025777) can0 12D#00000000000000BE R
(1781871010.029421) can0 12E#000000000000C0A5 R
(1781871010.029667) can0 12A#10050000000A00B6 R
(1781871010.029907) can0 5A0#00000000040000B0 R
(1781871010.030146) can0 121#00A601CF04800086 R
(1781871010.030385) can0 129#000000010000008F R
(1781871010.047523) can0 120#000000000000008B R
(1781871010.047793) can0 541#000010000004C3D2 R
(1781871010.048038) can0 12D#00000000000000D4 R
(1781871010.048280) can0 12D#0000000000000035 R
(1781871010.048523) can0 12E#000000000000C0CF R
(1781871010.048765) can0 450#0000000000002800 R
(1781871010.064279) can0 121#00A601CF048000B3 R
(1781871010.064541) can0 129#00000001000000BA R
(1781871010.064783) can0 120#00000000000000BE R
(1781871010.065022) can0 541#000010000004C333 R
(1781871010.065263) can0 12D#000000000000005F R
(1781871010.065503) can0 12D#000000000000006A R
(1781871010.071606) can0 12E#000000000000C02E R
(1781871010.071856) can0 121#00A601CF048000D9 R
(1781871010.072096) can0 129#00000001000000D0 R
(1781871010.072335) can0 540#000040100000FD00 R
(1781871010.072572) can0 5B0#10000000000000D5 R
(1781871010.072812) can0 120#00000000000000D4 R
(1781871010.087835) can0 541#000010000004C359 R
(1781871010.088077) can0 12D#000000000000008B R
(1781871010.088315) can0 12A#10050000000A00DC R
(1781871010.088554) can0 12D#00000000000000BE R
(1781871010.088793) can0 12E#000000000000C044 R
(1781871010.089032) can0 121#00A601CF04800038 R
(1781871010.104186) can0 129#0000000100000031 R
(1781871010.104428) can0 120#0000000000000035 R
(1781871010.104668) can0 541#000010000004C36C R
(1781871010.104906) can0 12D#00000000000000D4 R
(1781871010.105146) can0 450#0000000000002800 R
(1781871010.105386) can0 12D#0000000000000035 R
(1781871010.114331) can0 12E#000000000000C071 R
(1781871010.114573) can0 121#00A601CF04800052 R
(1781871010.114811) can0 129#000000010000005B R
(1781871010.115049) can0 120#000000000000005F R
(1781871010.115287) can0 541#000010000004C38D R
(1781871010.127752) can0 12D#000000000000005F R
(1781871010.128008) can0 12D#000000000000006A R
(1781871010.128248) can0 12E#000000000000C090 R
(1781871010.128488) can0 12A#10050000000A003D R
(1781871010.128729) can0 5A0#00000000040000DA R
(1781871010.128967) can0 121#00A601CF04800067 R
(1781871010.145278) can0 129#000000010000006E R
(1781871010.145526) can0 120#000000000000006A R
(1781871010.145767) can0 541#000010000004C3B8 R
(1781871010.146007) can0 12D#000000000000008B R
(1781871010.146246) can0 12D#00000000000000BE R
(1781871010.146487) can0 12E#000000000000C0A5 R
(1781871010.164124) can0 450#0000000000002800 R
(1781871010.164370) can0 121#00A601CF04800086 R
(1781871010.164608) can0 129#000000010000008F R
(1781871010.164846) can0 120#000000000000008B R
(1781871010.165084) can0 541#000010000004C3D2 R
(1781871010.165321) can0 12D#00000000000000D4 R
(1781871010.169378) can0 12D#0000000000000035 R
(1781871010.169619) can0 12E#000000000000C0CF R
(1781871010.169857) can0 121#00A601CF048000B3 R
(1781871010.170095) can0 129#00000001000000BA R
(1781871010.170334) can0 540#000040100000FD00 R
(1781871010.170573) can0 5B0#1000000000000034 R
(1781871010.184377) can0 120#00000000000000BE R
(1781871010.184617) can0 541#000010000004C333 R
(1781871010.184855) can0 12D#000000000000005F R
(1781871010.185094) can0 12A#10050000000A0057 R
(1781871010.185333) can0 12D#000000000000006A R
(1781871010.195271) can0 12E#000000000000C02E R
(1781871010.195523) can0 121#00A601CF048000D9 R
(1781871010.195760) can0 129#00000001000000D0 R
(1781871010.195998) can0 120#00000000000000D4 R
(1781871010.196236) can0 541#000010000004C359 R
(1781871010.196474) can0 12D#000000000000008B R
(1781871010.211541) can0 450#0000000000002800 R
(1781871010.211793) can0 12D#00000000000000BE R
(1781871010.212031) can0 12E#000000000000C044 R
(1781871010.212268) can0 121#00A601CF04800038 R
(1781871010.212505) can0 129#0000000100000031 R
(1781871010.212742) can0 120#0000000000000035 R
(1781871010.227595) can0 541#000010000004C36C R
(1781871010.227841) can0 12D#00000000000000D4 R
(1781871010.228078) can0 12D#0000000000000035 R
(1781871010.228317) can0 12E#000000000000C071 R
(1781871010.228558) can0 12A#10050000000A0062 R
(1781871010.228796) can0 5A0#000000000400003B R
(1781871010.244330) can0 121#00A601CF04800052 R
(1781871010.244572) can0 129#000000010000005B R
(1781871010.244809) can0 120#000000000000005F R
(1781871010.245046) can0 541#000010000004C38D R
(1781871010.245282) can0 12D#000000000000005F R
(1781871010.245519) can0 12D#000000000000006A R
(1781871010.251682) can0 12E#000000000000C090 R
(1781871010.251922) can0 450#0000000000002800 R
(1781871010.252161) can0 121#00A601CF04800067 R
(1781871010.252399) can0 129#000000010000006E R
(1781871010.252638) can0 120#000000000000006A R
(1781871010.252876) can0 541#000010000004C3B8 R
(1781871010.268232) can0 12D#000000000000008B R
(1781871010.268477) can0 12D#00000000000000BE R
(1781871010.268716) can0 12E#000000000000C0A5 R
(1781871010.268955) can0 121#00A601CF04800086 R
(1781871010.269194) can0 129#000000010000008F R
(1781871010.284032) can0 540#000040100000FD00 R
(1781871010.284287) can0 5B0#100000000000005E R
(1781871010.284526) can0 120#000000000000008B R
(1781871010.284768) can0 541#000010000004C3D2 R
(1781871010.285007) can0 12D#00000000000000D4 R
(1781871010.285245) can0 12A#10050000000A0083 R
(1781871010.294185) can0 12D#0000000000000035 R
(1781871010.294427) can0 12E#000000000000C0CF R
(1781871010.294666) can0 121#00A601CF048000B3 R
(1781871010.294910) can0 129#00000001000000BA R
(1781871010.295207) can0 120#00000000000000BE R
(1781871010.295467) can0 541#000010000004C333 R
(1781871010.309277) can0 12D#000000000000005F R
(1781871010.309519) can0 450#0000000000002800 R
(1781871010.309757) can0 12D#000000000000006A R
(1781871010.309995) can0 12E#000000000000C02E R
(1781871010.310235) can0 121#00A601CF048000D9 R
(1781871010.310475) can0 129#00000001000000D0 R
(1781871010.324937) can0 120#00000000000000D4 R
(1781871010.325180) can0 541#000010000004C359 R
(1781871010.325420) can0 12D#000000000000008B R
(1781871010.325663) can0 12D#00000000000000BE R
(1781871010.325902) can0 12E#000000000000C044 R
(1781871010.326140) can0 12A#10050000000A00B6 R
(1781871010.334326) can0 5A0#0000000004000051 R
(1781871010.334567) can0 121#00A601CF04800038 R
(1781871010.334806) can0 129#0000000100000031 R
(1781871010.335045) can0 120#0000000000000035 R
(1781871010.335284) can0 541#000010000004C36C R
(1781871010.349179) can0 12D#00000000000000D4 R
(1781871010.349431) can0 12D#0000000000000035 R
(1781871010.349671) can0 12E#000000000000C071 R
(1781871010.349909) can0 450#0000000000002800 R
(1781871010.350145) can0 121#00A601CF04800052 R
(1781871010.350382) can0 129#000000010000005B R
(1781871010.367745) can0 120#000000000000005F R
(1781871010.367998) can0 541#000010000004C38D R
(1781871010.368235) can0 12D#000000000000005F R
(1781871010.368474) can0 12D#000000000000006A R
(1781871010.368711) can0 12E#000000000000C090 R
(1781871010.368949) can0 121#00A601CF04800067 R
(1781871010.374432) can0 129#000000010000006E R
(1781871010.374674) can0 540#000040100000FD00 R
(1781871010.374941) can0 5B0#100000000000006B R
(1781871010.375180) can0 120#000000000000006A R
(1781871010.375419) can0 541#000010000004C3B8 R
(1781871010.375659) can0 12D#000000000000008B R
(1781871010.391650) can0 12A#10050000000A00DC R
(1781871010.391912) can0 12D#00000000000000BE R
(1781871010.392155) can0 12E#000000000000C0A5 R
(1781871010.392397) can0 121#00A601CF04800086 R
(1781871010.392638) can0 129#000000010000008F R
(1781871010.392887) can0 120#000000000000008B R
(1781871010.407632) can0 541#000010000004C3D2 R
(1781871010.407873) can0 12D#00000000000000D4 R
(1781871010.408112) can0 450#0000000000002800 R
(1781871010.408350) can0 12D#0000000000000035 R
(1781871010.408590) can0 12E#000000000000C0CF R
(1781871010.408827) can0 121#00A601CF048000B3 R
(1781871010.424605) can0 129#00000001000000BA R
(1781871010.424871) can0 120#00000000000000BE R
(1781871010.425125) can0 541#000010000004C333 R
(1781871010.425378) can0 12D#000000000000005F R
(1781871010.425628) can0 12D#000000000000006A R
(1781871010.431523) can0 12E#000000000000C02E R
(1781871010.431784) can0 12A#10050000000A003D R
(1781871010.432028) can0 5A0#0000000004000064 R
(1781871010.432272) can0 121#00A601CF048000D9 R
(1781871010.432515) can0 129#00000001000000D0 R
(1781871010.432756) can0 120#00000000000000D4 R
(1781871010.447988) can0 541#000010000004C359 R
(1781871010.448236) can0 12D#000000000000008B R
(1781871010.448480) can0 12D#00000000000000BE R
(1781871010.448722) can0 12E#000000000000C044 R
(1781871010.448965) can0 450#0000000000002800 R
(1781871010.449205) can0 121#00A601CF04800038 R
(1781871010.467576) can0 129#0000000100000031 R
(1781871010.467819) can0 120#0000000000000035 R
(1781871010.468066) can0 541#000010000004C36C R
(1781871010.468308) can0 12D#00000000000000D4 R
(1781871010.468549) can0 12D#0000000000000035 R
(1781871010.468791) can0 12E#000000000000C071 R
(1781871010.474268) can0 121#00A601CF04800052 R
(1781871010.474516) can0 129#000000010000005B R
(1781871010.474760) can0 540#000040100000FD00 R
(1781871010.475000) can0 5B0#100000000000008A R
(1781871010.475239) can0 120#000000000000005F R
(1781871010.475478) can0 541#000010000004C38D R
(1781871010.487920) can0 12D#000000000000005F R
(1781871010.488165) can0 12A#10050000000A0057 R
(1781871010.488406) can0 12D#000000000000006A R
(1781871010.488645) can0 12E#000000000000C090 R
(1781871010.488884) can0 121#00A601CF04800067 R
(1781871010.504227) can0 129#000000010000006E R
(1781871010.504482) can0 120#000000000000006A R
(1781871010.504725) can0 541#000010000004C3B8 R
(1781871010.504966) can0 12D#000000000000008B R
(1781871010.505205) can0 450#0000000000002800 R
(1781871010.505446) can0 12D#00000000000000BE R
(1781871010.524085) can0 12E#000000000000C0A5 R
(1781871010.524339) can0 121#00A601CF04800086 R
(1781871010.524579) can0 129#000000010000008F R
(1781871010.524818) can0 120#000000000000008B R
(1781871010.525057) can0 541#000010000004C3D2 R
(1781871010.525298) can0 12D#00000000000000D4 R
(1781871010.529328) can0 12D#0000000000000035 R
(1781871010.529571) can0 12E#000000000000C0CF R
(1781871010.529812) can0 12A#10050000000A0062 R
(1781871010.530051) can0 5A0#0000000004000085 R
(1781871010.530291) can0 121#00A601CF048000B3 R
(1781871010.530536) can0 129#00000001000000BA R
(1781871010.547622) can0 120#00000000000000BE R
(1781871010.547879) can0 541#000010000004C333 R
(1781871010.548118) can0 12D#000000000000005F R
(1781871010.548356) can0 12D#000000000000006A R
(1781871010.548594) can0 12E#000000000000C02E R
(1781871010.548833) can0 450#0000000000002800 R
(1781871010.564180) can0 121#00A601CF048000D9 R
(1781871010.564422) can0 129#00000001000000D0 R
(1781871010.564662) can0 120#00000000000000D4 R
(1781871010.564904) can0 541#000010000004C359 R
(1781871010.565143) can0 12D#000000000000008B R
(1781871010.565381) can0 12D#00000000000000BE R
(1781871010.569469) can0 12E#000000000000C044 R
(1781871010.569712) can0 121#00A601CF04800038 R
(1781871010.569950) can0 129#0000000100000031 R
(1781871010.570192) can0 540#000040100000FD00 R
(1781871010.570431) can0 5B0#10000000000000BF R
(1781871010.587495) can0 120#0000000000000035 R
(1781871010.587749) can0 541#000010000004C36C R
(1781871010.587989) can0 12D#00000000000000D4 R
(1781871010.588229) can0 12A#10050000000A0083 R
(1781871010.588468) can0 12D#0000000000000035 R
(1781871010.588710) can0 12E#000000000000C071 R
(1781871010.604079) can0 121#00A601CF04800052 R
(1781871010.604323) can0 129#000000010000005B R
(1781871010.604564) can0 120#000000000000005F R
(1781871010.604801) can0 541#000010000004C38D R
(1781871010.605039) can0 12D#000000000000005F R
(1781871010.605277) can0 450#0000000000002800 R
(1781871010.614200) can0 12D#000000000000006A R
(1781871010.614441) can0 12E#000000000000C090 R
(1781871010.614680) can0 121#00A601CF04800067 R
(1781871010.614918) can0 129#000000010000006E R
(1781871010.615158) can0 120#000000000000006A R
(1781871010.615398) can0 541#000010000004C4B0 R
(1781871010.627905) can0 12D#000000000000008B R
(1781871010.628149) can0 12D#00000000000000BE R
(1781871010.628387) can0 12E#000000000000C0A5 R
(1781871010.628627) can0 12A#10050000000A00B6 R
(1781871010.628867) can0 5A0#00000000040000B0 R
(1781871010.629107) can0 121#00A601CF04800086 R
(1781871010.644365) can0 129#000000010000008F R
(1781871010.644607) can0 120#000000000000008B R
(1781871010.644845) can0 541#000010000004C4DA R
(1781871010.645085) can0 12D#00000000000000D4 R
(1781871010.645323) can0 12D#0000000000000035 R
(1781871010.654091) can0 12E#000000000000C0CF R
(1781871010.654346) can0 450#0000000000002800 R
(1781871010.654586) can0 121#00A601CF048000B3 R
(1781871010.654822) can0 129#00000001000000BA R
(1781871010.655060) can0 120#00000000000000BE R
(1781871010.655299) can0 541#000010000004C43B R
(1781871010.668268) can0 12D#000000000000005F R
(1781871010.668519) can0 12D#000000000000006A R
(1781871010.668759) can0 12E#000000000000C02E R
(1781871010.668999) can0 121#00A601CF048000D9 R
(1781871010.669238) can0 129#00000001000000D0 R
(1781871010.669477) can0 540#000040100000FD00 R
(1781871010.684279) can0 5B0#10000000000000D5 R
(1781871010.684524) can0 120#00000000000000D4 R
(1781871010.684764) can0 541#000010000004C451 R
(1781871010.685005) can0 12D#000000000000008B R
(1781871010.685244) can0 12A#10050000000A00DC R
(1781871010.685480) can0 12D#00000000000000BE R
(1781871010.695383) can0 12E#000000000000C044 R
(1781871010.695625) can0 121#00A601CF04800038 R
(1781871010.695864) can0 129#0000000100000031 R
(1781871010.696102) can0 120#0000000000000035 R
(1781871010.696342) can0 541#000010000004C464 R
(1781871010.696581) can0 12D#00000000000000D4 R
(1781871010.709605) can0 450#0000000000002800 R
(1781871010.709845) can0 12D#0000000000000035 R
(1781871010.710085) can0 12E#000000000000C071 R
(1781871010.710323) can0 121#00A601CF04800052 R
(1781871010.710562) can0 129#000000010000005B R
(1781871010.710798) can0 120#000000000000005F R
(1781871010.724977) can0 541#000010000004C485 R
(1781871010.725220) can0 12D#000000000000005F R
(1781871010.725460) can0 12D#000000000000006A R
(1781871010.725699) can0 12E#000000000000C090 R
(1781871010.725938) can0 12A#10050000000A003D R
(1781871010.743942) can0 5A0#00000000040000DA R
(1781871010.744195) can0 121#00A601CF04800067 R
(1781871010.744435) can0 129#000000010000006E R
(1781871010.744672) can0 120#000000000000006A R
(1781871010.744909) can0 541#000010000004C4B0 R
(1781871010.745148) can0 12D#000000000000008B R
(1781871010.751563) can0 12D#00000000000000BE R
(1781871010.751806) can0 12E#000000000000C0A5 R
(1781871010.752045) can0 450#0000000000002800 R
(1781871010.752283) can0 121#00A601CF04800086 R
(1781871010.752521) can0 129#000000010000008F R
(1781871010.752759) can0 120#000000000000008B R
(1781871010.768127) can0 541#000010000004C4DA R
(1781871010.768425) can0 12D#00000000000000D4 R
(1781871010.768670) can0 12D#0000000000000035 R
(1781871010.768915) can0 12E#000000000000C0CF R
(1781871010.769156) can0 121#00A601CF048000B3 R
(1781871010.769399) can0 129#00000001000000BA R
(1781871010.784166) can0 540#000040100000FD00 R
(1781871010.784418) can0 5B0#1000000000000034 R
(1781871010.784661) can0 120#00000000000000BE R
(1781871010.784903) can0 541#000010000004C43B R
(1781871010.785183) can0 12D#000000000000005F R
(1781871010.785422) can0 12A#10050000000A0057 R
(1781871010.791693) can0 12D#000000000000006A R
(1781871010.791937) can0 12E#000000000000C02E R
(1781871010.792179) can0 121#00A601CF048000D9 R
(1781871010.792420) can0 129#00000001000000D0 R
(1781871010.792660) can0 120#00000000000000D4 R
(1781871010.807803) can0 541#000010000004C451 R
(1781871010.807951) can0 12D#000000000000008B R
(1781871010.808090) can0 450#0000000000002800 R
(1781871010.808228) can0 12D#00000000000000BE R
(1781871010.808365) can0 12E#000000000000C044 R
(1781871010.808502) can0 121#00A601CF04800038 R
(1781871010.824588) can0 129#0000000100000031 R
(1781871010.824849) can0 120#0000000000000035 R
(1781871010.825090) can0 541#000010000004C464 R
(1781871010.825331) can0 12D#00000000000000D4 R
(1781871010.825570) can0 12D#0000000000000035 R
(1781871010.825808) can0 12E#000000000000C071 R
(1781871010.834224) can0 12A#10050000000A0062 R
(1781871010.834472) can0 5A0#000000000400003B R
(1781871010.834714) can0 121#00A601CF04800052 R
(1781871010.834952) can0 129#000000010000005B R
(1781871010.835191) can0 120#000000000000005F R
(1781871010.835432) can0 541#000010000004C485 R
(1781871010.849342) can0 12D#000000000000005F R
(1781871010.849586) can0 12D#000000000000006A R
(1781871010.849827) can0 12E#000000000000C090 R
(1781871010.850067) can0 450#0000000000002800 R
(1781871010.850307) can0 121#00A601CF04800067 R
(1781871010.850548) can0 129#000000010000006E R
(1781871010.867667) can0 120#000000000000006A R
(1781871010.867911) can0 541#000010000004C4B0 R
(1781871010.868153) can0 12D#000000000000008B R
(1781871010.868392) can0 12D#00000000000000BE R
(1781871010.868630) can0 12E#000000000000C0A5 R
(1781871010.868869) can0 121#00A601CF04800086 R
(1781871010.874298) can0 129#000000010000008F R
(1781871010.874538) can0 540#000040100000FD00 R
(1781871010.874776) can0 5B0#100000000000005E R
(1781871010.875015) can0 120#000000000000008B R
(1781871010.875257) can0 541#000010000004C4DA R
(1781871010.889244) can0 12D#00000000000000D4 R
(1781871010.889496) can0 12A#10050000000A0083 R
(1781871010.889736) can0 12D#0000000000000035 R
(1781871010.889973) can0 12E#000000000000C0CF R
(1781871010.890286) can0 121#00A601CF048000B3 R
(1781871010.890584) can0 129#00000001000000BA R
(1781871010.907652) can0 120#00000000000000BE R
(1781871010.907941) can0 541#000010000004C43B R
(1781871010.908187) can0 12D#000000000000005F R
(1781871010.908431) can0 450#0000000000002800 R
(1781871010.908671) can0 12D#000000000000006A R
(1781871010.908912) can0 12E#000000000000C02E R
(1781871010.924459) can0 121#00A601CF048000D9 R
(1781871010.924728) can0 129#00000001000000D0 R
(1781871010.924979) can0 120#00000000000000D4 R
(1781871010.925220) can0 541#000010000004C451 R
(1781871010.925460) can0 12D#000000000000008B R
(1781871010.925702) can0 12D#00000000000000BE R
(1781871010.931696) can0 12E#000000000000C044 R
(1781871010.931959) can0 12A#10050000000A00B6 R
(1781871010.932200) can0 5A0#0000000004000051 R
(1781871010.932441) can0 121#00A601CF04800038 R
(1781871010.932680) can0 129#0000000100000031 R
(1781871010.932928) can0 120#0000000000000035 R
(1781871010.947625) can0 541#000010000004C464 R
(1781871010.947808) can0 12D#00000000000000D4 R
(1781871010.947959) can0 12D#0000000000000035 R
(1781871010.948103) can0 12E#000000000000C071 R
(1781871010.948245) can0 450#0000000000002800 R
(1781871010.964194) can0 121#00A601CF04800052 R
(1781871010.964464) can0 129#000000010000005B R
(1781871010.964712) can0 120#000000000000005F R
(1781871010.964953) can0 541#000010000004C485 R
(1781871010.965196) can0 12D#000000000000005F R
(1781871010.965439) can0 12D#000000000000006A R
(1781871010.971563) can0 12E#000000000000C090 R
(1781871010.971847) can0 121#00A601CF04800067 R
(1781871010.972091) can0 129#000000010000006E R
(1781871010.972332) can0 540#000040100000FD00 R
(1781871010.972570) can0 5B0#100000000000006B R
(1781871010.972815) can0 120#000000000000006A R
(1781871010.987883) can0 541#000010000004C4B0 R
(1781871010.988141) can0 12D#000000000000008B R
(1781871010.988379) can0 12A#10050000000A00DC R
(1781871010.988618) can0 12D#00000000000000BE R
(1781871010.988858) can0 12E#000000000000C0A5 R
(1781871010.989097) can0 121#00A601CF04800086 R
(1781871011.004281) can0 129#000000010000008F R
(1781871011.004607) can0 120#000000000000008B R
(1781871011.005167) can0 541#000010000004C4DA R
(1781871011.005420) can0 12D#00000000000000D4 R
(1781871011.005669) can0 450#0000000000002800 R
(1781871011.005912) can0 12D#0000000000000035 R
(1781871011.014267) can0 12E#000000000000C0CF R
(1781871011.014526) can0 121#00A601CF048000B3 R
(1781871011.014770) can0 129#00000001000000BA R
(1781871011.015011) can0 120#00000000000000BE R
(1781871011.015263) can0 541#000010000004C43B R
(1781871011.015505) can0 12D#000000000000005F R
(1781871011.027996) can0 12D#000000000000006A R
(1781871011.028240) can0 12E#000000000000C02E R
(1781871011.028480) can0 12A#10050000000A003D R
(1781871011.028721) can0 5A0#0000000004000064 R
(1781871011.028963) can0 121#00A601CF048000D9 R
(1781871011.045219) can0 129#00000001000000D0 R
(1781871011.045474) can0 120#00000000000000D4 R
(1781871011.045714) can0 541#000010000004C451 R
(1781871011.045957) can0 12D#000000000000008B R
(1781871011.046196) can0 12D#00000000000000BE R
(1781871011.046435) can0 12E#000000000000C044 R
(1781871011.064083) can0 450#0000000000002800 R
(1781871011.064328) can0 121#00A601CF04800038 R
(1781871011.064566) can0 129#0000000100000031 R
(1781871011.064805) can0 120#0000000000000035 R
(1781871011.065045) can0 541#000010000004C464 R
(1781871011.065294) can0 12D#00000000000000D4 R
(1781871011.069403) can0 12D#0000000000000035 R
(1781871011.069649) can0 12E#000000000000C071 R
(1781871011.069890) can0 121#00A601CF04800052 R
(1781871011.070128) can0 129#000000010000005B R
(1781871011.070369) can0 540#000040100000FD00 R
(1781871011.070607) can0 5B0#100000000000008A R
(1781871011.087661) can0 120#000000000000005F R
(1781871011.087905) can0 541#000010000004C485 R
(1781871011.088146) can0 12D#000000000000005F R
(1781871011.088387) can0 12A#10050000000A0057 R
(1781871011.088627) can0 12D#000000000000006A R
(1781871011.088872) can0 12E#000000000000C090 R
(1781871011.095469) can0 121#00A601CF04800067 R
(1781871011.095712) can0 129#000000010000006E R
(1781871011.095952) can0 120#000000000000006A R
(1781871011.096190) can0 541#000010000004C4B0 R
(1781871011.096429) can0 12D#000000000000008B R
(1781871011.111497) can0 450#0000000000002800 R
(1781871011.111752) can0 12D#00000000000000BE R
(1781871011.111992) can0 12E#000000000000C0A5 R
(1781871011.112231) can0 121#00A601CF04800086 R
(1781871011.112470) can0 129#000000010000008F R
(1781871011.112708) can0 120#000000000000008B R
(1781871011.127580) can0 541#000010000004C4DA R
(1781871011.127838) can0 12D#00000000000000D4 R
(1781871011.128079) can0 12D#0000000000000035 R
(1781871011.128319) can0 12E#000000000000C0CF R
(1781871011.128558) can0 12A#10050000000A0062 R
(1781871011.128799) can0 5A0#0000000004000085 R
(1781871011.144241) can0 121#00A601CF048000B3 R
(1781871011.144489) can0 129#00000001000000BA R
(1781871011.144735) can0 120#00000000000000BE R
(1781871011.144975) can0 541#000010000004C43B R
(1781871011.145215) can0 12D#000000000000005F R
(1781871011.145455) can0 12D#000000000000006A R
(1781871011.154223) can0 12E#000000000000C02E R
(1781871011.154489) can0 450#0000000000002800 R
(1781871011.154734) can0 121#00A601CF048000D9 R
(1781871011.154975) can0 129#00000001000000D0 R
(1781871011.155214) can0 120#00000000000000D4 R
(1781871011.155455) can0 541#000010000004C451 R
(1781871011.168181) can0 12D#000000000000008B R
(1781871011.168426) can0 12D#00000000000000BE R
(1781871011.168665) can0 12E#000000000000C044 R
(1781871011.168905) can0 121#00A601CF04800038 R
(1781871011.169144) can0 129#0000000100000031 R
(1781871011.169381) can0 540#000040100000FD00 R
(1781871011.184221) can0 5B0#10000000000000BF R
(1781871011.184463) can0 120#0000000000000035 R
(1781871011.184702) can0 541#000010000004C464 R
(1781871011.184940) can0 12D#00000000000000D4 R
(1781871011.185178) can0 12A#10050000000A0083 R
(1781871011.194100) can0 12D#0000000000000035 R
(1781871011.194375) can0 12E#000000000000C071 R
(1781871011.194618) can0 121#00A601CF04800052 R
(1781871011.194857) can0 129#000000010000005B R
(1781871011.195098) can0 120#000000000000005F R
(1781871011.195338) can0 541#000010000004C485 R
(1781871011.209500) can0 12D#000000000000005F R
(1781871011.209745) can0 450#0000000000002800 R
(1781871011.209983) can0 12D#000000000000006A R
(1781871011.210223) can0 12E#000000000000C090 R
(1781871011.210464) can0 121#00A601CF04800067 R
(1781871011.210703) can0 129#000000010000006E R
(1781871011.224839) can0 120#000000000000006A R
(1781871011.225078) can0 541#000010000004C4B0 R
(1781871011.225319) can0 12D#000000000000008B R
(1781871011.225558) can0 12D#00000000000000BE R
(1781871011.225797) can0 12E#000000000000C0A5 R
(1781871011.226036) can0 12A#10050000000A00B6 R
(1781871011.244044) can0 5A0#00000000040000B0 R
(1781871011.244287) can0 121#00A601CF04800086 R
(1781871011.244524) can0 129#000000010000008F R
(1781871011.244761) can0 120#000000000000008B R
(1781871011.245000) can0 541#000010000004C4DA R
(1781871011.245240) can0 12D#00000000000000D4 R
(1781871011.249504) can0 12D#0000000000000035 R
(1781871011.249745) can0 12E#000000000000C0CF R
(1781871011.249984) can0 450#0000000000002800 R
(1781871011.250221) can0 121#00A601CF048000B3 R
(1781871011.250459) can0 129#00000001000000BA R
(1781871011.267760) can0 120#00000000000000BE R
(1781871011.268014) can0 541#000010000004C43B R
(1781871011.268253) can0 12D#000000000000005F R
(1781871011.268490) can0 12D#000000000000006A R
(1781871011.268730) can0 12E#000000000000C02E R
(1781871011.268970) can0 121#00A601CF048000D9 R
(1781871011.274345) can0 129#00000001000000D0 R
(1781871011.274596) can0 540#000040100000FD00 R
(1781871011.274836) can0 5B0#10000000000000D5 R
(1781871011.275075) can0 120#00000000000000D4 R
(1781871011.275312) can0 541#000010000004C451 R
(1781871011.275552) can0 12D#000000000000008B R
(1781871011.291585) can0 12A#10050000000A00DC R
(1781871011.291830) can0 12D#00000000000000BE R
(1781871011.292069) can0 12E#000000000000C044 R
(1781871011.292309) can0 121#00A601CF04800038 R
(1781871011.292549) can0 129#0000000100000031 R
(1781871011.292788) can0 120#0000000000000035 R
(1781871011.307894) can0 541#000010000004C464 R
(1781871011.308155) can0 12D#00000000000000D4 R
(1781871011.308408) can0 450#0000000000002800 R
(1781871011.308660) can0 12D#0000000000000035 R
(1781871011.308909) can0 12E#000000000000C071 R
(1781871011.309158) can0 121#00A601CF04800052 R
(1781871011.324434) can0 129#000000010000005B R
(1781871011.324686) can0 120#000000000000005F R
(1781871011.324931) can0 541#000010000004C485 R
(1781871011.325176) can0 12D#000000000000005F R
(1781871011.325418) can0 12D#000000000000006A R
(1781871011.325660) can0 12E#000000000000C090 R
(1781871011.331713) can0 12A#10050000000A003D R
(1781871011.331956) can0 5A0#00000000040000DA R
(1781871011.332197) can0 121#00A601CF04800067 R
(1781871011.332439) can0 129#000000010000006E R
(1781871011.332680) can0 120#000000000000006A R
(1781871011.347775) can0 541#000010000004C4B0 R
(1781871011.348033) can0 12D#000000000000008B R
(1781871011.348278) can0 12D#00000000000000BE R
(1781871011.348519) can0 12E#000000000000C0A5 R
(1781871011.348762) can0 450#0000000000002800 R
(1781871011.349003) can0 121#00A601CF04800086 R
(1781871011.367608) can0 129#000000010000008F R
(1781871011.367864) can0 120#000000000000008B R
(1781871011.368107) can0 541#000010000004C4DA R
(1781871011.368349) can0 12D#00000000000000D4 R
(1781871011.368590) can0 12D#0000000000000035 R
(1781871011.368831) can0 12E#000000000000C0CF R
(1781871011.374158) can0 121#00A601CF048000B3 R
(1781871011.374401) can0 129#00000001000000BA R
(1781871011.374648) can0 540#000040100000FD00 R
(1781871011.374888) can0 5B0#1000000000000034 R
(1781871011.375128) can0 120#00000000000000BE R
(1781871011.375367) can0 541#000010000004C43B R
(1781871011.389387) can0 12D#000000000000005F R
(1781871011.389631) can0 12A#10050000000A0057 R
(1781871011.389873) can0 12D#000000000000006A R
(1781871011.390114) can0 12E#000000000000C02E R
(1781871011.390352) can0 121#00A601CF048000D9 R
(1781871011.390590) can0 129#00000001000000D0 R
(1781871011.404355) can0 120#00000000000000D4 R
(1781871011.404596) can0 541#000010000004C451 R
(1781871011.404836) can0 12D#000000000000008B R
(1781871011.405075) can0 450#0000000000002800 R
(1781871011.405316) can0 12D#00000000000000BE R
(1781871011.424019) can0 12E#000000000000C044 R
(1781871011.424293) can0 121#00A601CF04800038 R
(1781871011.424538) can0 129#0000000100000031 R
(1781871011.424784) can0 120#0000000000000035 R
(1781871011.425023) can0 541#000010000004C464 R
(1781871011.425262) can0 12D#00000000000000D4 R
(1781871011.429355) can0 12D#0000000000000035 R
(1781871011.429609) can0 12E#000000000000C071 R
(1781871011.429849) can0 12A#10050000000A0062 R
(1781871011.430088) can0 5A0#000000000400003B R
(1781871011.430328) can0 121#00A601CF04800052 R
(1781871011.430567) can0 129#000000010000005B R
(1781871011.447614) can0 120#000000000000005F R
(1781871011.447863) can0 541#000010000004C485 R
(1781871011.448104) can0 12D#000000000000005F R
(1781871011.448346) can0 12D#000000000000006A R
(1781871011.448587) can0 12E#000000000000C090 R
(1781871011.448831) can0 450#0000000000002800 R
(1781871011.464279) can0 121#00A601CF04800067 R
(1781871011.464524) can0 129#000000010000006E R
(1781871011.464764) can0 120#000000000000006A R
(1781871011.465004) can0 541#000010000004C4B0 R
(1781871011.465243) can0 12D#000000000000008B R
(1781871011.465483) can0 12D#00000000000000BE R
(1781871011.469684) can0 12E#000000000000C0A5 R
(1781871011.469927) can0 121#00A601CF04800086 R
(1781871011.470166) can0 129#000000010000008F R
(1781871011.470407) can0 540#000040100000FD00 R
(1781871011.470650) can0 5B0#100000000000005E R
(1781871011.470891) can0 120#000000000000008B R
(1781871011.487762) can0 541#000010000004C4DA R
(1781871011.488022) can0 12D#00000000000000D4 R
(1781871011.488268) can0 12A#10050000000A0083 R
(1781871011.488508) can0 12D#0000000000000035 R
(1781871011.488748) can0 12E#000000000000C0CF R
(1781871011.503902) can0 121#00A601CF048000B3 R
(1781871011.504155) can0 129#00000001000000BA R
(1781871011.504399) can0 120#00000000000000BE R
(1781871011.504644) can0 541#000010000004C43B R
(1781871011.504885) can0 12D#000000000000005F R
(1781871011.505122) can0 450#0000000000002800 R
(1781871011.514088) can0 12D#000000000000006A R
(1781871011.514333) can0 12E#000000000000C02E R
(1781871011.514571) can0 121#00A601CF048000D9 R
(1781871011.514811) can0 129#00000001000000D0 R
(1781871011.515049) can0 120#00000000000000D4 R
(1781871011.515287) can0 541#000010000004C451 R
(1781871011.527898) can0 12D#000000000000008B R
(1781871011.528152) can0 12D#00000000000000BE R
(1781871011.528390) can0 12E#000000000000C044 R
(1781871011.528628) can0 12A#10050000000A00B6 R
(1781871011.528868) can0 5A0#0000000004000051 R
(1781871011.529107) can0 121#00A601CF04800038 R
(1781871011.545360) can0 129#0000000100000031 R
(1781871011.545606) can0 120#0000000000000035 R
(1781871011.545846) can0 541#000010000004C464 R
(1781871011.546086) can0 12D#00000000000000D4 R
(1781871011.546330) can0 12D#0000000000000035 R
(1781871011.546571) can0 12E#000000000000C071 R
(1781871011.554262) can0 450#0000000000002800 R
(1781871011.554504) can0 121#00A601CF04800052 R
(1781871011.554743) can0 129#000000010000005B R
(1781871011.554980) can0 120#000000000000005F R
(1781871011.555220) can0 541#000010000004C485 R
(1781871011.568330) can0 12D#000000000000005F R
(1781871011.568582) can0 12D#000000000000006A R
(1781871011.568821) can0 12E#000000000000C090 R
(1781871011.569060) can0 121#00A601CF04800067 R
(1781871011.569299) can0 129#000000010000006E R
(1781871011.569536) can0 540#000040100000FD00 R
(1781871011.584159) can0 5B0#100000000000006B R
(1781871011.584416) can0 120#000000000000006A R
(1781871011.584658) can0 541#000010000004C4B0 R
(1781871011.584896) can0 12D#000000000000008B R
(1781871011.585135) can0 12A#10050000000A00DC R
(1781871011.585373) can0 12D#00000000000000BE R
(1781871011.595355) can0 12E#000000000000C0A5 R
(1781871011.595598) can0 121#00A601CF04800086 R
(1781871011.595836) can0 129#000000010000008F R
(1781871011.596114) can0 120#000000000000008B R
(1781871011.596352) can0 541#000010000004C4DA R
(1781871011.596590) can0 12D#00000000000000D4 R
(1781871011.611621) can0 450#0000000000002800 R
(1781871011.611864) can0 12D#0000000000000035 R
(1781871011.612104) can0 12E#000000000000C0CF R
(1781871011.612342) can0 121#00A601CF048000B3 R
(1781871011.612580) can0 129#00000001000000BA R
(1781871011.612817) can0 120#00000000000000BE R
(1781871011.624889) can0 541#000010000004C52D R
(1781871011.625129) can0 12D#000000000000005F R
(1781871011.625366) can0 12D#000000000000006A R
(1781871011.625604) can0 12E#000000000000C02E R
(1781871011.625842) can0 12A#10050000000A003D R
(1781871011.626082) can0 5A0#0000000004000064 R
(1781871011.644078) can0 121#00A601CF048000D9 R
(1781871011.644324) can0 129#00000001000000D0 R
(1781871011.644567) can0 120#00000000000000D4 R
(1781871011.644806) can0 541#000010000004C547 R
(1781871011.645046) can0 12D#000000000000008B R
(1781871011.651516) can0 12D#00000000000000BE R
(1781871011.651770) can0 12E#000000000000C044 R
(1781871011.652009) can0 450#0000000000002800 R
(1781871011.652250) can0 121#00A601CF04800038 R
(1781871011.652488) can0 129#0000000100000031 R
(1781871011.652727) can0 120#0000000000000035 R
(1781871011.668087) can0 541#000010000004C572 R
(1781871011.668331) can0 12D#00000000000000D4 R
(1781871011.668573) can0 12D#0000000000000035 R
(1781871011.668812) can0 12E#000000000000C071 R
(1781871011.669050) can0 121#00A601CF04800052 R
(1781871011.669290) can0 129#000000010000005B R
(1781871011.683941) can0 540#000040100000FE00 R
(1781871011.684187) can0 5B0#100000000000008A R
(1781871011.684427) can0 120#000000000000005F R
(1781871011.684665) can0 541#000010000004C593 R
(1781871011.684905) can0 12D#000000000000005F R
(1781871011.685143) can0 12A#10050000000A0057 R
(1781871011.694158) can0 12D#000000000000006A R
(1781871011.694398) can0 12E#000000000000C090 R
(1781871011.694637) can0 121#00A601CF04800067 R
(1781871011.694875) can0 129#000000010000006E R
(1781871011.695113) can0 120#000000000000006A R
(1781871011.695352) can0 541#000010000004C5A6 R
(1781871011.707986) can0 12D#000000000000008B R
(1781871011.708228) can0 450#0000000000002800 R
(1781871011.708466) can0 12D#00000000000000BE R
(1781871011.708705) can0 12E#000000000000C0A5 R
(1781871011.708944) can0 121#00A601CF04800086 R
(1781871011.724432) can0 129#000000010000008F R
(1781871011.724683) can0 120#000000000000008B R
(1781871011.724922) can0 541#000010000004C5CC R
(1781871011.725160) can0 12D#00000000000000D4 R
(1781871011.725399) can0 12D#0000000000000035 R
(1781871011.725639) can0 12E#000000000000C0CF R
(1781871011.734051) can0 12A#10050000000A0062 R
(1781871011.734303) can0 5A0#0000000004000085 R
(1781871011.734543) can0 121#00A601CF048000B3 R
(1781871011.734781) can0 129#00000001000000BA R
(1781871011.735020) can0 120#00000000000000BE R
(1781871011.735259) can0 541#000010000004C52D R
(1781871011.745293) can0 12D#000000000000005F R
(1781871011.746093) can0 12D#000000000000006A R
(1781871011.746333) can0 12E#000000000000C02E R
(1781871011.763842) can0 450#0000000000002800 R
(1781871011.764098) can0 121#00A601CF048000D9 R
(1781871011.764339) can0 129#00000001000000D0 R
(1781871011.764580) can0 120#00000000000000D4 R
(1781871011.764819) can0 541#000010000004C547 R
(1781871011.765059) can0 12D#000000000000008B R
(1781871011.769357) can0 12D#00000000000000BE R
(1781871011.769667) can0 12E#000000000000C044 R
(1781871011.769908) can0 121#00A601CF04800038 R
(1781871011.770147) can0 129#0000000100000031 R
(1781871011.770386) can0 540#000040100000FE00 R
(1781871011.770624) can0 5B0#10000000000000BF R
(1781871011.787629) can0 120#0000000000000035 R
(1781871011.787875) can0 541#000010000004C572 R
(1781871011.788116) can0 12D#00000000000000D4 R
(1781871011.788355) can0 12A#10050000000A0083 R
(1781871011.788594) can0 12D#0000000000000035 R
(1781871011.788833) can0 12E#000000000000C071 R
(1781871011.803984) can0 121#00A601CF04800052 R
(1781871011.804230) can0 129#000000010000005B R
(1781871011.804470) can0 120#000000000000005F R
(1781871011.804710) can0 541#000010000004C593 R
(1781871011.804949) can0 12D#000000000000005F R
(1781871011.805189) can0 450#0000000000002800 R
(1781871011.814143) can0 12D#000000000000006A R
(1781871011.814284) can0 12E#000000000000C090 R
(1781871011.814422) can0 121#00A601CF04800067 R
(1781871011.814559) can0 129#000000010000006E R
(1781871011.814696) can0 120#000000000000006A R
(1781871011.814836) can0 541#000010000004C5A6 R
(1781871011.827805) can0 12D#000000000000008B R
(1781871011.828063) can0 12D#00000000000000BE R
(1781871011.828306) can0 12E#000000000000C0A5 R
(1781871011.828548) can0 12A#10050000000A00B6 R
(1781871011.828788) can0 5A0#00000000040000B0 R
(1781871011.844112) can0 121#00A601CF04800086 R
(1781871011.844371) can0 129#000000010000008F R
(1781871011.844618) can0 120#000000000000008B R
(1781871011.844858) can0 541#000010000004C5CC R
(1781871011.845098) can0 12D#00000000000000D4 R
(1781871011.845337) can0 12D#0000000000000035 R
(1781871011.854101) can0 12E#000000000000C0CF R
(1781871011.854345) can0 450#0000000000002800 R
(1781871011.854584) can0 121#00A601CF048000B3 R
(1781871011.854822) can0 129#00000001000000BA R
(1781871011.855065) can0 120#00000000000000BE R
(1781871011.855305) can0 541#000010000004C52D R
(1781871011.868395) can0 12D#000000000000005F R
(1781871011.868638) can0 12D#000000000000006A R
(1781871011.868876) can0 12E#000000000000C02E R
(1781871011.869115) can0 121#00A601CF048000D9 R
(1781871011.869353) can0 129#00000001000000D0 R
(1781871011.869597) can0 540#000040100000FE00 R
(1781871011.884247) can0 5B0#10000000000000D5 R
(1781871011.884501) can0 120#00000000000000D4 R
(1781871011.884744) can0 541#000010000004C547 R
(1781871011.884985) can0 12D#000000000000008B R
(1781871011.885226) can0 12A#10050000000A00DC R
(1781871011.885465) can0 12D#00000000000000BE R
(1781871011.894194) can0 12E#000000000000C044 R
(1781871011.894440) can0 121#00A601CF04800038 R
(1781871011.894681) can0 129#0000000100000031 R
(1781871011.894919) can0 120#0000000000000035 R
(1781871011.895157) can0 541#000010000004C572 R
(1781871011.909250) can0 12D#00000000000000D4 R
(1781871011.909509) can0 450#0000000000002800 R
(1781871011.909752) can0 12D#0000000000000035 R
(1781871011.909994) can0 12E#000000000000C071 R
(1781871011.910293) can0 121#00A601CF04800052 R
(1781871011.910652) can0 129#000000010000005B R
(1781871011.924695) can0 120#000000000000005F R
(1781871011.924949) can0 541#000010000004C593 R
(1781871011.925190) can0 12D#000000000000005F R
(1781871011.925432) can0 12D#000000000000006A R
(1781871011.925672) can0 12E#000000000000C090 R
(1781871011.925913) can0 12A#10050000000A003D R
(1781871011.943895) can0 5A0#00000000040000DA R
(1781871011.944147) can0 121#00A601CF04800067 R
(1781871011.944388) can0 129#000000010000006E R
(1781871011.944627) can0 120#000000000000006A R
(1781871011.944867) can0 541#000010000004C5A6 R
(1781871011.945106) can0 12D#000000000000008B R
(1781871011.951616) can0 12D#00000000000000BE R
(1781871011.951858) can0 12E#000000000000C0A5 R
(1781871011.952097) can0 450#0000000000002800 R
(1781871011.952342) can0 121#00A601CF04800086 R
(1781871011.952581) can0 129#000000010000008F R
(1781871011.952820) can0 120#000000000000008B R
(1781871011.968388) can0 541#000010000004C5CC R
(1781871011.968630) can0 12D#00000000000000D4 R
(1781871011.968870) can0 12D#0000000000000035 R
(1781871011.969109) can0 12E#000000000000C0CF R
(1781871011.969349) can0 121#00A601CF048000B3 R
(1781871011.969587) can0 129#00000001000000BA R
(1781871011.974448) can0 540#000040100000FE00 R
(1781871011.974688) can0 5B0#1000000000000034 R
(1781871011.974936) can0 120#00000000000000BE R
(1781871011.975177) can0 541#000010000004C52D R
(1781871011.975414) can0 12D#000000000000005F R
(1781871011.991499) can0 12A#10050000000A0057 R
(1781871011.991754) can0 12D#000000000000006A R
(1781871011.991993) can0 12E#000000000000C02E R
(1781871011.992233) can0 121#00A601CF048000D9 R
(1781871011.992472) can0 129#00000001000000D0 R
(1781871011.992713) can0 120#00000000000000D4 R
(1781871012.007863) can0 541#000010000004C547 R
(1781871012.008125) can0 12D#000000000000008B R
(1781871012.008393) can0 450#0000000000002800 R
(1781871012.008634) can0 12D#00000000000000BE R
(1781871012.008874) can0 12E#000000000000C044 R
(1781871012.009116) can0 121#00A601CF04800038 R
(1781871012.024593) can0 129#0000000100000031 R
(1781871012.024864) can0 120#0000000000000035 R
(1781871012.025115) can0 541#000010000004C572 R
(1781871012.025360) can0 12D#00000000000000D4 R
(1781871012.025602) can0 12D#0000000000000035 R
(1781871012.025844) can0 12E#000000000000C071 R
(1781871012.034197) can0 12A#10050000000A0062 R
(1781871012.034443) can0 5A0#000000000400003B R
(1781871012.034686) can0 121#00A601CF04800052 R
(1781871012.034928) can0 129#000000010000005B R
(1781871012.035170) can0 120#000000000000005F R
(1781871012.035411) can0 541#000010000004C593 R
(1781871012.048009) can0 12D#000000000000005F R
(1781871012.048266) can0 12D#000000000000006A R
(1781871012.048510) can0 12E#000000000000C090 R
(1781871012.048750) can0 450#0000000000002800 R
(1781871012.048990) can0 121#00A601CF04800067 R
(1781871012.067548) can0 129#000000010000006E R
(1781871012.067812) can0 120#000000000000006A R
(1781871012.068057) can0 541#000010000004C5A6 R
(1781871012.068298) can0 12D#000000000000008B R
(1781871012.068539) can0 12D#00000000000000BE R
(1781871012.068780) can0 12E#000000000000C0A5 R
(1781871012.074062) can0 121#00A601CF04800086 R
(1781871012.074314) can0 129#000000010000008F R
(1781871012.074554) can0 540#000040100000FE00 R
(1781871012.074792) can0 5B0#100000000000005E R
(1781871012.075030) can0 120#000000000000008B R
(1781871012.075267) can0 541#000010000004C5CC R
(1781871012.089377) can0 12D#00000000000000D4 R
(1781871012.089621) can0 12A#10050000000A0083 R
(1781871012.089860) can0 12D#0000000000000035 R
(1781871012.090100) can0 12E#000000000000C0CF R
(1781871012.090346) can0 121#00A601CF048000B3 R
(1781871012.090587) can0 129#00000001000000BA R
(1781871012.107676) can0 120#00000000000000BE R
(1781871012.107919) can0 541#000010000004C52D R
(1781871012.108158) can0 12D#000000000000005F R
(1781871012.108397) can0 450#0000000000002800 R
(1781871012.108635) can0 12D#000000000000006A R
(1781871012.108876) can0 12E#000000000000C02E R
(1781871012.124360) can0 121#00A601CF048000D9 R
(1781871012.124601) can0 129#00000001000000D0 R
(1781871012.124840) can0 120#00000000000000D4 R
(1781871012.125077) can0 541#000010000004C547 R
(1781871012.125317) can0 12D#000000000000008B R
(1781871012.125555) can0 12D#00000000000000BE R
(1781871012.129519) can0 12E#000000000000C044 R
(1781871012.129761) can0 12A#10050000000A00B6 R
(1781871012.130000) can0 5A0#0000000004000051 R
(1781871012.130239) can0 121#00A601CF04800038 R
(1781871012.130477) can0 129#0000000100000031 R
(1781871012.147572) can0 120#0000000000000035 R
(1781871012.147894) can0 541#000010000004C572 R
(1781871012.149209) can0 12D#00000000000000D4 R
(1781871012.149470) can0 12D#0000000000000035 R
(1781871012.149721) can0 12E#000000000000C071 R
(1781871012.149969) can0 450#0000000000002800 R
(1781871012.164196) can0 121#00A601CF04800052 R
(1781871012.164456) can0 129#000000010000005B R
(1781871012.164699) can0 120#000000000000005F R
(1781871012.164942) can0 541#000010000004C593 R
(1781871012.165181) can0 12D#000000000000005F R
(1781871012.165420) can0 12D#000000000000006A R
(1781871012.171608) can0 12E#000000000000C090 R
(1781871012.171866) can0 121#00A601CF04800067 R
(1781871012.172119) can0 129#000000010000006E R
(1781871012.172371) can0 540#000040100000FE00 R
(1781871012.172621) can0 5B0#100000000000006B R
(1781871012.172870) can0 120#000000000000006A R
(1781871012.187950) can0 541#000010000004C5A6 R
(1781871012.188203) can0 12D#000000000000008B R
(1781871012.188450) can0 12A#10050000000A00DC R
(1781871012.188704) can0 12D#00000000000000BE R
(1781871012.188950) can0 12E#000000000000C0A5 R
(1781871012.189196) can0 121#00A601CF04800086 R
(1781871012.204059) can0 129#000000010000008F R
(1781871012.204307) can0 120#000000000000008B R
(1781871012.204553) can0 541#000010000004C5CC R
(1781871012.204799) can0 12D#00000000000000D4 R
(1781871012.205046) can0 450#0000000000002800 R
(1781871012.214005) can0 12D#0000000000000035 R
(1781871012.214267) can0 12E#000000000000C0CF R
(1781871012.214512) can0 121#00A601CF048000B3 R
(1781871012.214758) can0 129#00000001000000BA R
(1781871012.215002) can0 120#00000000000000BE R
(1781871012.215245) can0 541#000010000004C52D R
(1781871012.227869) can0 12D#000000000000005F R
(1781871012.228129) can0 12D#000000000000006A R
(1781871012.228378) can0 12E#000000000000C02E R
(1781871012.228622) can0 12A#10050000000A003D R
(1781871012.228866) can0 5A0#0000000004000064 R
(1781871012.229112) can0 121#00A601CF048000D9 R
(1781871012.245296) can0 129#00000001000000D0 R
(1781871012.245546) can0 120#00000000000000D4 R
(1781871012.245798) can0 541#000010000004C547 R
(1781871012.246043) can0 12D#000000000000008B R
(1781871012.246288) can0 12D#00000000000000BE R
(1781871012.246532) can0 12E#000000000000C044 R
(1781871012.263940) can0 450#0000000000002800 R
(1781871012.264191) can0 121#00A601CF04800038 R
(1781871012.264437) can0 129#0000000100000031 R
(1781871012.264684) can0 120#0000000000000035 R
(1781871012.264930) can0 541#000010000004C572 R
(1781871012.265177) can0 12D#00000000000000D4 R
(1781871012.269513) can0 12D#0000000000000035 R
(1781871012.269759) can0 12E#000000000000C071 R
(1781871012.270003) can0 121#00A601CF04800052 R
(1781871012.270246) can0 129#000000010000005B R
(1781871012.270490) can0 540#000040100000FE00 R
(1781871012.270734) can0 5B0#100000000000008A R
(1781871012.284310) can0 120#000000000000005F R
(1781871012.284557) can0 541#000010000004C593 R
(1781871012.284801) can0 12D#000000000000005F R
(1781871012.285045) can0 12A#10050000000A0057 R
(1781871012.285289) can0 12D#000000000000006A R
(1781871012.295272) can0 12E#000000000000C090 R
(1781871012.295529) can0 121#00A601CF04800067 R
(1781871012.295775) can0 129#000000010000006E R
(1781871012.296019) can0 120#000000000000006A R
(1781871012.296263) can0 541#000010000004C5A6 R
(1781871012.296508) can0 12D#000000000000008B R
(1781871012.311576) can0 450#0000000000002800 R
(1781871012.311825) can0 12D#00000000000000BE R
(1781871012.312068) can0 12E#000000000000C0A5 R
(1781871012.312315) can0 121#00A601CF04800086 R
(1781871012.312558) can0 129#000000010000008F R
(1781871012.312800) can0 120#000000000000008B R
(1781871012.327757) can0 541#000010000004C5CC R
(1781871012.328004) can0 12D#00000000000000D4 R
(1781871012.328249) can0 12D#0000000000000035 R
(1781871012.328492) can0 12E#000000000000C0CF R
(1781871012.328736) can0 12A#10050000000A0062 R
(1781871012.328979) can0 5A0#0000000004000085 R
(1781871012.344190) can0 121#00A601CF048000B3 R
(1781871012.344437) can0 129#00000001000000BA R
(1781871012.344680) can0 120#00000000000000BE R
(1781871012.344925) can0 541#000010000004C52D R
(1781871012.345169) can0 12D#000000000000005F R
(1781871012.345413) can0 12D#000000000000006A R
(1781871012.351698) can0 12E#000000000000C02E R
(1781871012.351944) can0 450#0000000000002800 R
(1781871012.352190) can0 121#00A601CF048000D9 R
(1781871012.352434) can0 129#00000001000000D0 R
(1781871012.352681) can0 120#00000000000000D4 R
(1781871012.368049) can0 541#000010000004C547 R
(1781871012.368307) can0 12D#000000000000008B R
(1781871012.368552) can0 12D#00000000000000BE R
(1781871012.368795) can0 12E#000000000000C044 R
(1781871012.369038) can0 121#00A601CF04800038 R
(1781871012.369280) can0 129#0000000100000031 R
(1781871012.383854) can0 540#000040100000FE00 R
(1781871012.384111) can0 5B0#10000000000000BF R
(1781871012.384356) can0 120#0000000000000035 R
(1781871012.384600) can0 541#000010000004C572 R
(1781871012.384841) can0 12D#00000000000000D4 R
(1781871012.385083) can0 12A#10050000000A0083 R
(1781871012.394083) can0 12D#0000000000000035 R
(1781871012.394332) can0 12E#000000000000C071 R
(1781871012.394577) can0 121#00A601CF04800052 R
(1781871012.394821) can0 129#000000010000005B R
(1781871012.395100) can0 120#000000000000005F R
(1781871012.395345) can0 541#000010000004C593 R
(1781871012.409406) can0 12D#000000000000005F R
(1781871012.409651) can0 450#0000000000002800 R
(1781871012.409894) can0 12D#000000000000006A R
(1781871012.410136) can0 12E#000000000000C090 R
(1781871012.410415) can0 121#00A601CF04800067 R
(1781871012.410661) can0 129#000000010000006E R
(1781871012.424827) can0 120#000000000000006A R
(1781871012.425074) can0 541#000010000004C5A6 R
(1781871012.425317) can0 12D#000000000000008B R
(1781871012.425561) can0 12D#00000000000000BE R
(1781871012.425805) can0 12E#000000000000C0A5 R
(1781871012.426046) can0 12A#10050000000A00B6 R
(1781871012.434228) can0 5A0#00000000040000B0 R
(1781871012.434472) can0 121#00A601CF04800086 R
(1781871012.434714) can0 129#000000010000008F R
(1781871012.434955) can0 120#000000000000008B R
(1781871012.435196) can0 541#000010000004C5CC R
(1781871012.449317) can0 12D#00000000000000D4 R
(1781871012.449588) can0 12D#0000000000000035 R
(1781871012.449836) can0 12E#000000000000C0CF R
(1781871012.450079) can0 450#0000000000002800 R
(1781871012.450323) can0 121#00A601CF048000B3 R
(1781871012.450565) can0 129#00000001000000BA R
(1781871012.467864) can0 120#00000000000000BE R
(1781871012.468121) can0 541#000010000004C52D R
(1781871012.468363) can0 12D#000000000000005F R
(1781871012.468605) can0 12D#000000000000006A R
(1781871012.468846) can0 12E#000000000000C02E R
(1781871012.469088) can0 121#00A601CF048000D9 R
(1781871012.474302) can0 129#00000001000000D0 R
(1781871012.474547) can0 540#000040100000FE00 R
(1781871012.474789) can0 5B0#10000000000000D5 R
(1781871012.475031) can0 120#00000000000000D4 R
(1781871012.475273) can0 541#000010000004C547 R
(1781871012.475515) can0 12D#000000000000008B R
