(1781872186.239015) can0 12D#0000000000000000 R
(1781872186.239496) can0 12D#0000000000000000 R
(1781872186.239786) can0 12D#0000000000000000 R
(1781872186.240039) can0 12D#0000000000000000 R
(1781872186.240304) can0 12D#0000000000000000 R
(1781872186.240554) can0 12D#0000000000000000 R
(1781872186.240795) can0 12D#0000000000000000 R
(1781872186.241035) can0 12D#0000000000000000 R
(1781872186.241274) can0 12D#0000000000000000 R
(1781872186.241513) can0 12D#0000000000000000 R
(1781872186.241751) can0 12D#0000000000000000 R
(1781872186.241996) can0 12D#0000000000000000 R
(1781872186.242115) can0 12D#0000000000000000 R
(1781872186.242215) can0 12D#0000000000000000 R
(1781872186.242310) can0 12D#0000000000000000 R
(1781872186.242404) can0 12D#0000000000000000 R
(1781872186.242499) can0 12D#0000000000000000 R
(1781872186.243671) can0 12D#0000000000000000 R
(1781872186.243793) can0 12D#0000000000000000 R
(1781872186.243881) can0 12D#0000000000000000 R
(1781872186.243957) can0 12D#0000000000000000 R
(1781872186.244033) can0 12D#0000000000000035 R
(1781872186.244111) can0 12D#0000000000000035 R
(1781872186.245228) can0 12D#0000000000000035 R
(1781872186.245325) can0 12D#0000000000000035 R
(1781872186.245402) can0 12D#0000000000000035 R
(1781872186.245480) can0 12D#0000000000000035 R
(1781872186.245558) can0 12D#0000000000000035 R
(1781872186.245632) can0 12D#0000000000000035 R
(1781872186.246880) can0 12D#0000000000000035 R
(1781872186.246988) can0 12D#0000000000000035 R
(1781872186.247075) can0 12D#0000000000000035 R
(1781872186.247165) can0 12D#0000000000000035 R
(1781872186.247253) can0 12D#0000000000000035 R
(1781872186.247339) can0 12D#0000000000000035 R
(1781872186.248559) can0 12D#0000000000000035 R
(1781872186.248647) can0 12D#0000000000000035 R
(1781872186.248733) can0 12D#0000000000000035 R
(1781872186.248818) can0 12D#0000000000000035 R
(1781872186.248903) can0 12D#0000000000000035 R
(1781872186.248988) can0 12D#0000000000000035 R
(1781872186.249936) can0 12D#0000000000000035 R
(1781872186.250024) can0 12D#0000000000000035 R
(1781872186.250110) can0 12D#0000000000000035 R
(1781872186.250195) can0 12D#0000000000000035 R
(1781872186.250280) can0 12D#0000000000000035 R
(1781872186.251500) can0 12D#0000000000000035 R
(1781872186.251610) can0 12D#0000000000000035 R
(1781872186.251696) can0 12D#0000000000000035 R
(1781872186.251782) can0 12D#0000000000000035 R
(1781872186.251867) can0 12D#0000000000000035 R
(1781872186.251952) can0 12D#0000000000000035 R
(1781872186.253203) can0 12D#0000000000000035 R
(1781872186.253314) can0 12D#0000000000000035 R
(1781872186.253400) can0 12D#0000000000000035 R
(1781872186.253485) can0 12D#0000000000000035 R
(1781872186.253570) can0 12D#0000000000000035 R
(1781872186.253655) can0 12D#0000000000000035 R
(1781872186.254839) can0 12D#000000000000005F R
(1781872186.254928) can0 12D#000000000000005F R
(1781872186.255013) can0 12D#000000000000005F R
(1781872186.255100) can0 12D#000000000000005F R
(1781872186.255185) can0 12D#000000000000005F R
(1781872186.255271) can0 12D#000000000000005F R
(1781872186.256550) can0 12D#000000000000005F R
(1781872186.256649) can0 12D#000000000000005F R
(1781872186.256734) can0 12D#000000000000005F R
(1781872186.256820) can0 12D#000000000000005F R
(1781872186.256906) can0 12D#000000000000005F R
(1781872186.256991) can0 12D#000000000000005F R
(1781872186.267256) can0 12D#000000000000005F R
(1781872186.267346) can0 12E#0000000000000000 R
(1781872186.267431) can0 12D#000000000000006A R
(1781872186.267517) can0 12E#0000000000000035 R
(1781872186.267602) can0 121#0000000004840010 R
(1781872186.267688) can0 129#0000000100000004 R
(1781872186.283003) can0 540#0000000000000000 R
(1781872186.283121) can0 5B0#0000000000000000 R
(1781872186.283223) can0 120#0000000000000000 R
(1781872186.283325) can0 12D#000000000000008B R
(1781872186.283427) can0 12A#10010000000A001D R
(1781872186.302945) can0 12D#00000000000000BE R
(1781872186.303139) can0 12E#000000000000005F R
(1781872186.303264) can0 121#0000000004840025 R
(1781872186.303382) can0 129#0000000100000031 R
(1781872186.303499) can0 120#0000000000000035 R
(1781872186.303615) can0 12D#00000000000000D4 R
(1781872186.323158) can0 12D#0000000000000035 R
(1781872186.323608) can0 12E#000000000000006A R
(1781872186.323898) can0 121#00AC01D604800053 R
(1781872186.324151) can0 129#000000010000005B R
(1781872186.324396) can0 120#000000000000005F R
(1781872186.324639) can0 12D#000000000000005F R
(1781872186.328548) can0 12D#000000000000006A R
(1781872186.328797) can0 12E#000000000000008B R
(1781872186.329036) can0 12A#10010000000A0028 R
(1781872186.329272) can0 5A0#0000000000000000 R
(1781872186.329509) can0 121#00AC01D604800066 R
(1781872186.329746) can0 129#000000010000006E R
(1781872186.348538) can0 120#000000000000006A R
(1781872186.348782) can0 12D#000000000000008B R
(1781872186.349019) can0 12D#00000000000000BE R
(1781872186.349255) can0 12E#00000000000000BE R
(1781872186.349491) can0 121#00AC01D604800087 R
(1781872186.349728) can0 129#000000010000008F R
(1781872186.367187) can0 120#000000000000008B R
(1781872186.367432) can0 12D#00000000000000D4 R
(1781872186.367668) can0 12D#0000000000000035 R
(1781872186.367905) can0 12E#00000000000000D4 R
(1781872186.368160) can0 121#00AC01D6048000B2 R
(1781872186.382955) can0 129#00000001000000BA R
(1781872186.383235) can0 540#0000000100010000 R
(1781872186.383489) can0 5B0#0000000000000035 R
(1781872186.383740) can0 120#00000000000000BE R
(1781872186.383988) can0 12D#000000000000005F R
(1781872186.384235) can0 12A#10010000000A0042 R
(1781872186.403016) can0 12D#000000000000006A R
(1781872186.403285) can0 12E#0000000000000035 R
(1781872186.403534) can0 121#00AC01D6048000D8 R
(1781872186.403779) can0 129#00000001000000D0 R
(1781872186.404023) can0 120#00000000000000D4 R
(1781872186.404269) can0 12D#000000000000008B R
(1781872186.423153) can0 12D#00000000000000BE R
(1781872186.423406) can0 12E#000000000000005F R
(1781872186.423649) can0 121#00AC01D604800039 R
(1781872186.423892) can0 129#0000000100000031 R
(1781872186.424133) can0 120#0000000000000035 R
(1781872186.424374) can0 12D#00000000000000D4 R
(1781872186.428571) can0 12D#0000000000000035 R
(1781872186.428831) can0 12E#000000000000006A R
(1781872186.429073) can0 12A#10010000000A0077 R
(1781872186.429313) can0 5A0#0000000000000035 R
(1781872186.429555) can0 121#00AC01D604800053 R
(1781872186.429794) can0 129#000000010000005B R
(1781872186.447137) can0 120#000000000000005F R
(1781872186.447386) can0 12D#000000000000005F R
(1781872186.447626) can0 12D#000000000000006A R
(1781872186.447868) can0 12E#000000000000008B R
(1781872186.448108) can0 121#00AC01D604800066 R
(1781872186.448349) can0 129#000000010000006E R
(1781872186.467159) can0 120#000000000000006A R
(1781872186.467406) can0 12D#000000000000008B R
(1781872186.467646) can0 12D#00000000000000BE R
(1781872186.467885) can0 12E#00000000000000BE R
(1781872186.468124) can0 121#00AC01D604800087 R
(1781872186.473451) can0 129#000000010000008F R
(1781872186.473703) can0 540#0000000100010000 R
(1781872186.473940) can0 5B0#100000000000005E R
(1781872186.474176) can0 120#000000000000008B R
(1781872186.474435) can0 541#0001100000095B07 R
(1781872186.474673) can0 12D#00000000000000D4 R
(1781872186.489876) can0 12A#10010000000A0096 R
(1781872186.490118) can0 12D#0000000000000035 R
(1781872186.490356) can0 12E#00000000000000D4 R
(1781872186.490595) can0 121#00AC01D6048000B2 R
(1781872186.490834) can0 129#00000001000000BA R
(1781872186.491072) can0 120#00000000000000BE R
(1781872186.507055) can0 541#0001100000095B32 R
(1781872186.507301) can0 12D#000000000000005F R
(1781872186.507539) can0 450#0000000000002800 R
(1781872186.507776) can0 12D#000000000000006A R
(1781872186.508017) can0 12E#0000000000000035 R
(1781872186.508254) can0 121#00A601CF048000D9 R
(1781872186.523696) can0 129#00000001000000D0 R
(1781872186.523939) can0 120#00000000000000D4 R
(1781872186.524177) can0 541#0001100000095B58 R
(1781872186.524415) can0 12D#000000000000008B R
(1781872186.524652) can0 12D#00000000000000BE R
(1781872186.524888) can0 12E#000000000000005F R
(1781872186.530006) can0 12A#10010000000A00A3 R
(1781872186.530247) can0 5A0#000000000000005F R
(1781872186.530522) can0 121#00A601CF04800038 R
(1781872186.530760) can0 129#0000000100000031 R
(1781872186.531005) can0 120#0000000000000035 R
(1781872186.546939) can0 541#0001100000095B6D R
(1781872186.547194) can0 12D#00000000000000D4 R
(1781872186.547433) can0 12D#0000000000000035 R
(1781872186.547672) can0 12E#000000000000006A R
(1781872186.547909) can0 450#0000000000002800 R
(1781872186.548148) can0 121#00A601CF04800052 R
(1781872186.566779) can0 129#000000010000005B R
(1781872186.567030) can0 120#000000000000005F R
(1781872186.567267) can0 541#0001100000095B8C R
(1781872186.567505) can0 12D#000000000000005F R
(1781872186.567743) can0 12D#000000000000006A R
(1781872186.567981) can0 12E#000000000000008B R
(1781872186.573267) can0 121#00A601CF04800067 R
(1781872186.573509) can0 129#000000010000006E R
(1781872186.573749) can0 540#0000001100010000 R
(1781872186.573988) can0 5B0#100000000000006B R
(1781872186.574224) can0 120#000000000000006A R
(1781872186.574461) can0 541#0001100000095BB9 R
(1781872186.588497) can0 12D#000000000000008B R
(1781872186.588746) can0 12A#10010000000A00C9 R
(1781872186.588989) can0 12D#00000000000000BE R
(1781872186.589228) can0 12E#00000000000000BE R
(1781872186.589470) can0 121#00A601CF04800086 R
(1781872186.589711) can0 129#000000010000008F R
(1781872186.603434) can0 120#000000000000008B R
(1781872186.603680) can0 541#0001100000095BD3 R
(1781872186.603919) can0 12D#00000000000000D4 R
(1781872186.604158) can0 450#0000000000002800 R
(1781872186.604397) can0 12D#0000000000000035 R
(1781872186.604635) can0 12E#00000000000000D4 R
(1781872186.623636) can0 121#00A601CF048000B3 R
(1781872186.623878) can0 129#00000001000000BA R
(1781872186.624115) can0 120#00000000000000BE R
(1781872186.624350) can0 541#0001100000095B32 R
(1781872186.624588) can0 12D#000000000000005F R
(1781872186.628392) can0 12D#000000000000006A R
(1781872186.628649) can0 12E#0000000000000035 R
(1781872186.628890) can0 12A#10010000000A0028 R
(1781872186.629133) can0 5A0#000000000000006A R
(1781872186.629374) can0 121#00A601CF048000D9 R
(1781872186.629615) can0 129#00000001000000D0 R
(1781872186.646768) can0 120#00000000000000D4 R
(1781872186.647009) can0 541#0001100000095C50 R
(1781872186.647246) can0 12D#000000000000008B R
(1781872186.647483) can0 12D#00000000000000BE R
(1781872186.647721) can0 12E#000000000000005F R
(1781872186.647959) can0 450#0000000000002800 R
(1781872186.663715) can0 121#00A601CF04800038 R
(1781872186.663962) can0 129#0000000100000031 R
(1781872186.664201) can0 120#0000000000000035 R
(1781872186.664441) can0 541#0001100000095C65 R
(1781872186.664679) can0 12D#00000000000000D4 R
(1781872186.664917) can0 12D#0000000000000035 R
(1781872186.669948) can0 12E#000000000000006A R
(1781872186.670189) can0 121#00A601CF04800052 R
(1781872186.670429) can0 129#000000010000005B R
(1781872186.670666) can0 540#0000401000010000 R
(1781872186.670906) can0 5B0#100000000000008A R
(1781872186.671144) can0 120#000000000000005F R
(1781872186.686895) can0 541#0001100000095C84 R
(1781872186.687138) can0 12D#000000000000005F R
(1781872186.687378) can0 12A#10010000000A0042 R
(1781872186.687619) can0 12D#000000000000006A R
(1781872186.687857) can0 12E#000000000000008B R
(1781872186.703363) can0 121#00A601CF04800067 R
(1781872186.703642) can0 129#000000010000006E R
(1781872186.703889) can0 120#000000000000006A R
(1781872186.704129) can0 541#0001100000095CB1 R
(1781872186.704366) can0 12D#000000000000008B R
(1781872186.704605) can0 450#0000000000002800 R
(1781872186.713526) can0 12D#00000000000000BE R
(1781872186.713781) can0 12E#00000000000000BE R
(1781872186.714021) can0 121#00A601CF04800086 R
(1781872186.714259) can0 129#000000010000008F R
(1781872186.714502) can0 120#000000000000008B R
(1781872186.714740) can0 541#0001100000095CDB R
(1781872186.727078) can0 12D#00000000000000D4 R
(1781872186.727325) can0 12D#0000000000000035 R
(1781872186.727565) can0 12E#00000000000000D4 R
(1781872186.727805) can0 12A#10010000000A0077 R
(1781872186.728044) can0 5A0#000000000000008B R
(1781872186.728284) can0 121#00A601CF048000B3 R
(1781872186.744619) can0 129#00000001000000BA R
(1781872186.744860) can0 120#00000000000000BE R
(1781872186.745097) can0 541#0001100000095C3A R
(1781872186.745334) can0 12D#000000000000005F R
(1781872186.745572) can0 12D#000000000000006A R
(1781872186.745808) can0 12E#0000000000000035 R
(1781872186.753707) can0 450#0000000000002800 R
(1781872186.753947) can0 121#00A601CF048000D9 R
(1781872186.754188) can0 129#00000001000000D0 R
(1781872186.754425) can0 120#00000000000000D4 R
(1781872186.754663) can0 541#0001100000095C50 R
(1781872186.754901) can0 12D#000000000000008B R
(1781872186.767929) can0 12D#00000000000000BE R
(1781872186.768171) can0 12E#000000000000005F R
(1781872186.768407) can0 121#00A601CF04800038 R
(1781872186.768644) can0 129#0000000100000031 R
(1781872186.768882) can0 540#0000401000010000 R
(1781872186.783577) can0 5B0#10000000000000BF R
(1781872186.783828) can0 120#0000000000000035 R
(1781872186.784065) can0 541#0001100000095C65 R
(1781872186.784302) can0 12D#00000000000000D4 R
(1781872186.784539) can0 12A#10010000000A0096 R
(1781872186.784827) can0 12D#0000000000000035 R
(1781872186.794618) can0 12E#000000000000006A R
(1781872186.794863) can0 121#00A601CF04800052 R
(1781872186.795100) can0 129#000000010000005B R
(1781872186.795337) can0 120#000000000000005F R
(1781872186.795574) can0 541#0001100000095C84 R
(1781872186.795811) can0 12D#000000000000005F R
(1781872186.809901) can0 450#0000000000002800 R
(1781872186.810145) can0 12D#000000000000006A R
(1781872186.810385) can0 12E#000000000000008B R
(1781872186.810622) can0 121#00A601CF04800067 R
(1781872186.810857) can0 129#000000010000006E R
(1781872186.811091) can0 120#000000000000006A R
(1781872186.827162) can0 541#0001100000095CB1 R
(1781872186.827431) can0 12D#000000000000008B R
(1781872186.827681) can0 12D#00000000000000BE R
(1781872186.827925) can0 12E#00000000000000BE R
(1781872186.828168) can0 12A#10010000000A00A3 R
(1781872186.828410) can0 5A0#00000000000000BE R
(1781872186.843541) can0 121#00A601CF04800086 R
(1781872186.843809) can0 129#000000010000008F R
(1781872186.844048) can0 120#000000000000008B R
(1781872186.844291) can0 541#0001100000095CDB R
(1781872186.844528) can0 12D#00000000000000D4 R
(1781872186.849805) can0 12D#0000000000000035 R
(1781872186.850057) can0 12E#00000000000000D4 R
(1781872186.850294) can0 450#0000000000002800 R
(1781872186.850534) can0 121#00A601CF048000B3 R
(1781872186.850770) can0 129#00000001000000BA R
(1781872186.851008) can0 120#00000000000000BE R
(1781872186.867284) can0 541#0001100000095C3A R
(1781872186.867537) can0 12D#000000000000005F R
(1781872186.867773) can0 12D#000000000000006A R
(1781872186.868009) can0 12E#0000000000000035 R
(1781872186.868247) can0 121#00A601CF048000D9 R
(1781872186.868483) can0 129#00000001000000D0 R
(1781872186.883458) can0 540#0000401000010000 R
(1781872186.883707) can0 5B0#10000000000000D5 R
(1781872186.883945) can0 120#00000000000000D4 R
(1781872186.884182) can0 541#0001100000095C50 R
(1781872186.884421) can0 12D#000000000000008B R
(1781872186.884659) can0 12A#10010000000A00C9 R
(1781872186.893663) can0 12D#00000000000000BE R
(1781872186.893914) can0 12E#000000000000005F R
(1781872186.894154) can0 121#00A601CF04800038 R
(1781872186.894391) can0 129#0000000100000031 R
(1781872186.894629) can0 120#0000000000000035 R
(1781872186.894866) can0 541#0001100000095C65 R
(1781872186.907181) can0 12D#00000000000000D4 R
(1781872186.907420) can0 450#0000000000002800 R
(1781872186.907656) can0 12D#0000000000000035 R
(1781872186.907891) can0 12E#000000000000006A R
(1781872186.908125) can0 121#00A601CF04800052 R
(1781872186.908360) can0 129#000000010000005B R
(1781872186.924249) can0 120#000000000000005F R
(1781872186.924508) can0 541#0001100000095C84 R
(1781872186.924752) can0 12D#000000000000005F R
(1781872186.924993) can0 12D#000000000000006A R
(1781872186.925233) can0 12E#000000000000008B R
(1781872186.933529) can0 12A#10010000000A0028 R
(1781872186.933783) can0 5A0#00000000000000D4 R
(1781872186.934019) can0 121#00A601CF04800067 R
(1781872186.934255) can0 129#000000010000006E R
(1781872186.934492) can0 120#000000000000006A R
(1781872186.934766) can0 541#0001100000095CB1 R
(1781872186.948541) can0 12D#000000000000008B R
(1781872186.948783) can0 12D#00000000000000BE R
(1781872186.949020) can0 12E#00000000000000BE R
(1781872186.949256) can0 450#0000000000002800 R
(1781872186.949493) can0 121#00A601CF04800086 R
(1781872186.949728) can0 129#000000010000008F R
(1781872186.967107) can0 120#000000000000008B R
(1781872186.967348) can0 541#0001100000095CDB R
(1781872186.967584) can0 12D#00000000000000D4 R
(1781872186.967821) can0 12D#0000000000000035 R
(1781872186.968055) can0 12E#00000000000000D4 R
(1781872186.968290) can0 121#00A601CF048000B3 R
(1781872186.973913) can0 129#00000001000000BA R
(1781872186.974151) can0 540#0000401000010000 R
(1781872186.974388) can0 5B0#1000000000000034 R
(1781872186.974623) can0 120#00000000000000BE R
(1781872186.974860) can0 541#0001100000095C3A R
(1781872186.975099) can0 12D#000000000000005F R
(1781872186.988633) can0 12A#10010000000A0042 R
(1781872186.988869) can0 12D#000000000000006A R
(1781872186.989104) can0 12E#0000000000000035 R
(1781872186.989339) can0 121#00A601CF048000D9 R
(1781872186.989575) can0 129#00000001000000D0 R
(1781872187.006768) can0 120#00000000000000D4 R
(1781872187.007035) can0 541#0001100000095C50 R
(1781872187.007274) can0 12D#000000000000008B R
(1781872187.007514) can0 450#0000000000002800 R
(1781872187.007751) can0 12D#00000000000000BE R
(1781872187.007988) can0 12E#000000000000005F R
(1781872187.023724) can0 121#00A601CF04800038 R
(1781872187.023975) can0 129#0000000100000031 R
(1781872187.024212) can0 120#0000000000000035 R
(1781872187.024449) can0 541#0001100000095C65 R
(1781872187.024685) can0 12D#00000000000000D4 R
(1781872187.024920) can0 12D#0000000000000035 R
(1781872187.029891) can0 12E#000000000000006A R
(1781872187.030132) can0 12A#10010000000A0077 R
(1781872187.030370) can0 5A0#0000000000000035 R
(1781872187.030621) can0 121#00A601CF04800052 R
(1781872187.030858) can0 129#000000010000005B R
(1781872187.031097) can0 120#000000000000005F R
(1781872187.047149) can0 541#0001100000095C84 R
(1781872187.047395) can0 12D#000000000000005F R
(1781872187.047631) can0 12D#000000000000006A R
(1781872187.047868) can0 12E#000000000000008B R
(1781872187.048103) can0 450#0000000000002800 R
(1781872187.048340) can0 121#00A601CF04800067 R
(1781872187.063785) can0 129#000000010000006E R
(1781872187.064026) can0 120#000000000000006A R
(1781872187.064262) can0 541#0001100000095CB1 R
(1781872187.064497) can0 12D#000000000000008B R
(1781872187.064732) can0 12D#00000000000000BE R
(1781872187.064969) can0 12E#00000000000000BE R
(1781872187.070060) can0 121#00A601CF04800086 R
(1781872187.070328) can0 129#000000010000008F R
(1781872187.070573) can0 540#0000401000010000 R
(1781872187.070814) can0 5B0#100000000000005E R
(1781872187.071059) can0 120#000000000000008B R
(1781872187.087038) can0 541#0001100000095CDB R
(1781872187.087296) can0 12D#00000000000000D4 R
(1781872187.087532) can0 12A#10010000000A0096 R
(1781872187.087770) can0 12D#0000000000000035 R
(1781872187.088006) can0 12E#00000000000000D4 R
(1781872187.088243) can0 121#00A601CF048000B3 R
(1781872187.103717) can0 129#00000001000000BA R
(1781872187.103983) can0 120#00000000000000BE R
(1781872187.104228) can0 541#0001100000095C3A R
(1781872187.104467) can0 12D#000000000000005F R
(1781872187.104705) can0 450#0000000000002800 R
(1781872187.104943) can0 12D#000000000000006A R
(1781872187.123576) can0 12E#0000000000000035 R
(1781872187.123823) can0 121#00A601CF048000D9 R
(1781872187.124061) can0 129#00000001000000D0 R
(1781872187.124298) can0 120#00000000000000D4 R
(1781872187.124533) can0 541#0000100000095C58 R
(1781872187.124770) can0 12D#000000000000008B R
(1781872187.128737) can0 12D#00000000000000BE R
(1781872187.128983) can0 12E#000000000000005F R
(1781872187.129222) can0 12A#10010000000A00A3 R
(1781872187.129460) can0 5A0#000000000000005F R
(1781872187.129697) can0 121#00A601CF04800038 R
(1781872187.129933) can0 129#0000000100000031 R
(1781872187.144696) can0 120#0000000000000035 R
(1781872187.144936) can0 541#0000100000095C6D R
(1781872187.145172) can0 12D#00000000000000D4 R
(1781872187.145422) can0 12D#0000000000000035 R
(1781872187.145662) can0 12E#000000000000006A R
(1781872187.163321) can0 450#0000000000002800 R
(1781872187.163577) can0 121#00A601CF04800052 R
(1781872187.163817) can0 129#000000010000005B R
(1781872187.164054) can0 120#000000000000005F R
(1781872187.164291) can0 541#0000100000095C8C R
(1781872187.164533) can0 12D#000000000000005F R
(1781872187.168598) can0 12D#000000000000006A R
(1781872187.168846) can0 12E#000000000000008B R
(1781872187.169083) can0 121#00A601CF04800067 R
(1781872187.169321) can0 129#000000010000006E R
(1781872187.169558) can0 540#0000401000010000 R
(1781872187.169793) can0 5B0#100000000000006B R
(1781872187.186862) can0 120#000000000000006A R
(1781872187.187110) can0 541#0000100000095CB9 R
(1781872187.187349) can0 12D#000000000000008B R
(1781872187.187584) can0 12A#10010000000A00C9 R
(1781872187.187820) can0 12D#00000000000000BE R
(1781872187.188055) can0 12E#00000000000000BE R
(1781872187.203468) can0 121#00A601CF04800086 R
(1781872187.203707) can0 129#000000010000008F R
(1781872187.203942) can0 120#000000000000008B R
(1781872187.204183) can0 541#0000100000095CD3 R
(1781872187.204420) can0 12D#00000000000000D4 R
(1781872187.204655) can0 450#0000000000002800 R
(1781872187.210978) can0 12D#0000000000000035 R
(1781872187.211215) can0 12E#00000000000000D4 R
(1781872187.211450) can0 121#00A601CF048000B3 R
(1781872187.211685) can0 129#00000001000000BA R
(1781872187.211921) can0 120#00000000000000BE R
(1781872187.212156) can0 541#0000100000095C32 R
(1781872187.227028) can0 12D#000000000000005F R
(1781872187.227283) can0 12D#000000000000006A R
(1781872187.227526) can0 12E#0000000000000035 R
(1781872187.227769) can0 12A#10010000000A0028 R
(1781872187.228012) can0 5A0#000000000000006A R
(1781872187.243596) can0 121#00A601CF048000D9 R
(1781872187.243847) can0 129#00000001000000D0 R
(1781872187.244083) can0 120#00000000000000D4 R
(1781872187.244319) can0 541#0000100000095C58 R
(1781872187.244553) can0 12D#000000000000008B R
(1781872187.244790) can0 12D#00000000000000BE R
(1781872187.253568) can0 12E#000000000000C044 R
(1781872187.253809) can0 450#0000000000002800 R
(1781872187.254046) can0 121#00A601CF04800038 R
(1781872187.254280) can0 129#0000000100000031 R
(1781872187.254516) can0 120#0000000000000035 R
(1781872187.254751) can0 541#0000100000095C6D R
(1781872187.267643) can0 12D#00000000000000D4 R
(1781872187.267884) can0 12D#0000000000000035 R
(1781872187.268119) can0 12E#000000000000C071 R
(1781872187.268356) can0 121#00A601CF04800052 R
(1781872187.268589) can0 129#000000010000005B R
(1781872187.268824) can0 540#0000401000010000 R
(1781872187.283711) can0 5B0#100000000000008A R
(1781872187.283949) can0 120#000000000000005F R
(1781872187.284183) can0 541#0000100000095C8C R
(1781872187.284420) can0 12D#000000000000005F R
(1781872187.284655) can0 12A#10010000000A0042 R
(1781872187.284891) can0 12D#000000000000006A R
(1781872187.293661) can0 12E#000000000000C090 R
(1781872187.293911) can0 121#00A601CF04800067 R
(1781872187.294156) can0 129#000000010000006E R
(1781872187.294395) can0 120#000000000000006A R
(1781872187.294633) can0 541#0000100000095CB9 R
(1781872187.308494) can0 12D#000000000000008B R
(1781872187.308746) can0 450#0000000000002800 R
(1781872187.308983) can0 12D#00000000000000BE R
(1781872187.309218) can0 12E#000000000000C0A5 R
(1781872187.309456) can0 121#00A601CF04800086 R
(1781872187.309691) can0 129#000000010000008F R
(1781872187.324207) can0 120#000000000000008B R
(1781872187.324456) can0 541#0000100000095CD3 R
(1781872187.324690) can0 12D#00000000000000D4 R
(1781872187.324928) can0 12D#0000000000000035 R
(1781872187.325163) can0 12E#000000000000C0CF R
(1781872187.325399) can0 12A#10010000000A0077 R
(1781872187.343429) can0 5A0#0000000004000085 R
(1781872187.343670) can0 121#00A601CF048000B3 R
(1781872187.343907) can0 129#00000001000000BA R
(1781872187.344141) can0 120#00000000000000BE R
(1781872187.344376) can0 541#0000100000095C32 R
(1781872187.344611) can0 12D#000000000000005F R
(1781872187.351205) can0 12D#000000000000006A R
(1781872187.351466) can0 12E#000000000000C02E R
(1781872187.351702) can0 450#0000000000002800 R
(1781872187.351938) can0 121#00A601CF048000D9 R
(1781872187.352173) can0 129#00000001000000D0 R
(1781872187.352410) can0 120#00000000000000D4 R
(1781872187.367184) can0 541#0000100000095C58 R
(1781872187.367422) can0 12D#000000000000008B R
(1781872187.367659) can0 12D#00000000000000BE R
(1781872187.367895) can0 12E#000000000000C044 R
(1781872187.368132) can0 121#00A601CF04800038 R
(1781872187.368365) can0 129#0000000100000031 R
(1781872187.373906) can0 540#0000401000010000 R
(1781872187.374145) can0 5B0#10000000000000BF R
(1781872187.374379) can0 120#0000000000000035 R
(1781872187.374614) can0 541#0000100000095C6D R
(1781872187.374848) can0 12D#00000000000000D4 R
(1781872187.390825) can0 12A#10010000000A0096 R
(1781872187.391075) can0 12D#0000000000000035 R
(1781872187.391310) can0 12E#000000000000C071 R
(1781872187.391547) can0 121#00A601CF04800052 R
(1781872187.391782) can0 129#000000010000005B R
(1781872187.392018) can0 120#000000000000005F R
(1781872187.407085) can0 541#0000100000095C8C R
(1781872187.407325) can0 12D#000000000000005F R
(1781872187.407561) can0 450#0000000000002800 R
(1781872187.407796) can0 12D#000000000000006A R
(1781872187.408032) can0 12E#000000000000C090 R
(1781872187.408266) can0 121#00A601CF04800067 R
(1781872187.424033) can0 129#000000010000006E R
(1781872187.424283) can0 120#000000000000006A R
(1781872187.424519) can0 541#0000100000095CB9 R
(1781872187.424753) can0 12D#000000000000008B R
(1781872187.424987) can0 12D#00000000000000BE R
(1781872187.425227) can0 12E#000000000000C0A5 R
(1781872187.433650) can0 12A#10010000000A00A3 R
(1781872187.433890) can0 5A0#00000000040000B0 R
(1781872187.434125) can0 121#00A601CF04800086 R
(1781872187.434360) can0 129#000000010000008F R
(1781872187.434598) can0 120#000000000000008B R
(1781872187.434833) can0 541#0000100000095CD3 R
(1781872187.447205) can0 12D#00000000000000D4 R
(1781872187.447442) can0 12D#0000000000000035 R
(1781872187.447679) can0 12E#000000000000C0CF R
(1781872187.447912) can0 450#0000000000002800 R
(1781872187.448145) can0 121#00A601CF048000B3 R
(1781872187.466785) can0 129#00000001000000BA R
(1781872187.467036) can0 120#00000000000000BE R
(1781872187.467272) can0 541#0000100000095C32 R
(1781872187.467506) can0 12D#000000000000005F R
(1781872187.467742) can0 12D#000000000000006A R
(1781872187.467978) can0 12E#000000000000C02E R
(1781872187.473535) can0 121#00A601CF048000D9 R
(1781872187.473790) can0 129#00000001000000D0 R
(1781872187.474030) can0 540#0000401000010000 R
(1781872187.474265) can0 5B0#10000000000000D5 R
(1781872187.474498) can0 120#00000000000000D4 R
(1781872187.474736) can0 541#0000100000095C58 R
(1781872187.488600) can0 12D#000000000000008B R
(1781872187.488839) can0 12A#10010000000A00C9 R
(1781872187.489077) can0 12D#00000000000000BE R
(1781872187.489313) can0 12E#000000000000C044 R
(1781872187.489549) can0 121#00A601CF04800038 R
(1781872187.489784) can0 129#0000000100000031 R
(1781872187.506961) can0 120#0000000000000035 R
(1781872187.507212) can0 541#0000100000095C6D R
(1781872187.507455) can0 12D#00000000000000D4 R
(1781872187.507693) can0 450#0000000000002800 R
(1781872187.507927) can0 12D#0000000000000035 R
(1781872187.508163) can0 12E#000000000000C071 R
(1781872187.523586) can0 121#00A601CF04800052 R
(1781872187.523825) can0 129#000000010000005B R
(1781872187.524062) can0 120#000000000000005F R
(1781872187.524296) can0 541#0000100000095C8C R
(1781872187.524531) can0 12D#000000000000005F R
(1781872187.524765) can0 12D#000000000000006A R
(1781872187.528961) can0 12E#000000000000C090 R
(1781872187.529199) can0 12A#10010000000A0028 R
(1781872187.529437) can0 5A0#00000000040000DA R
(1781872187.529686) can0 121#00A601CF04800067 R
(1781872187.529922) can0 129#000000010000006E R
(1781872187.546802) can0 120#000000000000006A R
(1781872187.547052) can0 541#0000100000095CB9 R
(1781872187.547289) can0 12D#000000000000008B R
(1781872187.547525) can0 12D#00000000000000BE R
(1781872187.547759) can0 12E#000000000000C0A5 R
(1781872187.547994) can0 450#0000000000002800 R
(1781872187.563614) can0 121#00A601CF04800086 R
(1781872187.563856) can0 129#000000010000008F R
(1781872187.564091) can0 120#000000000000008B R
(1781872187.564326) can0 541#0000100000095CD3 R
(1781872187.564560) can0 12D#00000000000000D4 R
(1781872187.564796) can0 12D#0000000000000035 R
(1781872187.570906) can0 12E#000000000000C0CF R
(1781872187.571147) can0 121#00A601CF048000B3 R
(1781872187.571383) can0 129#00000001000000BA R
(1781872187.571620) can0 540#0000401000010000 R
(1781872187.571854) can0 5B0#1000000000000034 R
(1781872187.572090) can0 120#00000000000000BE R
(1781872187.587170) can0 541#0000100000095C32 R
(1781872187.587410) can0 12D#000000000000005F R
(1781872187.587644) can0 12A#10010000000A0042 R
(1781872187.587879) can0 12D#000000000000006A R
(1781872187.588114) can0 12E#000000000000C02E R
(1781872187.588349) can0 121#00A601CF048000D9 R
(1781872187.603502) can0 129#00000001000000D0 R
(1781872187.603741) can0 120#00000000000000D4 R
(1781872187.603977) can0 541#0000100000095C58 R
(1781872187.604213) can0 12D#000000000000008B R
(1781872187.604448) can0 450#0000000000002800 R
(1781872187.613468) can0 12D#00000000000000BE R
(1781872187.613715) can0 12E#000000000000C044 R
(1781872187.613952) can0 121#00A601CF04800038 R
(1781872187.614186) can0 129#0000000100000031 R
(1781872187.614423) can0 120#0000000000000035 R
(1781872187.614657) can0 541#0000100000095C6D R
(1781872187.627099) can0 12D#00000000000000D4 R
(1781872187.627350) can0 12D#0000000000000035 R
(1781872187.627585) can0 12E#000000000000C071 R
(1781872187.627820) can0 12A#10010000000A0077 R
(1781872187.628055) can0 5A0#000000000400003B R
(1781872187.628289) can0 121#00A601CF04800052 R
(1781872187.644581) can0 129#000000010000005B R
(1781872187.644822) can0 120#000000000000005F R
(1781872187.645061) can0 541#0000100000095D9A R
(1781872187.645296) can0 12D#000000000000005F R
(1781872187.645532) can0 12D#000000000000006A R
(1781872187.645768) can0 12E#000000000000C090 R
(1781872187.663433) can0 450#0000000000002800 R
(1781872187.663675) can0 121#00A601CF04800067 R
(1781872187.663913) can0 129#000000010000006E R
(1781872187.664149) can0 120#000000000000006A R
(1781872187.664383) can0 541#0000100000095DAF R
(1781872187.664619) can0 12D#000000000000008B R
(1781872187.667703) can0 12D#00000000000000BE R
(1781872187.667942) can0 12E#000000000000C0A5 R
(1781872187.668179) can0 121#00A601CF04800086 R
(1781872187.668414) can0 129#000000010000008F R
(1781872187.668649) can0 540#0000401000010000 R
(1781872187.668883) can0 5B0#100000000000005E R
(1781872187.683749) can0 120#000000000000008B R
(1781872187.683987) can0 541#0000100000095DC5 R
(1781872187.684223) can0 12D#00000000000000D4 R
(1781872187.684459) can0 12A#10010000000A0096 R
(1781872187.684695) can0 12D#0000000000000035 R
(1781872187.694586) can0 12E#000000000000C0CF R
(1781872187.694835) can0 121#00A601CF048000B3 R
(1781872187.695072) can0 129#00000001000000BA R
(1781872187.695308) can0 120#00000000000000BE R
(1781872187.695543) can0 541#0000100000095D24 R
(1781872187.695783) can0 12D#000000000000005F R
(1781872187.710870) can0 450#0000000000002800 R
(1781872187.711112) can0 12D#000000000000006A R
(1781872187.711346) can0 12E#000000000000C02E R
(1781872187.711581) can0 121#00A601CF048000D9 R
(1781872187.711815) can0 129#00000001000000D0 R
(1781872187.712050) can0 120#00000000000000D4 R
(1781872187.726943) can0 541#0000100000095D4E R
(1781872187.727181) can0 12D#000000000000008B R
(1781872187.727417) can0 12D#00000000000000BE R
(1781872187.727652) can0 12E#000000000000C044 R
(1781872187.727888) can0 12A#10010000000A00A3 R
(1781872187.728123) can0 5A0#0000000004000051 R
(1781872187.743677) can0 121#00A601CF04800038 R
(1781872187.743916) can0 129#0000000100000031 R
(1781872187.744151) can0 120#0000000000000035 R
(1781872187.744387) can0 541#0000100000095D7B R
(1781872187.744621) can0 12D#00000000000000D4 R
(1781872187.744856) can0 12D#0000000000000035 R
(1781872187.751002) can0 12E#000000000000C071 R
(1781872187.751240) can0 450#0000000000002800 R
(1781872187.751476) can0 121#00A601CF04800052 R
(1781872187.751739) can0 129#000000010000005B R
(1781872187.751976) can0 120#000000000000005F R
(1781872187.766799) can0 541#0000100000095D9A R
(1781872187.767055) can0 12D#000000000000005F R
(1781872187.767834) can0 12D#000000000000006A R
(1781872187.768071) can0 12E#000000000000C090 R
(1781872187.773575) can0 121#00A601CF04800067 R
(1781872187.773813) can0 129#000000010000006E R
(1781872187.774050) can0 540#0000401000010000 R
(1781872187.774286) can0 5B0#100000000000006B R
(1781872187.774521) can0 120#000000000000006A R
(1781872187.774756) can0 541#0000100000095DAF R
(1781872187.787220) can0 12D#000000000000008B R
(1781872187.787515) can0 12A#10010000000A00C9 R
(1781872187.787753) can0 12D#00000000000000BE R
(1781872187.787989) can0 12E#000000000000C0A5 R
(1781872187.788224) can0 121#00A601CF04800086 R
(1781872187.803513) can0 129#000000010000008F R
(1781872187.803764) can0 120#000000000000008B R
(1781872187.804001) can0 541#0000100000095DC5 R
(1781872187.804237) can0 12D#00000000000000D4 R
(1781872187.804473) can0 450#0000000000002800 R
(1781872187.804709) can0 12D#0000000000000035 R
(1781872187.823407) can0 12E#000000000000C0CF R
(1781872187.823709) can0 121#00A601CF048000B3 R
(1781872187.823968) can0 129#00000001000000BA R
(1781872187.824091) can0 120#00000000000000BE R
(1781872187.824213) can0 541#0000100000095D24 R
(1781872187.824333) can0 12D#000000000000005F R
(1781872187.828607) can0 12D#000000000000006A R
(1781872187.828753) can0 12E#000000000000C02E R
(1781872187.828888) can0 12A#10010000000A0028 R
(1781872187.829022) can0 5A0#0000000004000064 R
(1781872187.829157) can0 121#00A601CF048000D9 R
(1781872187.829292) can0 129#00000001000000D0 R
(1781872187.846938) can0 120#00000000000000D4 R
(1781872187.847195) can0 541#0000100000095D4E R
(1781872187.847443) can0 12D#000000000000008B R
(1781872187.847681) can0 12D#00000000000000BE R
(1781872187.847917) can0 12E#000000000000C044 R
(1781872187.848153) can0 450#0000000000002800 R
(1781872187.863684) can0 121#00A601CF04800038 R
(1781872187.863930) can0 129#0000000100000031 R
(1781872187.864167) can0 120#0000000000000035 R
(1781872187.864416) can0 541#0000100000095D7B R
(1781872187.864657) can0 12D#00000000000000D4 R
(1781872187.864900) can0 12D#0000000000000035 R
(1781872187.868786) can0 12E#000000000000C071 R
(1781872187.869024) can0 121#00A601CF04800052 R
(1781872187.869260) can0 129#000000010000005B R
(1781872187.869495) can0 540#0000401000010000 R
(1781872187.869731) can0 5B0#100000000000008A R
(1781872187.886889) can0 120#000000000000005F R
(1781872187.887141) can0 541#0000100000095D9A R
(1781872187.887378) can0 12D#000000000000005F R
(1781872187.887614) can0 12A#10010000000A0042 R
(1781872187.887849) can0 12D#000000000000006A R
(1781872187.888085) can0 12E#000000000000C090 R
(1781872187.903386) can0 121#00A601CF04800067 R
(1781872187.903634) can0 129#000000010000006E R
(1781872187.903871) can0 120#000000000000006A R
(1781872187.904106) can0 541#0000100000095DAF R
(1781872187.904342) can0 12D#000000000000008B R
(1781872187.904577) can0 450#0000000000002800 R
(1781872187.913614) can0 12D#00000000000000BE R
(1781872187.913922) can0 12E#000000000000C0A5 R
(1781872187.914280) can0 121#00A601CF04800086 R
(1781872187.914634) can0 129#000000010000008F R
(1781872187.914983) can0 120#000000000000008B R
(1781872187.915320) can0 541#0000100000095DC5 R
(1781872187.927316) can0 12D#00000000000000D4 R
(1781872187.927561) can0 12D#0000000000000035 R
(1781872187.927798) can0 12E#000000000000C0CF R
(1781872187.928034) can0 12A#10010000000A0077 R
(1781872187.928269) can0 5A0#0000000004000085 R
(1781872187.928505) can0 121#00A601CF048000B3 R
(1781872187.943713) can0 129#00000001000000BA R
(1781872187.943962) can0 120#00000000000000BE R
(1781872187.944199) can0 541#0000100000095D24 R
(1781872187.944435) can0 12D#000000000000005F R
(1781872187.944673) can0 12D#000000000000006A R
(1781872187.953479) can0 12E#000000000000C02E R
(1781872187.953731) can0 450#0000000000002800 R
(1781872187.953968) can0 121#00A601CF048000D9 R
(1781872187.954207) can0 129#00000001000000D0 R
(1781872187.954444) can0 120#00000000000000D4 R
(1781872187.954683) can0 541#0000100000095D4E R
(1781872187.967593) can0 12D#000000000000008B R
(1781872187.967843) can0 12D#00000000000000BE R
(1781872187.968080) can0 12E#000000000000C044 R
(1781872187.968316) can0 121#00A601CF04800038 R
(1781872187.968551) can0 129#0000000100000031 R
(1781872187.968787) can0 540#0000401000010000 R
(1781872187.983623) can0 5B0#10000000000000BF R
(1781872187.983864) can0 120#0000000000000035 R
(1781872187.984100) can0 541#0000100000095D7B R
(1781872187.984336) can0 12D#00000000000000D4 R
(1781872187.984570) can0 12A#10010000000A0096 R
(1781872187.984807) can0 12D#0000000000000035 R
(1781872187.994696) can0 12E#000000000000C071 R
(1781872187.994935) can0 121#00A601CF04800052 R
(1781872187.995171) can0 129#000000010000005B R
(1781872187.995406) can0 120#000000000000005F R
(1781872187.995641) can0 541#0000100000095D9A R
(1781872187.995876) can0 12D#000000000000005F R
(1781872188.010981) can0 450#0000000000002800 R
(1781872188.011224) can0 12D#000000000000006A R
(1781872188.011460) can0 12E#000000000000C090 R
(1781872188.011696) can0 121#00A601CF04800067 R
(1781872188.011935) can0 129#000000010000006E R
(1781872188.012152) can0 120#000000000000006A R
(1781872188.024370) can0 541#0000100000095DAF R
(1781872188.024616) can0 12D#000000000000008B R
(1781872188.024852) can0 12D#00000000000000BE R
(1781872188.025088) can0 12E#000000000000C0A5 R
(1781872188.025324) can0 12A#10010000000A00A3 R
(1781872188.043302) can0 5A0#00000000040000B0 R
(1781872188.043579) can0 121#00A601CF04800086 R
(1781872188.043822) can0 129#000000010000008F R
(1781872188.044062) can0 120#000000000000008B R
(1781872188.044299) can0 541#0000100000095DC5 R
(1781872188.044534) can0 12D#00000000000000D4 R
(1781872188.050865) can0 12D#0000000000000035 R
(1781872188.051109) can0 12E#000000000000C0CF R
(1781872188.051349) can0 450#0000000000002800 R
(1781872188.051588) can0 121#00A601CF048000B3 R
(1781872188.051825) can0 129#00000001000000BA R
(1781872188.052064) can0 120#00000000000000BE R
(1781872188.067405) can0 541#0000100000095D24 R
(1781872188.067650) can0 12D#000000000000005F R
(1781872188.067886) can0 12D#000000000000006A R
(1781872188.068122) can0 12E#000000000000C02E R
(1781872188.068373) can0 121#00A601CF048000D9 R
(1781872188.068645) can0 129#00000001000000D0 R
(1781872188.083432) can0 540#0000401000010000 R
(1781872188.083689) can0 5B0#10000000000000D5 R
(1781872188.083928) can0 120#00000000000000D4 R
(1781872188.084165) can0 541#0000100000095D4E R
(1781872188.084401) can0 12D#000000000000008B R
(1781872188.084637) can0 12A#10010000000A00C9 R
(1781872188.091005) can0 12D#00000000000000BE R
(1781872188.091247) can0 12E#000000000000C044 R
(1781872188.091485) can0 121#00A601CF04800038 R
(1781872188.091723) can0 129#0000000100000031 R
(1781872188.091959) can0 120#0000000000000035 R
(1781872188.107046) can0 541#0000100000095D7B R
(1781872188.107298) can0 12D#00000000000000D4 R
(1781872188.107534) can0 450#0000000000002800 R
(1781872188.107769) can0 12D#0000000000000035 R
(1781872188.108009) can0 12E#000000000000C071 R
(1781872188.108246) can0 121#00A601CF04800052 R
(1781872188.123911) can0 129#000000010000005B R
(1781872188.124159) can0 120#000000000000005F R
(1781872188.124395) can0 541#0000100000095D9A R
(1781872188.124629) can0 12D#000000000000005F R
(1781872188.124864) can0 12D#000000000000006A R
(1781872188.125097) can0 12E#000000000000C090 R
(1781872188.133520) can0 12A#10010000000A0028 R
(1781872188.133760) can0 5A0#00000000040000DA R
(1781872188.133995) can0 121#00A601CF04800067 R
(1781872188.134230) can0 129#000000010000006E R
(1781872188.134464) can0 120#000000000000006A R
(1781872188.134701) can0 541#0000100000095DAF R
(1781872188.148621) can0 12D#000000000000008B R
(1781872188.148771) can0 12D#00000000000000BE R
(1781872188.148919) can0 12E#000000000000C0A5 R
(1781872188.149067) can0 450#0000000000002800 R
(1781872188.149217) can0 121#00A601CF04800086 R
(1781872188.149372) can0 129#000000010000008F R
(1781872188.167212) can0 120#000000000000008B R
(1781872188.167452) can0 541#0000100000095DC5 R
(1781872188.167712) can0 12D#00000000000000D4 R
(1781872188.167948) can0 12D#0000000000000035 R
(1781872188.168184) can0 12E#000000000000C0CF R
(1781872188.168421) can0 121#00A601CF048000B3 R
(1781872188.173690) can0 129#00000001000000BA R
(1781872188.173946) can0 540#0000401000010000 R
(1781872188.174186) can0 5B0#1000000000000034 R
(1781872188.174424) can0 120#00000000000000BE R
(1781872188.174659) can0 541#0000100000095D24 R
(1781872188.188536) can0 12D#000000000000005F R
(1781872188.188786) can0 12A#10010000000A0042 R
(1781872188.189023) can0 12D#000000000000006A R
(1781872188.189261) can0 12E#000000000000C02E R
(1781872188.189497) can0 121#00A601CF048000D9 R
(1781872188.189733) can0 129#00000001000000D0 R
(1781872188.206864) can0 120#00000000000000D4 R
(1781872188.207114) can0 541#0000100000095D4E R
(1781872188.207353) can0 12D#000000000000008B R
(1781872188.207589) can0 450#0000000000002800 R
(1781872188.207825) can0 12D#00000000000000BE R
(1781872188.208063) can0 12E#000000000000C044 R
(1781872188.223693) can0 121#00A601CF04800038 R
(1781872188.223937) can0 129#0000000100000031 R
(1781872188.224174) can0 120#0000000000000035 R
(1781872188.224410) can0 541#0000100000095D7B R
(1781872188.224647) can0 12D#00000000000000D4 R
(1781872188.224885) can0 12D#0000000000000035 R
(1781872188.230936) can0 12E#000000000000C071 R
(1781872188.231179) can0 12A#10010000000A0077 R
(1781872188.231418) can0 5A0#000000000400003B R
(1781872188.231656) can0 121#00A601CF04800052 R
(1781872188.231893) can0 129#000000010000005B R
(1781872188.232131) can0 120#000000000000005F R
(1781872188.247006) can0 541#0000100000095D9A R
(1781872188.247246) can0 12D#000000000000005F R
(1781872188.247483) can0 12D#000000000000006A R
(1781872188.247721) can0 12E#000000000000C090 R
(1781872188.247957) can0 450#0000000000002800 R
(1781872188.263514) can0 121#00A601CF04800067 R
(1781872188.263769) can0 129#000000010000006E R
(1781872188.264005) can0 120#000000000000006A R
(1781872188.264244) can0 541#0000100000095DAF R
(1781872188.264480) can0 12D#000000000000008B R
(1781872188.264716) can0 12D#00000000000000BE R
(1781872188.270846) can0 12E#000000000000C0A5 R
(1781872188.271098) can0 121#00A601CF04800086 R
(1781872188.271336) can0 129#000000010000008F R
(1781872188.271572) can0 540#0000401000010000 R
(1781872188.271810) can0 5B0#100000000000005E R
(1781872188.272046) can0 120#000000000000008B R
(1781872188.287339) can0 541#0000100000095DC5 R
(1781872188.287580) can0 12D#00000000000000D4 R
(1781872188.287817) can0 12A#10050000000A0083 R
(1781872188.288055) can0 12D#0000000000000035 R
(1781872188.288292) can0 12E#000000000000C0CF R
(1781872188.288529) can0 121#00A601CF048000B3 R
(1781872188.303662) can0 129#00000001000000BA R
(1781872188.303903) can0 120#00000000000000BE R
(1781872188.304138) can0 541#0000100000095D24 R
(1781872188.304374) can0 12D#000000000000005F R
(1781872188.304612) can0 450#0000000000002800 R
(1781872188.304865) can0 12D#000000000000006A R
(1781872188.323552) can0 12E#000000000000C02E R
(1781872188.323795) can0 121#00A601CF048000D9 R
(1781872188.324033) can0 129#00000001000000D0 R
(1781872188.324273) can0 120#00000000000000D4 R
(1781872188.324511) can0 541#0000100000095D4E R
(1781872188.324749) can0 12D#000000000000008B R
(1781872188.327380) can0 12D#00000000000000BE R
(1781872188.327639) can0 12E#000000000000C044 R
(1781872188.327882) can0 12A#10050000000A00B6 R
(1781872188.328121) can0 5A0#0000000004000051 R
(1781872188.328359) can0 121#00A601CF04800038 R
(1781872188.344513) can0 129#0000000100000031 R
(1781872188.344765) can0 120#0000000000000035 R
(1781872188.345002) can0 541#0000100000095D7B R
(1781872188.345237) can0 12D#00000000000000D4 R
(1781872188.345476) can0 12D#0000000000000035 R
(1781872188.345711) can0 12E#000000000000C071 R
(1781872188.363319) can0 450#0000000000002800 R
(1781872188.363567) can0 121#00A601CF04800052 R
(1781872188.363804) can0 129#000000010000005B R
(1781872188.364039) can0 120#000000000000005F R
(1781872188.364276) can0 541#0000100000095D9A R
(1781872188.364512) can0 12D#000000000000005F R
(1781872188.368743) can0 12D#000000000000006A R
(1781872188.368981) can0 12E#000000000000C090 R
(1781872188.369218) can0 121#00A601CF04800067 R
(1781872188.369455) can0 129#000000010000006E R
(1781872188.369691) can0 540#0000401000010000 R
(1781872188.369928) can0 5B0#100000000000006B R
(1781872188.386958) can0 120#000000000000006A R
(1781872188.387199) can0 541#0000100000095DAF R
(1781872188.387439) can0 12D#000000000000008B R
(1781872188.387676) can0 12A#10050000000A00DC R
(1781872188.387912) can0 12D#00000000000000BE R
(1781872188.388149) can0 12E#000000000000C0A5 R
(1781872188.394756) can0 121#00A601CF04800086 R
(1781872188.394995) can0 129#000000010000008F R
(1781872188.395229) can0 120#000000000000008B R
(1781872188.395464) can0 541#0000100000095DC5 R
(1781872188.395700) can0 12D#00000000000000D4 R
(1781872188.410796) can0 450#0000000000002800 R
(1781872188.411046) can0 12D#0000000000000035 R
(1781872188.411282) can0 12E#000000000000C0CF R
(1781872188.411516) can0 121#00A601CF048000B3 R
(1781872188.411752) can0 129#00000001000000BA R
(1781872188.411986) can0 120#00000000000000BE R
(1781872188.426888) can0 541#0000100000095D24 R
(1781872188.427142) can0 12D#000000000000005F R
(1781872188.427378) can0 12D#000000000000006A R
(1781872188.427613) can0 12E#000000000000C02E R
(1781872188.427848) can0 12A#10050000000A003D R
(1781872188.428083) can0 5A0#0000000004000064 R
(1781872188.443607) can0 121#00A601CF048000D9 R
(1781872188.443848) can0 129#00000001000000D0 R
(1781872188.444087) can0 120#00000000000000D4 R
(1781872188.444326) can0 541#0000100000095D4E R
(1781872188.444563) can0 12D#000000000000008B R
(1781872188.444801) can0 12D#00000000000000BE R
(1781872188.453567) can0 12E#000000000000C044 R
(1781872188.453807) can0 450#0000000000002800 R
(1781872188.454045) can0 121#00A601CF04800038 R
(1781872188.454281) can0 129#0000000100000031 R
(1781872188.454516) can0 120#0000000000000035 R
(1781872188.454751) can0 541#0000100000095D7B R
(1781872188.467721) can0 12D#00000000000000D4 R
(1781872188.467959) can0 12D#0000000000000035 R
(1781872188.468194) can0 12E#000000000000C071 R
(1781872188.468432) can0 121#00A601CF04800052 R
(1781872188.468669) can0 129#000000010000005B R
(1781872188.468904) can0 540#0000401000010000 R
(1781872188.483488) can0 5B0#100000000000008A R
(1781872188.483736) can0 120#000000000000005F R
(1781872188.483974) can0 541#0000100000095D9A R
(1781872188.484211) can0 12D#000000000000005F R
(1781872188.484448) can0 12A#10050000000A0057 R
(1781872188.493442) can0 12D#000000000000006A R
(1781872188.493696) can0 12E#000000000000C090 R
(1781872188.493933) can0 121#00A601CF04800067 R
(1781872188.494171) can0 129#000000010000006E R
(1781872188.494406) can0 120#000000000000006A R
(1781872188.494645) can0 541#0000100000095DAF R
(1781872188.508610) can0 12D#000000000000008B R
(1781872188.508853) can0 450#0000000000002800 R
(1781872188.509090) can0 12D#00000000000000BE R
(1781872188.509326) can0 12E#000000000000C0A5 R
(1781872188.509561) can0 121#00A601CF04800086 R
(1781872188.509794) can0 129#000000010000008F R
(1781872188.524182) can0 120#000000000000008B R
(1781872188.524422) can0 541#0000100000095DC5 R
(1781872188.524657) can0 12D#00000000000000D4 R
(1781872188.524892) can0 12D#0000000000000035 R
(1781872188.525129) can0 12E#000000000000C0CF R
(1781872188.525364) can0 12A#10050000000A0062 R
(1781872188.543403) can0 5A0#0000000004000085 R
(1781872188.543641) can0 121#00A601CF048000B3 R
(1781872188.543875) can0 129#00000001000000BA R
(1781872188.544110) can0 120#00000000000000BE R
(1781872188.544348) can0 541#0000100000095D24 R
(1781872188.544584) can0 12D#000000000000005F R
(1781872188.548960) can0 12D#000000000000006A R
(1781872188.549199) can0 12E#000000000000C02E R
(1781872188.549434) can0 450#0000000000002800 R
(1781872188.549671) can0 121#00A601CF048000D9 R
(1781872188.549905) can0 129#00000001000000D0 R
(1781872188.567148) can0 120#00000000000000D4 R
(1781872188.567403) can0 541#0000100000095D4E R
(1781872188.567641) can0 12D#000000000000008B R
(1781872188.567877) can0 12D#00000000000000BE R
(1781872188.568113) can0 12E#000000000000C044 R
(1781872188.568377) can0 121#00A601CF04800038 R
(1781872188.573675) can0 129#0000000100000031 R
(1781872188.573925) can0 540#0000401000010000 R
(1781872188.574163) can0 5B0#10000000000000BF R
(1781872188.574400) can0 120#0000000000000035 R
(1781872188.574635) can0 541#0000100000095D7B R
(1781872188.574869) can0 12D#00000000000000D4 R
(1781872188.590878) can0 12A#10050000000A0083 R
(1781872188.591119) can0 12D#0000000000000035 R
(1781872188.591356) can0 12E#000000000000C071 R
(1781872188.591592) can0 121#00A601CF04800052 R
(1781872188.591828) can0 129#000000010000005B R
(1781872188.592063) can0 120#000000000000005F R
(1781872188.607280) can0 541#0000100000095D9A R
(1781872188.607518) can0 12D#000000000000005F R
(1781872188.607753) can0 450#0000000000002800 R
(1781872188.607988) can0 12D#000000000000006A R
(1781872188.608226) can0 12E#000000000000C090 R
(1781872188.608461) can0 121#00A601CF04800067 R
(1781872188.623980) can0 129#000000010000006E R
(1781872188.624217) can0 120#000000000000006A R
(1781872188.624453) can0 541#0000100000095DAF R
(1781872188.624688) can0 12D#000000000000008B R
(1781872188.624922) can0 12D#00000000000000BE R
(1781872188.625156) can0 12E#000000000000C0A5 R
(1781872188.631013) can0 12A#10050000000A00B6 R
(1781872188.631251) can0 5A0#00000000040000B0 R
(1781872188.631486) can0 121#00A601CF04800086 R
(1781872188.631721) can0 129#000000010000008F R
(1781872188.631954) can0 120#000000000000008B R
(1781872188.647175) can0 541#0000100000095ECA R
(1781872188.647426) can0 12D#00000000000000D4 R
(1781872188.647664) can0 12D#0000000000000035 R
(1781872188.647903) can0 12E#000000000000C0CF R
(1781872188.648138) can0 450#0000000000002800 R
(1781872188.648375) can0 121#00A601CF048000B3 R
(1781872188.667095) can0 129#00000001000000BA R
(1781872188.667348) can0 120#00000000000000BE R
(1781872188.667585) can0 541#0000100000095E2B R
(1781872188.667820) can0 12D#000000000000005F R
(1781872188.668057) can0 12D#000000000000006A R
(1781872188.668295) can0 12E#000000000000C02E R
(1781872188.673516) can0 121#00A601CF048000D9 R
(1781872188.673759) can0 129#00000001000000D0 R
(1781872188.673994) can0 540#0000401000010000 R
(1781872188.674231) can0 5B0#10000000000000D5 R
(1781872188.674465) can0 120#00000000000000D4 R
(1781872188.674700) can0 541#0000100000095E41 R
(1781872188.688693) can0 12D#000000000000008B R
(1781872188.688934) can0 12A#10050000000A00DC R
(1781872188.689171) can0 12D#00000000000000BE R
(1781872188.689407) can0 12E#000000000000C044 R
(1781872188.689643) can0 121#00A601CF04800038 R
(1781872188.689879) can0 129#0000000100000031 R
(1781872188.703703) can0 120#0000000000000035 R
(1781872188.703940) can0 541#0000100000095E74 R
(1781872188.704175) can0 12D#00000000000000D4 R
(1781872188.704410) can0 450#0000000000002800 R
(1781872188.704644) can0 12D#0000000000000035 R
(1781872188.723383) can0 12E#000000000000C071 R
(1781872188.723638) can0 121#00A601CF04800052 R
(1781872188.723878) can0 129#000000010000005B R
(1781872188.724114) can0 120#000000000000005F R
(1781872188.724350) can0 541#0000100000095E95 R
(1781872188.724587) can0 12D#000000000000005F R
(1781872188.728639) can0 12D#000000000000006A R
(1781872188.728890) can0 12E#000000000000C090 R
(1781872188.729128) can0 12A#10050000000A003D R
(1781872188.729365) can0 5A0#00000000040000DA R
(1781872188.729601) can0 121#00A601CF04800067 R
(1781872188.729838) can0 129#000000010000006E R
(1781872188.746929) can0 120#000000000000006A R
(1781872188.747167) can0 541#0000100000095EA0 R
(1781872188.747404) can0 12D#000000000000008B R
(1781872188.747639) can0 12D#00000000000000BE R
(1781872188.747875) can0 12E#000000000000C0A5 R
(1781872188.748115) can0 450#0000000000002800 R
(1781872188.763628) can0 121#00A601CF04800086 R
(1781872188.763869) can0 129#000000010000008F R
(1781872188.764105) can0 120#000000000000008B R
(1781872188.764341) can0 541#0000100000095ECA R
(1781872188.764577) can0 12D#00000000000000D4 R
(1781872188.764813) can0 12D#0000000000000035 R
(1781872188.770965) can0 12E#000000000000C0CF R
(1781872188.771202) can0 121#00A601CF048000B3 R
(1781872188.771439) can0 129#00000001000000BA R
(1781872188.771676) can0 540#0000401000010000 R
(1781872188.771913) can0 5B0#1000000000000034 R
(1781872188.772148) can0 120#00000000000000BE R
(1781872188.787052) can0 541#0000100000095E2B R
(1781872188.787291) can0 12D#000000000000005F R
(1781872188.787585) can0 12A#10050000000A0057 R
(1781872188.787829) can0 12D#000000000000006A R
(1781872188.788070) can0 12E#000000000000C02E R
(1781872188.803341) can0 121#00A601CF048000D9 R
(1781872188.803598) can0 129#00000001000000D0 R
(1781872188.803837) can0 120#00000000000000D4 R
(1781872188.804075) can0 541#0000100000095E41 R
(1781872188.804312) can0 12D#000000000000008B R
(1781872188.804550) can0 450#0000000000002800 R
(1781872188.813502) can0 12D#00000000000000BE R
(1781872188.813748) can0 12E#000000000000C044 R
(1781872188.813986) can0 121#00A601CF04800038 R
(1781872188.814225) can0 129#0000000100000031 R
(1781872188.814464) can0 120#0000000000000035 R
(1781872188.814703) can0 541#0000100000095E74 R
(1781872188.827171) can0 12D#00000000000000D4 R
(1781872188.827299) can0 12D#0000000000000035 R
(1781872188.827406) can0 12E#000000000000C071 R
(1781872188.827510) can0 12A#10050000000A0062 R
(1781872188.827610) can0 5A0#000000000400003B R
(1781872188.827708) can0 121#00A601CF04800052 R
(1781872188.844722) can0 129#000000010000005B R
(1781872188.845001) can0 120#000000000000005F R
(1781872188.845247) can0 541#0000100000095E95 R
(1781872188.845488) can0 12D#000000000000005F R
(1781872188.845727) can0 12D#000000000000006A R
(1781872188.845964) can0 12E#000000000000C090 R
(1781872188.853618) can0 450#0000000000002800 R
(1781872188.853858) can0 121#00A601CF04800067 R
(1781872188.854096) can0 129#000000010000006E R
(1781872188.854332) can0 120#000000000000006A R
(1781872188.854570) can0 541#0000100000095EA0 R
(1781872188.867582) can0 12D#000000000000008B R
(1781872188.867834) can0 12D#00000000000000BE R
(1781872188.868076) can0 12E#000000000000C0A5 R
(1781872188.868315) can0 121#00A601CF04800086 R
(1781872188.868552) can0 129#000000010000008F R
(1781872188.868790) can0 540#0000401000010000 R
(1781872188.883573) can0 5B0#100000000000005E R
(1781872188.883834) can0 120#000000000000008B R
(1781872188.884075) can0 541#0000100000095ECA R
(1781872188.884314) can0 12D#00000000000000D4 R
(1781872188.884552) can0 12A#10050000000A0083 R
(1781872188.884791) can0 12D#0000000000000035 R
(1781872188.894668) can0 12E#000000000000C0CF R
(1781872188.894922) can0 121#00A601CF048000B3 R
(1781872188.895163) can0 129#00000001000000BA R
(1781872188.895400) can0 120#00000000000000BE R
(1781872188.895637) can0 541#0000100000095E2B R
(1781872188.895875) can0 12D#000000000000005F R
(1781872188.910934) can0 450#0000000000002800 R
(1781872188.911175) can0 12D#000000000000006A R
(1781872188.911410) can0 12E#000000000000C02E R
(1781872188.911648) can0 121#00A601CF048000D9 R
(1781872188.911883) can0 129#00000001000000D0 R
(1781872188.912120) can0 120#00000000000000D4 R
(1781872188.927070) can0 541#0000100000095E41 R
(1781872188.927312) can0 12D#000000000000008B R
(1781872188.927555) can0 12D#00000000000000BE R
(1781872188.927793) can0 12E#000000000000C044 R
(1781872188.928030) can0 12A#10050000000A00B6 R
(1781872188.928269) can0 5A0#0000000004000051 R
(1781872188.943462) can0 121#00A601CF04800038 R
(1781872188.943703) can0 129#0000000100000031 R
(1781872188.943940) can0 120#0000000000000035 R
(1781872188.944178) can0 541#0000100000095E74 R
(1781872188.944414) can0 12D#00000000000000D4 R
(1781872188.950812) can0 12D#0000000000000035 R
(1781872188.951063) can0 12E#000000000000C071 R
(1781872188.951302) can0 450#0000000000002800 R
(1781872188.951539) can0 121#00A601CF04800052 R
(1781872188.951776) can0 129#000000010000005B R
(1781872188.952014) can0 120#000000000000005F R
(1781872188.967422) can0 541#0000100000095E95 R
(1781872188.967670) can0 12D#000000000000005F R
(1781872188.967912) can0 12D#000000000000006A R
(1781872188.968154) can0 12E#000000000000C090 R
(1781872188.968396) can0 121#00A601CF04800067 R
(1781872188.968639) can0 129#000000010000006E R
(1781872188.983340) can0 540#0000401000010100 R
(1781872188.983603) can0 5B0#100000000000006B R
(1781872188.983842) can0 120#000000000000006A R
(1781872188.984078) can0 541#0000100000095EA0 R
(1781872188.984314) can0 12D#000000000000008B R
(1781872188.984552) can0 12A#10050000000A00DC R
(1781872188.993554) can0 12D#00000000000000BE R
(1781872188.993795) can0 12E#000000000000C0A5 R
(1781872188.994031) can0 121#00A601CF04800086 R
(1781872188.994269) can0 129#000000010000008F R
(1781872188.994506) can0 120#000000000000008B R
(1781872188.994742) can0 541#0000100000095ECA R
(1781872189.007362) can0 12D#00000000000000D4 R
(1781872189.007607) can0 450#0000000000002800 R
(1781872189.007845) can0 12D#0000000000000035 R
(1781872189.008084) can0 12E#000000000000C0CF R
(1781872189.008321) can0 121#00A601CF048000B3 R
(1781872189.023843) can0 129#00000001000000BA R
(1781872189.024125) can0 120#00000000000000BE R
(1781872189.024369) can0 541#0000100000095E2B R
(1781872189.024607) can0 12D#000000000000005F R
(1781872189.024846) can0 12D#000000000000006A R
(1781872189.025084) can0 12E#000000000000C02E R
(1781872189.033457) can0 12A#10050000000A003D R
(1781872189.033719) can0 5A0#0000000004000064 R
(1781872189.033957) can0 121#00A601CF048000D9 R
(1781872189.034195) can0 129#00000001000000D0 R
(1781872189.034435) can0 120#00000000000000D4 R
(1781872189.034671) can0 541#0000100000095E41 R
(1781872189.048834) can0 12D#000000000000008B R
(1781872189.049077) can0 12D#00000000000000BE R
(1781872189.049317) can0 12E#000000000000C044 R
(1781872189.049553) can0 450#0000000000002800 R
(1781872189.049791) can0 121#00A601CF04800038 R
(1781872189.050031) can0 129#0000000100000031 R
(1781872189.067289) can0 120#0000000000000035 R
(1781872189.067531) can0 541#0000100000095E74 R
(1781872189.067767) can0 12D#00000000000000D4 R
(1781872189.068005) can0 12D#0000000000000035 R
(1781872189.068242) can0 12E#000000000000C071 R
(1781872189.068506) can0 121#00A601CF04800052 R
(1781872189.073836) can0 129#000000010000005B R
(1781872189.074082) can0 540#0000401000010100 R
(1781872189.074343) can0 5B0#100000000000008A R
(1781872189.074590) can0 120#000000000000005F R
(1781872189.074834) can0 541#0000100000095E95 R
(1781872189.075074) can0 12D#000000000000005F R
(1781872189.088846) can0 12A#10050000000A0057 R
(1781872189.089084) can0 12D#000000000000006A R
(1781872189.089321) can0 12E#000000000000C090 R
(1781872189.089556) can0 121#00A601CF04800067 R
(1781872189.089793) can0 129#000000010000006E R
(1781872189.106882) can0 120#000000000000006A R
(1781872189.107133) can0 541#0000100000095EA0 R
(1781872189.107374) can0 12D#000000000000008B R
(1781872189.107611) can0 450#0000000000002800 R
(1781872189.107847) can0 12D#00000000000000BE R
(1781872189.108083) can0 12E#000000000000C0A5 R
(1781872189.123657) can0 121#00A601CF04800086 R
(1781872189.123918) can0 129#000000010000008F R
(1781872189.124159) can0 120#000000000000008B R
(1781872189.124396) can0 541#0000100000095ECA R
(1781872189.124633) can0 12D#00000000000000D4 R
(1781872189.124869) can0 12D#0000000000000035 R
(1781872189.130935) can0 12E#000000000000C0CF R
(1781872189.131203) can0 12A#10050000000A0062 R
(1781872189.131462) can0 5A0#0000000004000085 R
(1781872189.131711) can0 121#00A601CF048000B3 R
(1781872189.131968) can0 129#00000001000000BA R
(1781872189.132217) can0 120#00000000000000BE R
(1781872189.147303) can0 541#0000100000095E2B R
(1781872189.147561) can0 12D#000000000000005F R
(1781872189.147804) can0 12D#000000000000006A R
(1781872189.148045) can0 12E#000000000000C02E R
(1781872189.148288) can0 450#0000000000002800 R
(1781872189.148528) can0 121#00A601CF048000D9 R
(1781872189.163696) can0 129#00000001000000D0 R
(1781872189.163943) can0 120#00000000000000D4 R
(1781872189.164187) can0 541#0000100000095E41 R
(1781872189.164424) can0 12D#000000000000008B R
(1781872189.164662) can0 12D#00000000000000BE R
(1781872189.170807) can0 12E#000000000000C044 R
(1781872189.171080) can0 121#00A601CF04800038 R
(1781872189.171327) can0 129#0000000100000031 R
(1781872189.171569) can0 540#0000401000010100 R
(1781872189.171808) can0 5B0#10000000000000BF R
(1781872189.172046) can0 120#0000000000000035 R
(1781872189.187201) can0 541#0000100000095E74 R
(1781872189.187482) can0 12D#00000000000000D4 R
(1781872189.187734) can0 12A#10050000000A0083 R
(1781872189.187993) can0 12D#0000000000000035 R
(1781872189.188242) can0 12E#000000000000C071 R
(1781872189.188494) can0 121#00A601CF04800052 R
(1781872189.203604) can0 129#000000010000005B R
(1781872189.203869) can0 120#000000000000005F R
(1781872189.204110) can0 541#0000100000095E95 R
(1781872189.204349) can0 12D#000000000000005F R
(1781872189.204589) can0 450#0000000000002800 R
(1781872189.204826) can0 12D#000000000000006A R
(1781872189.223488) can0 12E#000000000000C090 R
(1781872189.223734) can0 121#00A601CF04800067 R
(1781872189.223972) can0 129#000000010000006E R
(1781872189.224208) can0 120#000000000000006A R
(1781872189.224443) can0 541#0000100000095EA0 R
(1781872189.224679) can0 12D#000000000000008B R
(1781872189.228830) can0 12D#00000000000000BE R
(1781872189.229083) can0 12E#000000000000C0A5 R
(1781872189.229326) can0 12A#10050000000A00B6 R
(1781872189.229566) can0 5A0#00000000040000B0 R
(1781872189.229806) can0 121#00A601CF04800086 R
(1781872189.230051) can0 129#000000010000008F R
(1781872189.244689) can0 120#000000000000008B R
(1781872189.244934) can0 541#0000100000095ECA R
(1781872189.245175) can0 12D#00000000000000D4 R
(1781872189.245415) can0 12D#0000000000000035 R
(1781872189.245654) can0 12E#000000000000C0CF R
(1781872189.263229) can0 450#0000000000002800 R
(1781872189.263480) can0 121#00A601CF048000B3 R
(1781872189.263721) can0 129#00000001000000BA R
(1781872189.263960) can0 120#00000000000000BE R
(1781872189.264199) can0 541#0000100000095E2B R
(1781872189.264436) can0 12D#000000000000005F R
(1781872189.268696) can0 12D#000000000000006A R
(1781872189.268943) can0 12E#000000000000C02E R
(1781872189.269181) can0 121#00A601CF048000D9 R
(1781872189.269420) can0 129#00000001000000D0 R
(1781872189.269659) can0 540#0000401000010100 R
(1781872189.269896) can0 5B0#10000000000000D5 R
(1781872189.287045) can0 120#00000000000000D4 R
(1781872189.287339) can0 541#0000100000095E41 R
(1781872189.287601) can0 12D#000000000000008B R
(1781872189.287845) can0 12A#10050000000A00DC R
(1781872189.288088) can0 12D#00000000000000BE R
(1781872189.288329) can0 12E#000000000000C044 R
(1781872189.303469) can0 121#00A601CF04800038 R
(1781872189.303742) can0 129#0000000100000031 R
(1781872189.303984) can0 120#0000000000000035 R
(1781872189.304222) can0 541#0000100000095E74 R
(1781872189.304460) can0 12D#00000000000000D4 R
(1781872189.304699) can0 450#0000000000002800 R
(1781872189.311008) can0 12D#0000000000000035 R
(1781872189.311255) can0 12E#000000000000C071 R
(1781872189.311495) can0 121#00A601CF04800052 R
(1781872189.311735) can0 129#000000010000005B R
(1781872189.311975) can0 120#000000000000005F R
(1781872189.326938) can0 541#0000100000095E95 R
(1781872189.327372) can0 12D#000000000000005F R
(1781872189.327631) can0 12D#000000000000006A R
(1781872189.327878) can0 12E#000000000000C090 R
(1781872189.328133) can0 12A#10050000000A003D R
(1781872189.328396) can0 5A0#00000000040000DA R
(1781872189.343554) can0 121#00A601CF04800067 R
(1781872189.343884) can0 129#000000010000006E R
(1781872189.344136) can0 120#000000000000006A R
(1781872189.344377) can0 541#0000100000095EA0 R
(1781872189.344617) can0 12D#000000000000008B R
(1781872189.344856) can0 12D#00000000000000BE R
(1781872189.353532) can0 12E#000000000000C0A5 R
(1781872189.353798) can0 450#0000000000002800 R
(1781872189.354040) can0 121#00A601CF04800086 R
(1781872189.354281) can0 129#000000010000008F R
(1781872189.354520) can0 120#000000000000008B R
(1781872189.354759) can0 541#0000100000095ECA R
(1781872189.367653) can0 12D#00000000000000D4 R
(1781872189.367776) can0 12D#0000000000000035 R
(1781872189.367893) can0 12E#000000000000C0CF R
(1781872189.368008) can0 121#00A601CF048000B3 R
(1781872189.368122) can0 129#00000001000000BA R
(1781872189.368239) can0 540#0000401000010100 R
(1781872189.383733) can0 5B0#1000000000000034 R
(1781872189.384013) can0 120#00000000000000BE R
(1781872189.384271) can0 541#0000100000095E2B R
(1781872189.384577) can0 12D#000000000000005F R
(1781872189.384840) can0 12A#10050000000A0057 R
(1781872189.385093) can0 12D#000000000000006A R
(1781872189.393608) can0 12E#000000000000C02E R
(1781872189.393875) can0 121#00A601CF048000D9 R
(1781872189.394139) can0 129#00000001000000D0 R
(1781872189.394388) can0 120#00000000000000D4 R
(1781872189.394661) can0 541#0000100000095E41 R
(1781872189.408663) can0 12D#000000000000008B R
(1781872189.408920) can0 450#0000000000002800 R
(1781872189.409192) can0 12D#00000000000000BE R
(1781872189.409439) can0 12E#000000000000C044 R
(1781872189.409688) can0 121#00A601CF04800038 R
(1781872189.409952) can0 129#0000000100000031 R
(1781872189.424105) can0 120#0000000000000035 R
(1781872189.424383) can0 541#0000100000095E74 R
(1781872189.424641) can0 12D#00000000000000D4 R
(1781872189.424901) can0 12D#0000000000000035 R
(1781872189.425148) can0 12E#000000000000C071 R
(1781872189.425397) can0 12A#10050000000A0062 R
(1781872189.443295) can0 5A0#000000000400003B R
(1781872189.443552) can0 121#00A601CF04800052 R
(1781872189.443792) can0 129#000000010000005B R
(1781872189.444037) can0 120#000000000000005F R
(1781872189.444283) can0 541#0000100000095E95 R
(1781872189.444528) can0 12D#000000000000005F R
(1781872189.450931) can0 12D#000000000000006A R
(1781872189.451169) can0 12E#000000000000C090 R
(1781872189.451416) can0 450#0000000000002800 R
(1781872189.451663) can0 121#00A601CF04800067 R
(1781872189.451923) can0 129#000000010000006E R
(1781872189.452169) can0 120#000000000000006A R
(1781872189.467325) can0 541#0000100000095EA0 R
(1781872189.467573) can0 12D#000000000000008B R
(1781872189.467825) can0 12D#00000000000000BE R
(1781872189.468069) can0 12E#000000000000C0A5 R
(1781872189.468315) can0 121#00A601CF04800086 R
(1781872189.473583) can0 129#000000010000008F R
(1781872189.473842) can0 540#0000401000010100 R
(1781872189.474079) can0 5B0#100000000000005E R
(1781872189.474327) can0 120#000000000000008B R
(1781872189.474575) can0 541#0000100000095ECA R
(1781872189.474820) can0 12D#00000000000000D4 R
(1781872189.490801) can0 12A#10050000000A0083 R
(1781872189.491074) can0 12D#0000000000000035 R
(1781872189.491315) can0 12E#000000000000C0CF R
(1781872189.491570) can0 121#00A601CF048000B3 R
(1781872189.491817) can0 129#00000001000000BA R
(1781872189.492063) can0 120#00000000000000BE R
(1781872189.507195) can0 541#0000100000095E2B R
(1781872189.507450) can0 12D#000000000000005F R
(1781872189.507707) can0 450#0000000000002800 R
(1781872189.507953) can0 12D#000000000000006A R
(1781872189.508190) can0 12E#000000000000C02E R
(1781872189.508434) can0 121#00A601CF048000D9 R
(1781872189.524001) can0 129#00000001000000D0 R
(1781872189.524251) can0 120#00000000000000D4 R
(1781872189.524497) can0 541#0000100000095E41 R
(1781872189.524733) can0 12D#000000000000008B R
(1781872189.524979) can0 12D#00000000000000BE R
(1781872189.525224) can0 12E#000000000000C044 R
(1781872189.533491) can0 12A#10050000000A00B6 R
(1781872189.533732) can0 5A0#0000000004000051 R
(1781872189.533969) can0 121#00A601CF04800038 R
(1781872189.534230) can0 129#0000000100000031 R
(1781872189.534490) can0 120#0000000000000035 R
(1781872189.534743) can0 541#0000100000095E74 R
(1781872189.547349) can0 12D#00000000000000D4 R
(1781872189.547589) can0 12D#0000000000000035 R
(1781872189.547844) can0 12E#000000000000C071 R
(1781872189.548091) can0 450#0000000000002800 R
(1781872189.548344) can0 121#00A601CF04800052 R
(1781872189.566893) can0 129#000000010000005B R
(1781872189.567168) can0 120#000000000000005F R
(1781872189.567455) can0 541#0000100000095E95 R
(1781872189.567710) can0 12D#000000000000005F R
(1781872189.567973) can0 12D#000000000000006A R
(1781872189.568231) can0 12E#000000000000C090 R
(1781872189.573430) can0 121#00A601CF04800067 R
(1781872189.573682) can0 129#000000010000006E R
(1781872189.573920) can0 540#0000401000010100 R
(1781872189.574170) can0 5B0#100000000000006B R
(1781872189.574430) can0 120#000000000000006A R
(1781872189.574683) can0 541#0000100000095EA0 R
(1781872189.588615) can0 12D#000000000000008B R
(1781872189.588725) can0 12A#10050000000A00DC R
(1781872189.588824) can0 12D#00000000000000BE R
(1781872189.588920) can0 12E#000000000000C0A5 R
(1781872189.589022) can0 121#00A601CF04800086 R
(1781872189.589120) can0 129#000000010000008F R
(1781872189.607030) can0 120#000000000000008B R
(1781872189.607286) can0 541#0000100000095ECA R
(1781872189.607531) can0 12D#00000000000000D4 R
(1781872189.607783) can0 450#0000000000002800 R
(1781872189.608042) can0 12D#0000000000000035 R
(1781872189.608290) can0 12E#000000000000C0CF R
(1781872189.623505) can0 121#00A601CF048000B3 R
(1781872189.623782) can0 129#00000001000000BA R
(1781872189.624035) can0 120#00000000000000BE R
(1781872189.624284) can0 541#0000100000095E2B R
(1781872189.624533) can0 12D#000000000000005F R
(1781872189.628616) can0 12D#000000000000006A R
(1781872189.628871) can0 12E#000000000000C02E R
(1781872189.629128) can0 12A#10050000000A003D R
(1781872189.629377) can0 5A0#0000000004000064 R
(1781872189.629633) can0 121#00A601CF048000D9 R
(1781872189.629888) can0 129#00000001000000D0 R
(1781872189.646910) can0 120#00000000000000D4 R
(1781872189.647169) can0 541#0000100000095F57 R
(1781872189.647414) can0 12D#000000000000008B R
(1781872189.647665) can0 12D#00000000000000BE R
(1781872189.647920) can0 12E#000000000000C044 R
(1781872189.648180) can0 450#0000000000002800 R
(1781872189.663548) can0 121#00A601CF04800038 R
(1781872189.663789) can0 129#0000000100000031 R
(1781872189.664026) can0 120#0000000000000035 R
(1781872189.664263) can0 541#0000100000095F62 R
(1781872189.664498) can0 12D#00000000000000D4 R
(1781872189.664742) can0 12D#0000000000000035 R
(1781872189.670938) can0 12E#000000000000C071 R
(1781872189.671184) can0 121#00A601CF04800052 R
(1781872189.671423) can0 129#000000010000005B R
(1781872189.671661) can0 540#0000401000010100 R
(1781872189.671897) can0 5B0#100000000000008A R
(1781872189.672134) can0 120#000000000000005F R
(1781872189.687330) can0 541#0000100000095F83 R
(1781872189.687572) can0 12D#000000000000005F R
(1781872189.687806) can0 12A#10050000000A0057 R
(1781872189.688044) can0 12D#000000000000006A R
(1781872189.688285) can0 12E#000000000000C090 R
(1781872189.688522) can0 121#00A601CF04800067 R
(1781872189.703466) can0 129#000000010000006E R
(1781872189.703707) can0 120#000000000000006A R
(1781872189.703947) can0 541#0000100000095FB6 R
(1781872189.704184) can0 12D#000000000000008B R
(1781872189.704423) can0 450#0000000000002800 R
(1781872189.713409) can0 12D#00000000000000BE R
(1781872189.713651) can0 12E#000000000000C0A5 R
(1781872189.713887) can0 121#00A601CF04800086 R
(1781872189.714130) can0 129#000000010000008F R
(1781872189.714368) can0 120#000000000000008B R
(1781872189.714606) can0 541#0000100000095FDC R
(1781872189.727252) can0 12D#00000000000000D4 R
(1781872189.727498) can0 12D#0000000000000035 R
(1781872189.727735) can0 12E#000000000000C0CF R
(1781872189.727974) can0 12A#10050000000A0062 R
(1781872189.728210) can0 5A0#0000000004000085 R
(1781872189.728448) can0 121#00A601CF048000B3 R
(1781872189.744614) can0 129#00000001000000BA R
(1781872189.744877) can0 120#00000000000000BE R
(1781872189.745117) can0 541#0000100000095F3D R
(1781872189.745355) can0 12D#000000000000005F R
(1781872189.745596) can0 12D#000000000000006A R
(1781872189.745834) can0 12E#000000000000C02E R
(1781872189.761722) can0 450#0000000000002800 R
(1781872189.761848) can0 121#00A601CF048000D9 R
(1781872189.761963) can0 129#00000001000000D0 R
(1781872189.762078) can0 120#00000000000000D4 R
(1781872189.762191) can0 541#0000100000095F57 R
(1781872189.762306) can0 12D#000000000000008B R
(1781872189.767474) can0 12D#00000000000000BE R
(1781872189.767591) can0 12E#000000000000C044 R
(1781872189.767706) can0 121#00A601CF04800038 R
(1781872189.773630) can0 129#0000000100000031 R
(1781872189.773770) can0 540#0000401000010100 R
(1781872189.773905) can0 5B0#10000000000000BF R
(1781872189.774040) can0 120#0000000000000035 R
(1781872189.774175) can0 541#0000100000095F62 R
(1781872189.774312) can0 12D#00000000000000D4 R
(1781872189.790975) can0 12A#10050000000A0083 R
(1781872189.791241) can0 12D#0000000000000035 R
(1781872189.791436) can0 12E#000000000000C071 R
(1781872189.791638) can0 121#00A601CF04800052 R
(1781872189.791875) can0 129#000000010000005B R
(1781872189.792113) can0 120#000000000000005F R
(1781872189.807332) can0 541#0000100000095F83 R
(1781872189.807575) can0 12D#000000000000005F R
(1781872189.807812) can0 450#0000000000002800 R
(1781872189.808049) can0 12D#000000000000006A R
(1781872189.808285) can0 12E#000000000000C090 R
(1781872189.808523) can0 121#00A601CF04800067 R
(1781872189.823774) can0 129#000000010000006E R
(1781872189.824023) can0 120#000000000000006A R
(1781872189.824259) can0 541#0000100000095FB6 R
(1781872189.824496) can0 12D#000000000000008B R
(1781872189.824733) can0 12D#00000000000000BE R
(1781872189.830850) can0 12E#000000000000C0A5 R
(1781872189.831008) can0 12A#10050000000A00B6 R
(1781872189.831116) can0 5A0#00000000040000B0 R
(1781872189.831220) can0 121#00A601CF04800086 R
(1781872189.831324) can0 129#000000010000008F R
(1781872189.831427) can0 120#000000000000008B R
(1781872189.847315) can0 541#0000100000095FDC R
(1781872189.847583) can0 12D#00000000000000D4 R
(1781872189.847826) can0 12D#0000000000000035 R
(1781872189.848064) can0 12E#000000000000C0CF R
(1781872189.848302) can0 450#0000000000002800 R
(1781872189.848541) can0 121#00A601CF048000B3 R
(1781872189.867023) can0 129#00000001000000BA R
(1781872189.867269) can0 120#00000000000000BE R
(1781872189.867506) can0 541#0000100000095F3D R
(1781872189.867743) can0 12D#000000000000005F R
(1781872189.867981) can0 12D#000000000000006A R
(1781872189.868229) can0 12E#000000000000C02E R
(1781872189.873514) can0 121#00A601CF048000D9 R
(1781872189.873753) can0 129#00000001000000D0 R
(1781872189.873991) can0 540#0000401000010100 R
(1781872189.874239) can0 5B0#10000000000000D5 R
(1781872189.874476) can0 120#00000000000000D4 R
(1781872189.874714) can0 541#0000100000095F57 R
(1781872189.887431) can0 12D#000000000000008B R
(1781872189.887718) can0 12A#10050000000A00DC R
(1781872189.887964) can0 12D#00000000000000BE R
(1781872189.888206) can0 12E#000000000000C044 R
(1781872189.888446) can0 121#00A601CF04800038 R
(1781872189.903511) can0 129#0000000100000031 R
(1781872189.903786) can0 120#0000000000000035 R
(1781872189.904027) can0 541#0000100000095F62 R
(1781872189.904267) can0 12D#00000000000000D4 R
(1781872189.904505) can0 450#0000000000002800 R
(1781872189.904742) can0 12D#0000000000000035 R
(1781872189.923398) can0 12E#000000000000C071 R
(1781872189.923664) can0 121#00A601CF04800052 R
(1781872189.923903) can0 129#000000010000005B R
(1781872189.924142) can0 120#000000000000005F R
(1781872189.924383) can0 541#0000100000095F83 R
(1781872189.924621) can0 12D#000000000000005F R
(1781872189.928771) can0 12D#000000000000006A R
(1781872189.929012) can0 12E#000000000000C090 R
(1781872189.929249) can0 12A#10050000000A003D R
(1781872189.929486) can0 5A0#00000000040000DA R
(1781872189.929722) can0 121#00A601CF04800067 R
(1781872189.929961) can0 129#000000010000006E R
(1781872189.947102) can0 120#000000000000006A R
(1781872189.947375) can0 541#0000100000095FB6 R
(1781872189.947616) can0 12D#000000000000008B R
(1781872189.947862) can0 12D#00000000000000BE R
(1781872189.948102) can0 12E#000000000000C0A5 R
(1781872189.948341) can0 450#0000000000002800 R
(1781872189.963356) can0 121#00A601CF04800086 R
(1781872189.963603) can0 129#000000010000008F R
(1781872189.963844) can0 120#000000000000008B R
(1781872189.964083) can0 541#0000100000095FDC R
(1781872189.964320) can0 12D#00000000000000D4 R
(1781872189.964558) can0 12D#0000000000000035 R
(1781872189.968908) can0 12E#000000000000C0CF R
(1781872189.969149) can0 121#00A601CF048000B3 R
(1781872189.969385) can0 129#00000001000000BA R
(1781872189.969630) can0 540#0000401000010100 R
(1781872189.969866) can0 5B0#1000000000000034 R
(1781872189.986925) can0 120#00000000000000BE R
(1781872189.987179) can0 541#0000100000095F3D R
(1781872189.987420) can0 12D#000000000000005F R
(1781872189.987661) can0 12A#10050000000A0057 R
(1781872189.987896) can0 12D#000000000000006A R
(1781872189.988134) can0 12E#000000000000C02E R
(1781872190.009397) can0 121#00A601CF048000D9 R
(1781872190.011465) can0 129#00000001000000D0 R
(1781872190.011657) can0 120#00000000000000D4 R
(1781872190.011937) can0 541#0000100000095F57 R
(1781872190.012060) can0 12D#000000000000008B R
(1781872190.012272) can0 450#0000000000002800 R
(1781872190.013473) can0 12D#00000000000000BE R
(1781872190.013615) can0 12E#000000000000C044 R
(1781872190.013734) can0 121#00A601CF04800038 R
(1781872190.013845) can0 129#0000000100000031 R
(1781872190.013950) can0 120#0000000000000035 R
(1781872190.014055) can0 541#0000100000095F62 R
(1781872190.027372) can0 12D#00000000000000D4 R
(1781872190.027570) can0 12D#0000000000000035 R
(1781872190.027715) can0 12E#000000000000C071 R
(1781872190.027853) can0 12A#10050000000A0062 R
(1781872190.027991) can0 5A0#000000000400003B R
(1781872190.028126) can0 121#00A601CF04800052 R
(1781872190.043729) can0 129#000000010000005B R
(1781872190.044015) can0 120#000000000000005F R
(1781872190.044261) can0 541#0000100000095F83 R
(1781872190.044504) can0 12D#000000000000005F R
(1781872190.044743) can0 12D#000000000000006A R
(1781872190.053390) can0 12E#000000000000C090 R
(1781872190.053665) can0 450#0000000000002800 R
(1781872190.053905) can0 121#00A601CF04800067 R
(1781872190.054145) can0 129#000000010000006E R
(1781872190.054383) can0 120#000000000000006A R
(1781872190.054621) can0 541#0000100000095FB6 R
(1781872190.067718) can0 12D#000000000000008B R
(1781872190.067988) can0 12D#00000000000000BE R
(1781872190.068244) can0 12E#000000000000C0A5 R
(1781872190.068491) can0 121#00A601CF04800086 R
(1781872190.068746) can0 129#000000010000008F R
(1781872190.068997) can0 540#0000401000010100 R
(1781872190.083628) can0 5B0#100000000000005E R
(1781872190.083880) can0 120#000000000000008B R
(1781872190.084086) can0 541#0000100000095FDC R
(1781872190.084268) can0 12D#00000000000000D4 R
(1781872190.084444) can0 12A#10050000000A0083 R
(1781872190.084625) can0 12D#0000000000000035 R
(1781872190.094720) can0 12E#000000000000C0CF R
(1781872190.094926) can0 121#00A601CF048000B3 R
(1781872190.095103) can0 129#00000001000000BA R
(1781872190.095282) can0 120#00000000000000BE R
(1781872190.095456) can0 541#0000100000095F3D R
(1781872190.095628) can0 12D#000000000000005F R
(1781872190.108820) can0 450#0000000000002800 R
(1781872190.109069) can0 12D#000000000000006A R
(1781872190.109312) can0 12E#000000000000C02E R
(1781872190.109552) can0 121#00A601CF048000D9 R
(1781872190.109791) can0 129#00000001000000D0 R
(1781872190.110030) can0 120#00000000000000D4 R
(1781872190.124256) can0 541#0000100000095F57 R
(1781872190.124502) can0 12D#000000000000008B R
(1781872190.124740) can0 12D#00000000000000BE R
(1781872190.124978) can0 12E#000000000000C044 R
(1781872190.125214) can0 12A#10050000000A00B6 R
(1781872190.143229) can0 5A0#0000000004000051 R
(1781872190.143484) can0 121#00A601CF04800038 R
(1781872190.143724) can0 129#0000000100000031 R
(1781872190.143962) can0 120#0000000000000035 R
(1781872190.144200) can0 541#0000100000095F62 R
(1781872190.144437) can0 12D#00000000000000D4 R
(1781872190.150827) can0 12D#0000000000000035 R
(1781872190.150988) can0 12E#000000000000C071 R
(1781872190.151144) can0 450#0000000000002800 R
(1781872190.151298) can0 121#00A601CF04800052 R
(1781872190.151454) can0 129#000000010000005B R
(1781872190.151600) can0 120#000000000000005F R
(1781872190.167607) can0 541#0000100000095F83 R
(1781872190.167854) can0 12D#000000000000005F R
(1781872190.168091) can0 12D#000000000000006A R
(1781872190.168329) can0 12E#000000000000C090 R
(1781872190.168566) can0 121#00A601CF04800067 R
(1781872190.168805) can0 129#000000010000006E R
(1781872190.183345) can0 540#0000401000010100 R
(1781872190.183600) can0 5B0#100000000000006B R
(1781872190.183845) can0 120#000000000000006A R
(1781872190.184086) can0 541#0000100000095FB6 R
(1781872190.184328) can0 12D#000000000000008B R
(1781872190.184568) can0 12A#10050000000A00DC R
(1781872190.191019) can0 12D#00000000000000BE R
(1781872190.191258) can0 12E#000000000000C0A5 R
(1781872190.191493) can0 121#00A601CF04800086 R
(1781872190.191728) can0 129#000000010000008F R
(1781872190.192015) can0 120#000000000000008B R
(1781872190.207163) can0 541#0000100000095FDC R
(1781872190.207415) can0 12D#00000000000000D4 R
(1781872190.207656) can0 450#0000000000002800 R
(1781872190.207894) can0 12D#0000000000000035 R
(1781872190.208131) can0 12E#000000000000C0CF R
(1781872190.208369) can0 121#00A601CF048000B3 R
(1781872190.223824) can0 129#00000001000000BA R
(1781872190.224082) can0 120#00000000000000BE R
(1781872190.224322) can0 541#0000100000095F3D R
(1781872190.224560) can0 12D#000000000000005F R
(1781872190.224798) can0 12D#000000000000006A R
(1781872190.225034) can0 12E#000000000000C02E R
(1781872190.233434) can0 12A#10050000000A003D R
(1781872190.233677) can0 5A0#0000000004000064 R
(1781872190.233916) can0 121#00A601CF048000D9 R
(1781872190.234154) can0 129#00000001000000D0 R
(1781872190.234391) can0 120#00000000000000D4 R
(1781872190.234630) can0 541#0000100000095F57 R
(1781872190.248786) can0 12D#000000000000008B R
(1781872190.249027) can0 12D#00000000000000BE R
(1781872190.249266) can0 12E#000000000000C044 R
(1781872190.249504) can0 450#0000000000002800 R
(1781872190.249743) can0 121#00A601CF04800038 R
(1781872190.249981) can0 129#0000000100000031 R
(1781872190.267102) can0 120#0000000000000035 R
(1781872190.267346) can0 541#0000100000095F62 R
(1781872190.267584) can0 12D#00000000000000D4 R
(1781872190.267821) can0 12D#0000000000000035 R
(1781872190.268058) can0 12E#000000000000C071 R
(1781872190.268296) can0 121#00A601CF04800052 R
(1781872190.273518) can0 129#000000010000005B R
(1781872190.273758) can0 540#0000401000010100 R
(1781872190.273997) can0 5B0#100000000000008A R
(1781872190.274234) can0 120#000000000000005F R
(1781872190.274471) can0 541#0000100000095F83 R
(1781872190.288682) can0 12D#000000000000005F R
(1781872190.288937) can0 12A#10050000000A0057 R
(1781872190.289174) can0 12D#000000000000006A R
(1781872190.289411) can0 12E#000000000000C090 R
(1781872190.289648) can0 121#00A601CF04800067 R
(1781872190.289887) can0 129#000000010000006E R
(1781872190.307008) can0 120#000000000000006A R
(1781872190.307269) can0 541#0000100000095FB6 R
(1781872190.307510) can0 12D#000000000000008B R
(1781872190.307748) can0 450#0000000000002800 R
(1781872190.308007) can0 12D#00000000000000BE R
(1781872190.308245) can0 12E#000000000000C0A5 R
(1781872190.323617) can0 121#00A601CF04800086 R
(1781872190.323874) can0 129#000000010000008F R
(1781872190.324124) can0 120#000000000000008B R
(1781872190.324364) can0 541#0000100000095FDC R
(1781872190.324599) can0 12D#00000000000000D4 R
(1781872190.324839) can0 12D#0000000000000035 R
(1781872190.331023) can0 12E#000000000000C0CF R
(1781872190.331342) can0 12A#10050000000A0062 R
(1781872190.331588) can0 5A0#0000000004000085 R
(1781872190.331830) can0 121#00A601CF048000B3 R
(1781872190.332084) can0 129#00000001000000BA R
(1781872190.332324) can0 120#00000000000000BE R
(1781872190.347152) can0 541#0000100000095F3D R
(1781872190.347396) can0 12D#000000000000005F R
(1781872190.347635) can0 12D#000000000000006A R
(1781872190.347873) can0 12E#000000000000C02E R
(1781872190.348110) can0 450#0000000000002800 R
(1781872190.363413) can0 121#00A601CF048000D9 R
(1781872190.363665) can0 129#00000001000000D0 R
(1781872190.363904) can0 120#00000000000000D4 R
(1781872190.364140) can0 541#0000100000095F57 R
(1781872190.364374) can0 12D#000000000000008B R
(1781872190.364611) can0 12D#00000000000000BE R
(1781872190.370854) can0 12E#000000000000C044 R
(1781872190.371106) can0 121#00A601CF04800038 R
(1781872190.371343) can0 129#0000000100000031 R
(1781872190.371581) can0 540#0000401000010100 R
(1781872190.371818) can0 5B0#10000000000000BF R
(1781872190.372054) can0 120#0000000000000035 R
(1781872190.387286) can0 541#0000100000095F62 R
(1781872190.387532) can0 12D#00000000000000D4 R
(1781872190.387771) can0 12A#10050000000A0083 R
(1781872190.388007) can0 12D#0000000000000035 R
(1781872190.388243) can0 12E#000000000000C071 R
(1781872190.388479) can0 121#00A601CF04800052 R
(1781872190.403553) can0 129#000000010000005B R
(1781872190.403798) can0 120#000000000000005F R
(1781872190.404038) can0 541#0000100000095F83 R
(1781872190.404278) can0 12D#000000000000005F R
(1781872190.404514) can0 450#0000000000002800 R
(1781872190.404752) can0 12D#000000000000006A R
(1781872190.413513) can0 12E#000000000000C090 R
(1781872190.413751) can0 121#00A601CF04800067 R
(1781872190.413989) can0 129#000000010000006E R
(1781872190.414225) can0 120#000000000000006A R
(1781872190.414465) can0 541#0000100000095FB6 R
(1781872190.414703) can0 12D#000000000000008B R
(1781872190.427417) can0 12D#00000000000000BE R
(1781872190.427657) can0 12E#000000000000C0A5 R
(1781872190.427893) can0 12A#10050000000A00B6 R
(1781872190.428130) can0 5A0#00000000040000B0 R
(1781872190.428366) can0 121#00A601CF04800086 R
(1781872190.444512) can0 129#000000010000008F R
(1781872190.444761) can0 120#000000000000008B R
(1781872190.445000) can0 541#0000100000095FDC R
(1781872190.445237) can0 12D#00000000000000D4 R
(1781872190.445474) can0 12D#0000000000000035 R
(1781872190.445712) can0 12E#000000000000C0CF R
(1781872190.463227) can0 450#0000000000002800 R
(1781872190.463469) can0 121#00A601CF048000B3 R
(1781872190.463707) can0 129#00000001000000BA R
(1781872190.463947) can0 120#00000000000000BE R
(1781872190.464185) can0 541#0000100000095F3D R
(1781872190.464420) can0 12D#000000000000005F R
(1781872190.468856) can0 12D#000000000000006A R
(1781872190.469096) can0 12E#000000000000C02E R
(1781872190.469334) can0 121#00A601CF048000D9 R
(1781872190.469570) can0 129#00000001000000D0 R
(1781872190.469806) can0 540#0000401000010100 R
(1781872190.470042) can0 5B0#10000000000000D5 R
(1781872190.487146) can0 120#00000000000000D4 R
(1781872190.487404) can0 541#0000100000095F57 R
(1781872190.487646) can0 12D#000000000000008B R
(1781872190.487888) can0 12A#10050000000A00DC R
(1781872190.488130) can0 12D#00000000000000BE R
(1781872190.488371) can0 12E#000000000000C044 R
(1781872190.494786) can0 121#00A601CF04800038 R
(1781872190.495030) can0 129#0000000100000031 R
(1781872190.495269) can0 120#0000000000000035 R
(1781872190.495508) can0 541#0000100000095F62 R
(1781872190.495747) can0 12D#00000000000000D4 R
(1781872190.510832) can0 450#0000000000002800 R
(1781872190.511098) can0 12D#0000000000000035 R
(1781872190.511341) can0 12E#000000000000C071 R
(1781872190.511580) can0 121#00A601CF04800052 R
(1781872190.511818) can0 129#000000010000005B R
(1781872190.512060) can0 120#000000000000005F R
(1781872190.527024) can0 541#0000100000095F83 R
(1781872190.527279) can0 12D#000000000000005F R
(1781872190.527517) can0 12D#000000000000006A R
(1781872190.527758) can0 12E#000000000000C090 R
(1781872190.527995) can0 12A#10050000000A003D R
(1781872190.528233) can0 5A0#00000000040000DA R
(1781872190.543470) can0 121#00A601CF04800067 R
(1781872190.543712) can0 129#000000010000006E R
(1781872190.543951) can0 120#000000000000006A R
(1781872190.544191) can0 541#0000100000095FB6 R
(1781872190.544428) can0 12D#000000000000008B R
(1781872190.544665) can0 12D#00000000000000BE R
(1781872190.553443) can0 12E#000000000000C0A5 R
(1781872190.553683) can0 450#0000000000002800 R
(1781872190.553925) can0 121#00A601CF04800086 R
(1781872190.554163) can0 129#000000010000008F R
(1781872190.554400) can0 120#000000000000008B R
(1781872190.554639) can0 541#0000100000095FDC R
(1781872190.567823) can0 12D#00000000000000D4 R
(1781872190.568067) can0 12D#0000000000000035 R
(1781872190.568307) can0 12E#000000000000C0CF R
(1781872190.568544) can0 121#00A601CF048000B3 R
(1781872190.568781) can0 129#00000001000000BA R
(1781872190.569020) can0 540#0000401000010100 R
(1781872190.583368) can0 5B0#1000000000000034 R
(1781872190.583609) can0 120#00000000000000BE R
(1781872190.583846) can0 541#0000100000095F3D R
(1781872190.584085) can0 12D#000000000000005F R
(1781872190.584323) can0 12A#10050000000A0057 R
(1781872190.593314) can0 12D#000000000000006A R
(1781872190.593566) can0 12E#000000000000C02E R
(1781872190.593804) can0 121#00A601CF048000D9 R
(1781872190.594041) can0 129#00000001000000D0 R
(1781872190.594279) can0 120#00000000000000D4 R
(1781872190.594515) can0 541#0000100000095F57 R
(1781872190.608802) can0 12D#000000000000008B R
(1781872190.609065) can0 450#0000000000002800 R
(1781872190.609303) can0 12D#00000000000000BE R
(1781872190.609539) can0 12E#000000000000C044 R
(1781872190.609777) can0 121#00A601CF04800038 R
(1781872190.610013) can0 129#0000000100000031 R
(1781872190.624112) can0 120#0000000000000035 R
(1781872190.624354) can0 541#0000100000095F62 R
(1781872190.624592) can0 12D#00000000000000D4 R
(1781872190.624838) can0 12D#0000000000000035 R
(1781872190.625077) can0 12E#000000000000C071 R
(1781872190.625356) can0 12A#10050000000A0062 R
(1781872190.643341) can0 5A0#000000000400003B R
(1781872190.643596) can0 121#00A601CF04800052 R
(1781872190.643836) can0 129#000000010000005B R
(1781872190.644073) can0 120#000000000000005F R
(1781872190.644311) can0 541#0000100000096094 R
(1781872190.644549) can0 12D#000000000000005F R
(1781872190.648874) can0 12D#000000000000006A R
(1781872190.649122) can0 12E#000000000000C090 R
(1781872190.649363) can0 450#0000000000002800 R
(1781872190.649602) can0 121#00A601CF04800067 R
(1781872190.649841) can0 129#000000010000006E R
(1781872190.667195) can0 120#000000000000006A R
(1781872190.667447) can0 541#00001000000960A1 R
(1781872190.667686) can0 12D#000000000000008B R
(1781872190.667925) can0 12D#00000000000000BE R
(1781872190.668164) can0 12E#000000000000C0A5 R
(1781872190.668401) can0 121#00A601CF04800086 R
(1781872190.673619) can0 129#000000010000008F R
(1781872190.673870) can0 540#0000401000010100 R
(1781872190.674106) can0 5B0#100000000000005E R
(1781872190.674345) can0 120#000000000000008B R
(1781872190.674581) can0 541#00001000000960CB R
(1781872190.674820) can0 12D#00000000000000D4 R
(1781872190.690897) can0 12A#10050000000A0083 R
(1781872190.691141) can0 12D#0000000000000035 R
(1781872190.691379) can0 12E#000000000000C0CF R
(1781872190.691617) can0 121#00A601CF048000B3 R
(1781872190.691854) can0 129#00000001000000BA R
(1781872190.692092) can0 120#00000000000000BE R
(1781872190.707320) can0 541#000010000009602A R
(1781872190.707561) can0 12D#000000000000005F R
(1781872190.707798) can0 450#0000000000002800 R
(1781872190.708036) can0 12D#000000000000006A R
(1781872190.708273) can0 12E#000000000000C02E R
(1781872190.708511) can0 121#00A601CF048000D9 R
(1781872190.723678) can0 129#00000001000000D0 R
(1781872190.723918) can0 120#00000000000000D4 R
(1781872190.724156) can0 541#0000100000096040 R
(1781872190.724392) can0 12D#000000000000008B R
(1781872190.724629) can0 12D#00000000000000BE R
(1781872190.724865) can0 12E#000000000000C044 R
(1781872190.731025) can0 12A#10050000000A00B6 R
(1781872190.731266) can0 5A0#0000000004000051 R
(1781872190.731503) can0 121#00A601CF04800038 R
(1781872190.731739) can0 129#0000000100000031 R
(1781872190.731976) can0 120#0000000000000035 R
(1781872190.747222) can0 541#0000100000096075 R
(1781872190.747477) can0 12D#00000000000000D4 R
(1781872190.747715) can0 12D#0000000000000035 R
(1781872190.747954) can0 12E#000000000000C071 R
(1781872190.748191) can0 450#0000000000002800 R
(1781872190.748431) can0 121#00A601CF04800052 R
(1781872190.767016) can0 129#000000010000005B R
(1781872190.767270) can0 120#000000000000005F R
(1781872190.767513) can0 541#0000100000096094 R
(1781872190.767753) can0 12D#000000000000005F R
(1781872190.767990) can0 12D#000000000000006A R
(1781872190.768228) can0 12E#000000000000C090 R
(1781872190.773418) can0 121#00A601CF04800067 R
(1781872190.773658) can0 129#000000010000006E R
(1781872190.773898) can0 540#0000401000010100 R
(1781872190.774136) can0 5B0#100000000000006B R
(1781872190.774374) can0 120#000000000000006A R
(1781872190.774610) can0 541#00001000000960A1 R
(1781872190.788857) can0 12D#000000000000008B R
(1781872190.789098) can0 12A#10050000000A00DC R
(1781872190.789339) can0 12D#00000000000000BE R
(1781872190.789577) can0 12E#000000000000C0A5 R
(1781872190.789812) can0 121#00A601CF04800086 R
(1781872190.790048) can0 129#000000010000008F R
(1781872190.803608) can0 120#000000000000008B R
(1781872190.803902) can0 541#00001000000960CB R
(1781872190.804143) can0 12D#00000000000000D4 R
(1781872190.804378) can0 450#0000000000002800 R
(1781872190.804615) can0 12D#0000000000000035 R
(1781872190.823254) can0 12E#000000000000C0CF R
(1781872190.823505) can0 121#00A601CF048000B3 R
(1781872190.823744) can0 129#00000001000000BA R
(1781872190.823980) can0 120#00000000000000BE R
(1781872190.824215) can0 541#000010000009602A R
(1781872190.824450) can0 12D#000000000000005F R
(1781872190.828983) can0 12D#000000000000006A R
(1781872190.829235) can0 12E#000000000000C02E R
(1781872190.829471) can0 12A#10050000000A003D R
(1781872190.829707) can0 5A0#0000000004000064 R
(1781872190.829943) can0 121#00A601CF048000D9 R
(1781872190.830182) can0 129#00000001000000D0 R
(1781872190.847047) can0 120#00000000000000D4 R
(1781872190.847384) can0 541#0000100000096040 R
(1781872190.847580) can0 12D#000000000000008B R
(1781872190.847753) can0 12D#00000000000000BE R
(1781872190.847928) can0 12E#000000000000C044 R
(1781872190.848116) can0 450#0000000000002800 R
(1781872190.863510) can0 121#00A601CF04800038 R
(1781872190.863762) can0 129#0000000100000031 R
(1781872190.864004) can0 120#0000000000000035 R
(1781872190.864245) can0 541#0000100000096075 R
(1781872190.864487) can0 12D#00000000000000D4 R
(1781872190.864731) can0 12D#0000000000000035 R
(1781872190.868934) can0 12E#000000000000C071 R
(1781872190.869176) can0 121#00A601CF04800052 R
(1781872190.869415) can0 129#000000010000005B R
(1781872190.869654) can0 540#0000401000010100 R
(1781872190.869892) can0 5B0#100000000000008A R
(1781872190.870130) can0 120#000000000000005F R
(1781872190.887179) can0 541#0000100000096094 R
(1781872190.887421) can0 12D#000000000000005F R
(1781872190.887659) can0 12A#10050000000A0057 R
(1781872190.887896) can0 12D#000000000000006A R
(1781872190.888133) can0 12E#000000000000C090 R
(1781872190.903197) can0 121#00A601CF04800067 R
(1781872190.903450) can0 129#000000010000006E R
(1781872190.903689) can0 120#000000000000006A R
(1781872190.903927) can0 541#00001000000960A1 R
(1781872190.904165) can0 12D#000000000000008B R
(1781872190.904402) can0 450#0000000000002800 R
(1781872190.913392) can0 12D#00000000000000BE R
(1781872190.913692) can0 12E#000000000000C0A5 R
(1781872190.914054) can0 121#00A601CF04800086 R
(1781872190.914410) can0 129#000000010000008F R
(1781872190.914764) can0 120#000000000000008B R
(1781872190.915102) can0 541#00001000000960CB R
(1781872190.927412) can0 12D#00000000000000D4 R
(1781872190.927655) can0 12D#0000000000000035 R
(1781872190.927895) can0 12E#000000000000C0CF R
(1781872190.928134) can0 12A#10050000000A0062 R
(1781872190.928373) can0 5A0#0000000004000085 R
(1781872190.928609) can0 121#00A601CF048000B3 R
(1781872190.944651) can0 129#00000001000000BA R
(1781872190.944894) can0 120#00000000000000BE R
(1781872190.945129) can0 541#000010000009602A R
(1781872190.945368) can0 12D#000000000000005F R
(1781872190.945604) can0 12D#000000000000006A R
(1781872190.945842) can0 12E#000000000000C02E R
(1781872190.953516) can0 450#0000000000002800 R
(1781872190.953755) can0 121#00A601CF048000D9 R
(1781872190.953993) can0 129#00000001000000D0 R
(1781872190.954229) can0 120#00000000000000D4 R
(1781872190.954476) can0 541#0000100000096040 R
(1781872190.967712) can0 12D#000000000000008B R
(1781872190.967964) can0 12D#00000000000000BE R
(1781872190.968201) can0 12E#000000000000C044 R
(1781872190.968437) can0 121#00A601CF04800038 R
(1781872190.968675) can0 129#0000000100000031 R
(1781872190.968911) can0 540#0000401000010100 R
(1781872190.983426) can0 5B0#10000000000000BF R
(1781872190.983675) can0 120#0000000000000035 R
(1781872190.983911) can0 541#0000100000096075 R
(1781872190.984147) can0 12D#00000000000000D4 R
(1781872190.984383) can0 12A#10050000000A0083 R
(1781872190.984620) can0 12D#0000000000000035 R
(1781872190.994671) can0 12E#000000000000C071 R
(1781872190.994912) can0 121#00A601CF04800052 R
(1781872190.995150) can0 129#000000010000005B R
(1781872190.995387) can0 120#000000000000005F R
(1781872190.995624) can0 541#0000100000096094 R
(1781872190.995861) can0 12D#000000000000005F R
(1781872191.010984) can0 450#0000000000002800 R
(1781872191.011253) can0 12D#000000000000006A R
(1781872191.011501) can0 12E#000000000000C090 R
(1781872191.011785) can0 121#00A601CF04800067 R
(1781872191.012025) can0 129#000000010000006E R
(1781872191.012266) can0 120#000000000000006A R
(1781872191.024163) can0 541#00001000000960A1 R
(1781872191.024418) can0 12D#000000000000008B R
(1781872191.024657) can0 12D#00000000000000BE R
(1781872191.024894) can0 12E#000000000000C0A5 R
(1781872191.025130) can0 12A#10050000000A00B6 R
(1781872191.025365) can0 5A0#00000000040000B0 R
(1781872191.043350) can0 121#00A601CF04800086 R
(1781872191.043595) can0 129#000000010000008F R
(1781872191.043843) can0 120#000000000000008B R
(1781872191.044096) can0 541#00001000000960CB R
(1781872191.044341) can0 12D#00000000000000D4 R
(1781872191.050836) can0 12D#0000000000000035 R
(1781872191.051081) can0 12E#000000000000C0CF R
(1781872191.051321) can0 450#0000000000002800 R
(1781872191.051565) can0 121#00A601CF048000B3 R
(1781872191.051804) can0 129#00000001000000BA R
(1781872191.052040) can0 120#00000000000000BE R
(1781872191.067516) can0 541#000010000009602A R
(1781872191.067761) can0 12D#000000000000005F R
(1781872191.067999) can0 12D#000000000000006A R
(1781872191.068245) can0 12E#000000000000C02E R
(1781872191.068482) can0 121#00A601CF048000D9 R
(1781872191.068720) can0 129#00000001000000D0 R
(1781872191.083309) can0 540#0000401000010100 R
(1781872191.083577) can0 5B0#10000000000000D5 R
(1781872191.083822) can0 120#00000000000000D4 R
(1781872191.084061) can0 541#0000100000096040 R
(1781872191.084301) can0 12D#000000000000008B R
