(1781869788.846391) can0 12D#0000000000000000 R
(1781869788.846714) can0 12D#0000000000000000 R
(1781869788.846925) can0 12D#0000000000000000 R
(1781869788.847090) can0 12D#0000000000000000 R
(1781869788.847606) can0 12D#0000000000000000 R
(1781869788.847788) can0 12D#0000000000000000 R
(1781869788.847909) can0 12D#0000000000000000 R
(1781869788.848018) can0 12D#0000000000000000 R
(1781869788.848127) can0 12D#0000000000000000 R
(1781869788.848236) can0 12D#0000000000000000 R
(1781869788.849349) can0 12D#0000000000000000 R
(1781869788.849624) can0 12D#0000000000000000 R
(1781869788.849874) can0 12D#0000000000000000 R
(1781869788.850118) can0 12D#0000000000000000 R
(1781869788.850359) can0 12D#0000000000000000 R
(1781869788.850597) can0 12D#0000000000000000 R
(1781869788.851045) can0 12D#0000000000000000 R
(1781869788.851316) can0 12D#0000000000000000 R
(1781869788.851564) can0 12D#0000000000000000 R
(1781869788.851804) can0 12D#0000000000000000 R
(1781869788.852044) can0 12D#0000000000000000 R
(1781869788.852292) can0 12D#0000000000000035 R
(1781869788.852405) can0 12D#0000000000000035 R
(1781869788.852509) can0 12D#0000000000000035 R
(1781869788.852613) can0 12D#0000000000000035 R
(1781869788.852718) can0 12D#0000000000000035 R
(1781869788.852822) can0 12D#0000000000000035 R
(1781869788.852927) can0 12D#0000000000000035 R
(1781869788.854014) can0 12D#0000000000000035 R
(1781869788.854119) can0 12D#0000000000000035 R
(1781869788.854223) can0 12D#0000000000000035 R
(1781869788.854327) can0 12D#0000000000000035 R
(1781869788.854429) can0 12D#0000000000000035 R
(1781869788.855555) can0 12D#0000000000000035 R
(1781869788.855684) can0 12D#0000000000000035 R
(1781869788.855800) can0 12D#0000000000000035 R
(1781869788.855916) can0 12D#0000000000000035 R
(1781869788.856031) can0 12D#0000000000000035 R
(1781869788.856145) can0 12D#0000000000000035 R
(1781869788.857219) can0 12D#0000000000000035 R
(1781869788.857345) can0 12D#0000000000000035 R
(1781869788.857472) can0 12D#0000000000000035 R
(1781869788.857586) can0 12D#0000000000000035 R
(1781869788.857701) can0 12D#0000000000000035 R
(1781869788.857815) can0 12D#0000000000000035 R
(1781869788.858874) can0 12D#0000000000000035 R
(1781869788.859001) can0 12D#0000000000000035 R
(1781869788.859116) can0 12D#0000000000000035 R
(1781869788.859231) can0 12D#0000000000000035 R
(1781869788.859346) can0 12D#0000000000000035 R
(1781869788.859460) can0 12D#0000000000000035 R
(1781869788.860541) can0 12D#0000000000000035 R
(1781869788.860661) can0 12D#0000000000000035 R
(1781869788.860776) can0 12D#0000000000000035 R
(1781869788.860892) can0 12D#0000000000000035 R
(1781869788.861007) can0 12D#0000000000000035 R
(1781869788.861121) can0 12D#0000000000000035 R
(1781869788.861904) can0 12D#0000000000000035 R
(1781869788.862030) can0 12D#000000000000005F R
(1781869788.862147) can0 12D#000000000000005F R
(1781869788.862262) can0 12D#000000000000005F R
(1781869788.862377) can0 12D#000000000000005F R
(1781869788.863514) can0 12D#000000000000005F R
(1781869788.863656) can0 12D#000000000000005F R
(1781869788.863771) can0 12D#000000000000005F R
(1781869788.863893) can0 12D#000000000000005F R
(1781869788.864007) can0 12D#000000000000005F R
(1781869788.864123) can0 12D#000000000000005F R
(1781869788.874499) can0 12D#000000000000005F R
(1781869788.874755) can0 12D#000000000000005F R
(1781869788.874993) can0 12D#000000000000005F R
(1781869788.875229) can0 12E#0000000000000000 R
(1781869788.875467) can0 12D#000000000000006A R
(1781869788.875702) can0 12E#0000000000000035 R
(1781869788.881023) can0 121#0000000004840010 R
(1781869788.881266) can0 129#0000000100000004 R
(1781869788.881504) can0 540#0000000000000000 R
(1781869788.881764) can0 5B0#0000000000000000 R
(1781869788.882002) can0 120#0000000000000000 R
(1781869788.882242) can0 12D#000000000000008B R
(1781869788.900738) can0 12A#10010000000A001D R
(1781869788.900987) can0 12D#00000000000000BE R
(1781869788.901226) can0 12E#000000000000005F R
(1781869788.901465) can0 121#0000000004840025 R
(1781869788.901703) can0 129#0000000100000031 R
(1781869788.901939) can0 120#0000000000000035 R
(1781869788.916498) can0 12D#00000000000000D4 R
(1781869788.916748) can0 12D#0000000000000035 R
(1781869788.916987) can0 12E#000000000000006A R
(1781869788.917346) can0 121#00AC01D604800053 R
(1781869788.917674) can0 129#000000010000005B R
(1781869788.917958) can0 120#000000000000005F R
(1781869788.934531) can0 12D#000000000000005F R
(1781869788.934790) can0 12D#000000000000006A R
(1781869788.935028) can0 12E#000000000000008B R
(1781869788.935267) can0 12A#10010000000A0028 R
(1781869788.935505) can0 5A0#0000000000000000 R
(1781869788.954325) can0 121#00AC01D604800066 R
(1781869788.954574) can0 129#000000010000006E R
(1781869788.954811) can0 120#000000000000006A R
(1781869788.955047) can0 12D#000000000000008B R
(1781869788.955284) can0 12D#00000000000000BE R
(1781869788.955522) can0 12E#00000000000000BE R
(1781869788.974374) can0 121#00AC01D604800087 R
(1781869788.974616) can0 129#000000010000008F R
(1781869788.974854) can0 120#000000000000008B R
(1781869788.975091) can0 12D#00000000000000D4 R
(1781869788.975330) can0 12D#0000000000000035 R
(1781869788.975568) can0 12E#00000000000000D4 R
(1781869788.981007) can0 121#00AC01D6048000B2 R
(1781869788.981247) can0 129#00000001000000BA R
(1781869788.981485) can0 540#000000010000F900 R
(1781869788.981723) can0 5B0#0000000000000035 R
(1781869788.981959) can0 120#00000000000000BE R
(1781869788.982198) can0 12D#000000000000005F R
(1781869789.000811) can0 12A#10010000000A0042 R
(1781869789.001059) can0 12D#000000000000006A R
(1781869789.001301) can0 12E#0000000000000035 R
(1781869789.001541) can0 121#00AC01D6048000D8 R
(1781869789.001781) can0 129#00000001000000D0 R
(1781869789.002021) can0 120#00000000000000D4 R
(1781869789.016097) can0 12D#000000000000008B R
(1781869789.016358) can0 12D#00000000000000BE R
(1781869789.016603) can0 12E#000000000000005F R
(1781869789.016846) can0 121#00AC01D604800039 R
(1781869789.017086) can0 129#0000000100000031 R
(1781869789.034324) can0 120#0000000000000035 R
(1781869789.034585) can0 12D#00000000000000D4 R
(1781869789.034825) can0 12D#0000000000000035 R
(1781869789.035081) can0 12E#000000000000006A R
(1781869789.035318) can0 12A#10010000000A0077 R
(1781869789.035555) can0 5A0#0000000000000035 R
(1781869789.054389) can0 121#00AC01D604800053 R
(1781869789.054662) can0 129#000000010000005B R
(1781869789.054914) can0 120#000000000000005F R
(1781869789.055161) can0 12D#000000000000005F R
(1781869789.055407) can0 12D#000000000000006A R
(1781869789.055652) can0 12E#000000000000008B R
(1781869789.070914) can0 121#00AC01D604800066 R
(1781869789.071168) can0 129#000000010000006E R
(1781869789.071416) can0 541#0001000000000062 R
(1781869789.071658) can0 120#000000000000006A R
(1781869789.071926) can0 12D#000000000000008B R
(1781869789.072207) can0 12D#00000000000000BE R
(1781869789.078530) can0 12E#00000000000000BE R
(1781869789.078773) can0 121#00AC01D604800087 R
(1781869789.079012) can0 129#000000010000008F R
(1781869789.079250) can0 540#000000010000F900 R
(1781869789.079488) can0 5B0#100000000000005E R
(1781869789.079742) can0 120#000000000000008B R
(1781869789.094498) can0 541#0001100000000012 R
(1781869789.094744) can0 12D#00000000000000D4 R
(1781869789.094984) can0 12A#10010000000A0096 R
(1781869789.095223) can0 12D#0000000000000035 R
(1781869789.095462) can0 12E#00000000000000D4 R
(1781869789.095702) can0 121#00AC01D6048000B2 R
(1781869789.110911) can0 129#00000001000000BA R
(1781869789.111155) can0 120#00000000000000BE R
(1781869789.111395) can0 541#0001100000000027 R
(1781869789.111633) can0 12D#000000000000005F R
(1781869789.111870) can0 450#0000000000002800 R
(1781869789.120807) can0 12D#000000000000006A R
(1781869789.121060) can0 12E#0000000000000035 R
(1781869789.121300) can0 121#00A601CF048000D9 R
(1781869789.121541) can0 129#00000001000000D0 R
(1781869789.121780) can0 120#00000000000000D4 R
(1781869789.122019) can0 541#000110000000004D R
(1781869789.134578) can0 12D#000000000000008B R
(1781869789.134822) can0 12D#00000000000000BE R
(1781869789.135062) can0 12E#000000000000005F R
(1781869789.135300) can0 12A#10010000000A00A3 R
(1781869789.135576) can0 5A0#000000000000005F R
(1781869789.135820) can0 121#00A601CF04800038 R
(1781869789.152216) can0 129#0000000100000031 R
(1781869789.152459) can0 120#0000000000000035 R
(1781869789.152702) can0 541#0001100000000078 R
(1781869789.152941) can0 12D#00000000000000D4 R
(1781869789.153179) can0 12D#0000000000000035 R
(1781869789.153417) can0 12E#000000000000006A R
(1781869789.170738) can0 450#0000000000002800 R
(1781869789.170984) can0 121#00A601CF04800052 R
(1781869789.171223) can0 129#000000010000005B R
(1781869789.171460) can0 120#000000000000005F R
(1781869789.171699) can0 541#0001100000000099 R
(1781869789.171937) can0 12D#000000000000005F R
(1781869789.175225) can0 12D#000000000000006A R
(1781869789.175465) can0 12E#000000000000008B R
(1781869789.175705) can0 121#00A601CF04800067 R
(1781869789.175943) can0 129#000000010000006E R
(1781869789.176182) can0 540#000000110000F900 R
(1781869789.190803) can0 5B0#100000000000006B R
(1781869789.191056) can0 120#000000000000006A R
(1781869789.191295) can0 541#00011000000000AC R
(1781869789.191534) can0 12D#000000000000008B R
(1781869789.191770) can0 12A#10010000000A00C9 R
(1781869789.192008) can0 12D#00000000000000BE R
(1781869789.202230) can0 12E#00000000000000BE R
(1781869789.202480) can0 121#00A601CF04800086 R
(1781869789.202718) can0 129#000000010000008F R
(1781869789.202958) can0 120#000000000000008B R
(1781869789.203197) can0 541#00011000000000C6 R
(1781869789.203437) can0 12D#00000000000000D4 R
(1781869789.218498) can0 450#0000000000002800 R
(1781869789.218742) can0 12D#0000000000000035 R
(1781869789.218982) can0 12E#00000000000000D4 R
(1781869789.219219) can0 121#00A601CF048000B3 R
(1781869789.219456) can0 129#00000001000000BA R
(1781869789.219693) can0 120#00000000000000BE R
(1781869789.234439) can0 541#0001100000000027 R
(1781869789.234682) can0 12D#000000000000005F R
(1781869789.234920) can0 12D#000000000000006A R
(1781869789.235159) can0 12E#0000000000000035 R
(1781869789.235398) can0 12A#10010000000A0028 R
(1781869789.235635) can0 5A0#000000000000006A R
(1781869789.251185) can0 121#00A601CF048000D9 R
(1781869789.251431) can0 129#00000001000000D0 R
(1781869789.251668) can0 120#00000000000000D4 R
(1781869789.251907) can0 541#000110000000004D R
(1781869789.252147) can0 12D#000000000000008B R
(1781869789.252408) can0 12D#00000000000000BE R
(1781869789.258628) can0 12E#000000000000005F R
(1781869789.258870) can0 450#0000000000002800 R
(1781869789.259107) can0 121#00A601CF04800038 R
(1781869789.259348) can0 129#0000000100000031 R
(1781869789.259686) can0 120#0000000000000035 R
(1781869789.274782) can0 541#0001100000000078 R
(1781869789.275035) can0 12D#00000000000000D4 R
(1781869789.275274) can0 12D#0000000000000035 R
(1781869789.275512) can0 12E#000000000000006A R
(1781869789.275749) can0 121#00A601CF04800052 R
(1781869789.275987) can0 129#000000010000005B R
(1781869789.291046) can0 540#000040100000F900 R
(1781869789.291296) can0 5B0#100000000000008A R
(1781869789.291537) can0 120#000000000000005F R
(1781869789.291775) can0 541#0001100000000099 R
(1781869789.292014) can0 12D#000000000000005F R
(1781869789.292255) can0 12A#10010000000A0042 R
(1781869789.301242) can0 12D#000000000000006A R
(1781869789.301493) can0 12E#000000000000008B R
(1781869789.301738) can0 121#00A601CF04800067 R
(1781869789.301980) can0 129#000000010000006E R
(1781869789.302222) can0 120#000000000000006A R
(1781869789.302466) can0 541#00011000000000AC R
(1781869789.316054) can0 12D#000000000000008B R
(1781869789.316298) can0 450#0000000000002800 R
(1781869789.316537) can0 12D#00000000000000BE R
(1781869789.316773) can0 12E#00000000000000BE R
(1781869789.317013) can0 121#00A601CF04800086 R
(1781869789.317257) can0 129#000000010000008F R
(1781869789.331756) can0 120#000000000000008B R
(1781869789.332001) can0 541#00011000000000C6 R
(1781869789.332243) can0 12D#00000000000000D4 R
(1781869789.332483) can0 12D#0000000000000035 R
(1781869789.332722) can0 12E#00000000000000D4 R
(1781869789.341107) can0 12A#10010000000A0077 R
(1781869789.341359) can0 5A0#000000000000008B R
(1781869789.341599) can0 121#00A601CF048000B3 R
(1781869789.341837) can0 129#00000001000000BA R
(1781869789.342076) can0 120#00000000000000BE R
(1781869789.342314) can0 541#0001100000000027 R
(1781869789.356053) can0 12D#000000000000005F R
(1781869789.356305) can0 12D#000000000000006A R
(1781869789.356543) can0 12E#0000000000000035 R
(1781869789.356783) can0 450#0000000000002800 R
(1781869789.357024) can0 121#00A601CF048000D9 R
(1781869789.357263) can0 129#00000001000000D0 R
(1781869789.374785) can0 120#00000000000000D4 R
(1781869789.375027) can0 541#000110000000004D R
(1781869789.375266) can0 12D#000000000000008B R
(1781869789.375504) can0 12D#00000000000000BE R
(1781869789.375741) can0 12E#000000000000005F R
(1781869789.375977) can0 121#00A601CF04800038 R
(1781869789.381464) can0 129#0000000100000031 R
(1781869789.381706) can0 540#000040100000F900 R
(1781869789.381945) can0 5B0#10000000000000BF R
(1781869789.382196) can0 120#0000000000000035 R
(1781869789.382434) can0 541#0001100000000078 R
(1781869789.382672) can0 12D#00000000000000D4 R
(1781869789.396157) can0 12A#10010000000A0096 R
(1781869789.396402) can0 12D#0000000000000035 R
(1781869789.396646) can0 12E#000000000000006A R
(1781869789.396885) can0 121#00A601CF04800052 R
(1781869789.397124) can0 129#000000010000005B R
(1781869789.397363) can0 120#000000000000005F R
(1781869789.414527) can0 541#0001100000000099 R
(1781869789.414770) can0 12D#000000000000005F R
(1781869789.415009) can0 450#0000000000002800 R
(1781869789.415249) can0 12D#000000000000006A R
(1781869789.415486) can0 12E#000000000000008B R
(1781869789.431329) can0 121#00A601CF04800067 R
(1781869789.431581) can0 129#000000010000006E R
(1781869789.431819) can0 120#000000000000006A R
(1781869789.432055) can0 541#00011000000000AC R
(1781869789.432294) can0 12D#000000000000008B R
(1781869789.432532) can0 12D#00000000000000BE R
(1781869789.438473) can0 12E#00000000000000BE R
(1781869789.438715) can0 12A#10010000000A00A3 R
(1781869789.438953) can0 5A0#00000000000000BE R
(1781869789.439190) can0 121#00A601CF04800086 R
(1781869789.439429) can0 129#000000010000008F R
(1781869789.439669) can0 120#000000000000008B R
(1781869789.454657) can0 541#00011000000000C6 R
(1781869789.454923) can0 12D#00000000000000D4 R
(1781869789.455172) can0 12D#0000000000000035 R
(1781869789.455415) can0 12E#00000000000000D4 R
(1781869789.455655) can0 450#0000000000002800 R
(1781869789.455894) can0 121#00A601CF048000B3 R
(1781869789.474474) can0 129#00000001000000BA R
(1781869789.474726) can0 120#00000000000000BE R
(1781869789.474968) can0 541#0001100000000027 R
(1781869789.475207) can0 12D#000000000000005F R
(1781869789.475450) can0 12D#000000000000006A R
(1781869789.475690) can0 12E#0000000000000035 R
(1781869789.478603) can0 121#00A601CF048000D9 R
(1781869789.478846) can0 129#00000001000000D0 R
(1781869789.479085) can0 540#000040100000F900 R
(1781869789.479323) can0 5B0#10000000000000D5 R
(1781869789.479564) can0 120#00000000000000D4 R
(1781869789.494517) can0 541#000110000000004D R
(1781869789.494777) can0 12D#000000000000008B R
(1781869789.495021) can0 12A#10010000000A00C9 R
(1781869789.495258) can0 12D#00000000000000BE R
(1781869789.495493) can0 12E#000000000000005F R
(1781869789.495728) can0 121#00A601CF04800038 R
(1781869789.511362) can0 129#0000000100000031 R
(1781869789.511610) can0 120#0000000000000035 R
(1781869789.511847) can0 541#0001100000000078 R
(1781869789.512085) can0 12D#00000000000000D4 R
(1781869789.512321) can0 450#0000000000002800 R
(1781869789.512559) can0 12D#0000000000000035 R
(1781869789.531177) can0 12E#000000000000006A R
(1781869789.531450) can0 121#00A601CF04800052 R
(1781869789.531696) can0 129#000000010000005B R
(1781869789.531935) can0 120#000000000000005F R
(1781869789.532175) can0 541#0001100000000099 R
(1781869789.532425) can0 12D#000000000000005F R
(1781869789.536194) can0 12D#000000000000006A R
(1781869789.536538) can0 12E#000000000000008B R
(1781869789.536799) can0 12A#10010000000A0028 R
(1781869789.537050) can0 5A0#00000000000000D4 R
(1781869789.537298) can0 121#00A601CF04800067 R
(1781869789.537546) can0 129#000000010000006E R
(1781869789.552177) can0 120#000000000000006A R
(1781869789.552335) can0 541#00011000000000AC R
(1781869789.552474) can0 12D#000000000000008B R
(1781869789.552610) can0 12D#00000000000000BE R
(1781869789.552747) can0 12E#00000000000000BE R
(1781869789.552881) can0 450#0000000000002800 R
(1781869789.571300) can0 121#00A601CF04800086 R
(1781869789.571579) can0 129#000000010000008F R
(1781869789.571829) can0 120#000000000000008B R
(1781869789.572072) can0 541#00011000000000C6 R
(1781869789.572313) can0 12D#00000000000000D4 R
(1781869789.576119) can0 12D#0000000000000035 R
(1781869789.576391) can0 12E#00000000000000D4 R
(1781869789.576642) can0 121#00A601CF048000B3 R
(1781869789.576886) can0 129#00000001000000BA R
(1781869789.577127) can0 540#000040100000F900 R
(1781869789.577369) can0 5B0#1000000000000034 R
(1781869789.594438) can0 120#00000000000000BE R
(1781869789.594651) can0 541#0001100000000027 R
(1781869789.594843) can0 12D#000000000000005F R
(1781869789.595022) can0 12A#10010000000A0042 R
(1781869789.595199) can0 12D#000000000000006A R
(1781869789.595381) can0 12E#0000000000000035 R
(1781869789.611151) can0 121#00A601CF048000D9 R
(1781869789.611414) can0 129#00000001000000D0 R
(1781869789.611656) can0 120#00000000000000D4 R
(1781869789.611893) can0 541#000110000000004D R
(1781869789.612130) can0 12D#000000000000008B R
(1781869789.612367) can0 450#0000000000002800 R
(1781869789.621286) can0 12D#00000000000000BE R
(1781869789.621558) can0 12E#000000000000005F R
(1781869789.621808) can0 121#00A601CF04800038 R
(1781869789.622051) can0 129#0000000100000031 R
(1781869789.622292) can0 120#0000000000000035 R
(1781869789.622530) can0 541#0001100000000078 R
(1781869789.634543) can0 12D#00000000000000D4 R
(1781869789.634793) can0 12D#0000000000000035 R
(1781869789.635036) can0 12E#000000000000006A R
(1781869789.635273) can0 12A#10010000000A0077 R
(1781869789.635512) can0 5A0#0000000000000035 R
(1781869789.651220) can0 121#00A601CF04800052 R
(1781869789.651483) can0 129#000000010000005B R
(1781869789.651727) can0 120#000000000000005F R
(1781869789.651966) can0 541#0001100000000099 R
(1781869789.652205) can0 12D#000000000000005F R
(1781869789.652442) can0 12D#000000000000006A R
(1781869789.661188) can0 12E#000000000000008B R
(1781869789.661453) can0 450#0000000000002800 R
(1781869789.661696) can0 121#00A601CF04800067 R
(1781869789.661935) can0 129#000000010000006E R
(1781869789.662172) can0 120#000000000000006A R
(1781869789.662408) can0 541#00011000000000AC R
(1781869789.675160) can0 12D#000000000000008B R
(1781869789.675412) can0 12D#00000000000000BE R
(1781869789.675652) can0 12E#00000000000000BE R
(1781869789.675891) can0 121#00A601CF04800086 R
(1781869789.676127) can0 129#000000010000008F R
(1781869789.676363) can0 540#000040100000F900 R
(1781869789.691330) can0 5B0#100000000000005E R
(1781869789.691581) can0 120#000000000000008B R
(1781869789.691823) can0 541#00011000000000C6 R
(1781869789.692063) can0 12D#00000000000000D4 R
(1781869789.692302) can0 12A#10010000000A0096 R
(1781869789.692541) can0 12D#0000000000000035 R
(1781869789.701264) can0 12E#00000000000000D4 R
(1781869789.701515) can0 121#00A601CF048000B3 R
(1781869789.701756) can0 129#00000001000000BA R
(1781869789.701994) can0 120#00000000000000BE R
(1781869789.702234) can0 541#0001100000000027 R
(1781869789.702471) can0 12D#000000000000005F R
(1781869789.714434) can0 450#0000000000002800 R
(1781869789.714897) can0 12D#000000000000006A R
(1781869789.715036) can0 12E#0000000000000035 R
(1781869789.731448) can0 121#00A601CF048000D9 R
(1781869789.731779) can0 129#00000001000000D0 R
(1781869789.732030) can0 120#00000000000000D4 R
(1781869789.732274) can0 541#0000100000000045 R
(1781869789.732525) can0 12D#000000000000008B R
(1781869789.732766) can0 12D#00000000000000BE R
(1781869789.738563) can0 12E#000000000000005F R
(1781869789.738809) can0 12A#10010000000A00A3 R
(1781869789.739047) can0 5A0#000000000000005F R
(1781869789.739285) can0 121#00A601CF04800038 R
(1781869789.739524) can0 129#0000000100000031 R
(1781869789.739762) can0 120#0000000000000035 R
(1781869789.754723) can0 541#0000100000000070 R
(1781869789.754978) can0 12D#00000000000000D4 R
(1781869789.755218) can0 12D#0000000000000035 R
(1781869789.755456) can0 12E#000000000000006A R
(1781869789.755694) can0 450#0000000000002800 R
(1781869789.771176) can0 121#00A601CF04800052 R
(1781869789.771444) can0 129#000000010000005B R
(1781869789.771592) can0 120#000000000000005F R
(1781869789.771732) can0 541#0000100000000091 R
(1781869789.771870) can0 12D#000000000000005F R
(1781869789.772012) can0 12D#000000000000006A R
(1781869789.778511) can0 12E#000000000000008B R
(1781869789.778787) can0 121#00A601CF04800067 R
(1781869789.779032) can0 129#000000010000006E R
(1781869789.779273) can0 540#000040100000F900 R
(1781869789.779513) can0 5B0#100000000000006B R
(1781869789.779752) can0 120#000000000000006A R
(1781869789.794709) can0 541#00001000000000A4 R
(1781869789.794982) can0 12D#000000000000008B R
(1781869789.795225) can0 12A#10010000000A00C9 R
(1781869789.795466) can0 12D#00000000000000BE R
(1781869789.795706) can0 12E#00000000000000BE R
(1781869789.795947) can0 121#00A601CF04800086 R
(1781869789.811348) can0 129#000000010000008F R
(1781869789.811614) can0 120#000000000000008B R
(1781869789.811862) can0 541#00001000000000CE R
(1781869789.812102) can0 12D#00000000000000D4 R
(1781869789.812341) can0 450#0000000000002800 R
(1781869789.812582) can0 12D#0000000000000035 R
(1781869789.821257) can0 12E#00000000000000D4 R
(1781869789.821491) can0 121#00A601CF048000B3 R
(1781869789.821627) can0 129#00000001000000BA R
(1781869789.821764) can0 120#00000000000000BE R
(1781869789.821901) can0 541#000010000000002F R
(1781869789.822036) can0 12D#000000000000005F R
(1781869789.834721) can0 12D#000000000000006A R
(1781869789.834962) can0 12E#0000000000000035 R
(1781869789.835200) can0 12A#10010000000A0028 R
(1781869789.835436) can0 5A0#000000000000006A R
(1781869789.835675) can0 121#00A601CF048000D9 R
(1781869789.852170) can0 129#00000001000000D0 R
(1781869789.852446) can0 120#00000000000000D4 R
(1781869789.852691) can0 541#0000100000000045 R
(1781869789.852931) can0 12D#000000000000008B R
(1781869789.853178) can0 12D#00000000000000BE R
(1781869789.853418) can0 12E#000000000000C044 R
(1781869789.871027) can0 450#0000000000002800 R
(1781869789.871282) can0 121#00A601CF04800038 R
(1781869789.871523) can0 129#0000000100000031 R
(1781869789.871760) can0 120#0000000000000035 R
(1781869789.871998) can0 541#0000100000000070 R
(1781869789.872235) can0 12D#00000000000000D4 R
(1781869789.876178) can0 12D#0000000000000035 R
(1781869789.876430) can0 12E#000000000000C071 R
(1781869789.876672) can0 121#00A601CF04800052 R
(1781869789.876911) can0 129#000000010000005B R
(1781869789.877149) can0 540#000040100000F900 R
(1781869789.877388) can0 5B0#100000000000008A R
(1781869789.894480) can0 120#000000000000005F R
(1781869789.894725) can0 541#0000100000000091 R
(1781869789.894963) can0 12D#000000000000005F R
(1781869789.895205) can0 12A#10010000000A0042 R
(1781869789.895444) can0 12D#000000000000006A R
(1781869789.895682) can0 12E#000000000000C090 R
(1781869789.902377) can0 121#00A601CF04800067 R
(1781869789.902620) can0 129#000000010000006E R
(1781869789.902858) can0 120#000000000000006A R
(1781869789.903095) can0 541#00001000000000A4 R
(1781869789.903333) can0 12D#000000000000008B R
(1781869789.918449) can0 450#0000000000002800 R
(1781869789.918731) can0 12D#00000000000000BE R
(1781869789.918975) can0 12E#000000000000C0A5 R
(1781869789.919218) can0 121#00A601CF04800086 R
(1781869789.919457) can0 129#000000010000008F R
(1781869789.919773) can0 120#000000000000008B R
(1781869789.934381) can0 541#00001000000000CE R
(1781869789.934647) can0 12D#00000000000000D4 R
(1781869789.934890) can0 12D#0000000000000035 R
(1781869789.935131) can0 12E#000000000000C0CF R
(1781869789.935371) can0 12A#10010000000A0077 R
(1781869789.935609) can0 5A0#0000000004000085 R
(1781869789.951296) can0 121#00A601CF048000B3 R
(1781869789.951551) can0 129#00000001000000BA R
(1781869789.951792) can0 120#00000000000000BE R
(1781869789.952032) can0 541#000010000000002F R
(1781869789.952270) can0 12D#000000000000005F R
(1781869789.952533) can0 12D#000000000000006A R
(1781869789.961258) can0 12E#000000000000C02E R
(1781869789.961499) can0 450#0000000000002800 R
(1781869789.961739) can0 121#00A601CF048000D9 R
(1781869789.961978) can0 129#00000001000000D0 R
(1781869789.962216) can0 120#00000000000000D4 R
(1781869789.962453) can0 541#0000100000000045 R
(1781869789.974986) can0 12D#000000000000008B R
(1781869789.975230) can0 12D#00000000000000BE R
(1781869789.975470) can0 12E#000000000000C044 R
(1781869789.975707) can0 121#00A601CF04800038 R
(1781869789.975944) can0 129#0000000100000031 R
(1781869789.976182) can0 540#000040100000F900 R
(1781869789.991150) can0 5B0#10000000000000BF R
(1781869789.991401) can0 120#0000000000000035 R
(1781869789.991641) can0 541#0000100000000070 R
(1781869789.991879) can0 12D#00000000000000D4 R
(1781869789.992119) can0 12A#10010000000A0096 R
(1781869790.001115) can0 12D#0000000000000035 R
(1781869790.001491) can0 12E#000000000000C071 R
(1781869790.001740) can0 121#00A601CF04800052 R
(1781869790.001981) can0 129#000000010000005B R
(1781869790.002222) can0 120#000000000000005F R
(1781869790.002462) can0 541#0000100000000091 R
(1781869790.016378) can0 12D#000000000000005F R
(1781869790.016547) can0 450#0000000000002800 R
(1781869790.016803) can0 12D#000000000000006A R
(1781869790.017068) can0 12E#000000000000C090 R
(1781869790.017240) can0 121#00A601CF04800067 R
(1781869790.017392) can0 129#000000010000006E R
(1781869790.031926) can0 120#000000000000006A R
(1781869790.032173) can0 541#00001000000000A4 R
(1781869790.032413) can0 12D#000000000000008B R
(1781869790.032652) can0 12D#00000000000000BE R
(1781869790.032889) can0 12E#000000000000C0A5 R
(1781869790.033126) can0 12A#10010000000A00A3 R
(1781869790.051014) can0 5A0#00000000040000B0 R
(1781869790.051172) can0 121#00A601CF04800086 R
(1781869790.051314) can0 129#000000010000008F R
(1781869790.051516) can0 120#000000000000008B R
(1781869790.051756) can0 541#00001000000000CE R
(1781869790.051998) can0 12D#00000000000000D4 R
(1781869790.056250) can0 12D#0000000000000035 R
(1781869790.056494) can0 12E#000000000000C0CF R
(1781869790.056732) can0 450#0000000000002800 R
(1781869790.056969) can0 121#00A601CF048000B3 R
(1781869790.057206) can0 129#00000001000000BA R
(1781869790.074563) can0 120#00000000000000BE R
(1781869790.074823) can0 541#000010000000002F R
(1781869790.075063) can0 12D#000000000000005F R
(1781869790.075310) can0 12D#000000000000006A R
(1781869790.075552) can0 12E#000000000000C02E R
(1781869790.075791) can0 121#00A601CF048000D9 R
(1781869790.081386) can0 129#00000001000000D0 R
(1781869790.081637) can0 540#000040100000F900 R
(1781869790.081875) can0 5B0#10000000000000D5 R
(1781869790.082112) can0 120#00000000000000D4 R
(1781869790.082348) can0 541#0000100000000045 R
(1781869790.082584) can0 12D#000000000000008B R
(1781869790.098509) can0 12A#10010000000A00C9 R
(1781869790.098753) can0 12D#00000000000000BE R
(1781869790.098993) can0 12E#000000000000C044 R
(1781869790.099229) can0 121#00A601CF04800038 R
(1781869790.099467) can0 129#0000000100000031 R
(1781869790.099704) can0 120#0000000000000035 R
(1781869790.114795) can0 541#0000100000000070 R
(1781869790.114962) can0 12D#00000000000000D4 R
(1781869790.115108) can0 450#0000000000002800 R
(1781869790.115248) can0 12D#0000000000000035 R
(1781869790.115388) can0 12E#000000000000C071 R
(1781869790.115526) can0 121#00A601CF04800052 R
(1781869790.131491) can0 129#000000010000005B R
(1781869790.131744) can0 120#000000000000005F R
(1781869790.131983) can0 541#0000100000000091 R
(1781869790.132222) can0 12D#000000000000005F R
(1781869790.132460) can0 12D#000000000000006A R
(1781869790.132700) can0 12E#000000000000C090 R
(1781869790.138638) can0 12A#10010000000A0028 R
(1781869790.138905) can0 5A0#00000000040000DA R
(1781869790.139154) can0 121#00A601CF04800067 R
(1781869790.139398) can0 129#000000010000006E R
(1781869790.139641) can0 120#000000000000006A R
(1781869790.154585) can0 541#00001000000000A4 R
(1781869790.154838) can0 12D#000000000000008B R
(1781869790.155076) can0 12D#00000000000000BE R
(1781869790.155313) can0 12E#000000000000C0A5 R
(1781869790.155550) can0 450#0000000000002800 R
(1781869790.155792) can0 121#00A601CF04800086 R
(1781869790.174412) can0 129#000000010000008F R
(1781869790.174659) can0 120#000000000000008B R
(1781869790.174899) can0 541#00001000000000CE R
(1781869790.175137) can0 12D#00000000000000D4 R
(1781869790.175374) can0 12D#0000000000000035 R
(1781869790.175617) can0 12E#000000000000C0CF R
(1781869790.181193) can0 121#00A601CF048000B3 R
(1781869790.181389) can0 129#00000001000000BA R
(1781869790.181533) can0 540#000040100000F900 R
(1781869790.181669) can0 5B0#1000000000000034 R
(1781869790.181805) can0 120#00000000000000BE R
(1781869790.181941) can0 541#000010000000002F R
(1781869790.196188) can0 12D#000000000000005F R
(1781869790.196449) can0 12A#10010000000A0042 R
(1781869790.196712) can0 12D#000000000000006A R
(1781869790.196953) can0 12E#000000000000C02E R
(1781869790.197192) can0 121#00A601CF048000D9 R
(1781869790.197432) can0 129#00000001000000D0 R
(1781869790.211374) can0 120#00000000000000D4 R
(1781869790.211626) can0 541#0000100000000045 R
(1781869790.211865) can0 12D#000000000000008B R
(1781869790.212111) can0 450#0000000000002800 R
(1781869790.212353) can0 12D#00000000000000BE R
(1781869790.231055) can0 12E#000000000000C044 R
(1781869790.231313) can0 121#00A601CF04800038 R
(1781869790.231552) can0 129#0000000100000031 R
(1781869790.231791) can0 120#0000000000000035 R
(1781869790.232029) can0 541#0000100000000070 R
(1781869790.232267) can0 12D#00000000000000D4 R
(1781869790.236138) can0 12D#0000000000000035 R
(1781869790.236393) can0 12E#000000000000C071 R
(1781869790.236633) can0 12A#10010000000A0077 R
(1781869790.236870) can0 5A0#000000000400003B R
(1781869790.237107) can0 121#00A601CF04800052 R
(1781869790.237344) can0 129#000000010000005B R
(1781869790.254450) can0 120#000000000000005F R
(1781869790.254716) can0 541#0000100000000091 R
(1781869790.254962) can0 12D#000000000000005F R
(1781869790.255207) can0 12D#000000000000006A R
(1781869790.255397) can0 12E#000000000000C090 R
(1781869790.255539) can0 450#0000000000002800 R
(1781869790.271308) can0 121#00A601CF04800067 R
(1781869790.271563) can0 129#000000010000006E R
(1781869790.271806) can0 120#000000000000006A R
(1781869790.272044) can0 541#00001000000000A4 R
(1781869790.272282) can0 12D#000000000000008B R
(1781869790.272550) can0 12D#00000000000000BE R
(1781869790.276327) can0 12E#000000000000C0A5 R
(1781869790.276587) can0 121#00A601CF04800086 R
(1781869790.276839) can0 129#000000010000008F R
(1781869790.277090) can0 540#000040100000F900 R
(1781869790.277339) can0 5B0#100000000000005E R
(1781869790.277587) can0 120#000000000000008B R
(1781869790.294558) can0 541#00001000000000CE R
(1781869790.294808) can0 12D#00000000000000D4 R
(1781869790.295050) can0 12A#10010000000A0096 R
(1781869790.295292) can0 12D#0000000000000035 R
(1781869790.295533) can0 12E#000000000000C0CF R
(1781869790.310983) can0 121#00A601CF048000B3 R
(1781869790.311258) can0 129#00000001000000BA R
(1781869790.311501) can0 120#00000000000000BE R
(1781869790.311747) can0 541#000010000000002F R
(1781869790.311987) can0 12D#000000000000005F R
(1781869790.312226) can0 450#0000000000002800 R
(1781869790.321155) can0 12D#000000000000006A R
(1781869790.321410) can0 12E#000000000000C02E R
(1781869790.321654) can0 121#00A601CF048000D9 R
(1781869790.321896) can0 129#00000001000000D0 R
(1781869790.322067) can0 120#00000000000000D4 R
(1781869790.322206) can0 541#0000100000000045 R
(1781869790.334669) can0 12D#000000000000008B R
(1781869790.334914) can0 12D#00000000000000BE R
(1781869790.335153) can0 12E#000000000000C044 R
(1781869790.335393) can0 12A#10010000000A00A3 R
(1781869790.335632) can0 5A0#0000000004000051 R
(1781869790.335873) can0 121#00A601CF04800038 R
(1781869790.352244) can0 129#0000000100000031 R
(1781869790.352488) can0 120#0000000000000035 R
(1781869790.352729) can0 541#0000100000000070 R
(1781869790.352966) can0 12D#00000000000000D4 R
(1781869790.353206) can0 12D#0000000000000035 R
(1781869790.353445) can0 12E#000000000000C071 R
(1781869790.361286) can0 450#0000000000002800 R
(1781869790.361564) can0 121#00A601CF04800052 R
(1781869790.361806) can0 129#000000010000005B R
(1781869790.362046) can0 120#000000000000005F R
(1781869790.362285) can0 541#0000100000000091 R
(1781869790.375082) can0 12D#000000000000005F R
(1781869790.375338) can0 12D#000000000000006A R
(1781869790.375577) can0 12E#000000000000C090 R
(1781869790.375817) can0 121#00A601CF04800067 R
(1781869790.376055) can0 129#000000010000006E R
(1781869790.376294) can0 540#000040100000F900 R
(1781869790.391295) can0 5B0#100000000000006B R
(1781869790.391563) can0 120#000000000000006A R
(1781869790.391807) can0 541#00001000000000A4 R
(1781869790.392046) can0 12D#000000000000008B R
(1781869790.392287) can0 12A#10010000000A00C9 R
(1781869790.392527) can0 12D#00000000000000BE R
(1781869790.402368) can0 12E#000000000000C0A5 R
(1781869790.402646) can0 121#00A601CF04800086 R
(1781869790.402899) can0 129#000000010000008F R
(1781869790.403145) can0 120#000000000000008B R
(1781869790.403388) can0 541#00001000000000CE R
(1781869790.403630) can0 12D#00000000000000D4 R
(1781869790.418539) can0 450#0000000000002800 R
(1781869790.418789) can0 12D#0000000000000035 R
(1781869790.419030) can0 12E#000000000000C0CF R
(1781869790.419270) can0 121#00A601CF048000B3 R
(1781869790.419509) can0 129#00000001000000BA R
(1781869790.419747) can0 120#00000000000000BE R
(1781869790.431901) can0 541#000010000000002F R
(1781869790.432141) can0 12D#000000000000005F R
(1781869790.432379) can0 12D#000000000000006A R
(1781869790.432617) can0 12E#000000000000C02E R
(1781869790.432853) can0 12A#10010000000A0028 R
(1781869790.433092) can0 5A0#0000000004000064 R
(1781869790.451045) can0 121#00A601CF048000D9 R
(1781869790.451234) can0 129#00000001000000D0 R
(1781869790.451428) can0 120#00000000000000D4 R
(1781869790.451672) can0 541#0000100000000045 R
(1781869790.451916) can0 12D#000000000000008B R
(1781869790.458447) can0 12D#00000000000000BE R
(1781869790.458654) can0 12E#000000000000C044 R
(1781869790.458834) can0 450#0000000000002800 R
(1781869790.459013) can0 121#00A601CF04800038 R
(1781869790.459190) can0 129#0000000100000031 R
(1781869790.459372) can0 120#0000000000000035 R
(1781869790.474915) can0 541#0000100000000070 R
(1781869790.475269) can0 12D#00000000000000D4 R
(1781869790.475541) can0 12D#0000000000000035 R
(1781869790.475792) can0 12E#000000000000C071 R
(1781869790.476040) can0 121#00A601CF04800052 R
(1781869790.476284) can0 129#000000010000005B R
(1781869790.491068) can0 540#000040100000F900 R
(1781869790.491338) can0 5B0#100000000000008A R
(1781869790.491593) can0 120#000000000000005F R
(1781869790.491841) can0 541#0000100000000091 R
(1781869790.492085) can0 12D#000000000000005F R
(1781869790.492330) can0 12A#10010000000A0042 R
(1781869790.501217) can0 12D#000000000000006A R
(1781869790.501470) can0 12E#000000000000C090 R
(1781869790.501715) can0 121#00A601CF04800067 R
(1781869790.501960) can0 129#000000010000006E R
(1781869790.502203) can0 120#000000000000006A R
(1781869790.502446) can0 541#00001000000000A4 R
(1781869790.514981) can0 12D#000000000000008B R
(1781869790.515235) can0 450#0000000000002800 R
(1781869790.515482) can0 12D#00000000000000BE R
(1781869790.515724) can0 12E#000000000000C0A5 R
(1781869790.515965) can0 121#00A601CF04800086 R
(1781869790.531480) can0 129#000000010000008F R
(1781869790.531741) can0 120#000000000000008B R
(1781869790.531982) can0 541#00001000000000CE R
(1781869790.532222) can0 12D#00000000000000D4 R
(1781869790.532459) can0 12D#0000000000000035 R
(1781869790.532698) can0 12E#000000000000C0CF R
(1781869790.541105) can0 12A#10010000000A0077 R
(1781869790.541359) can0 5A0#0000000004000085 R
(1781869790.541598) can0 121#00A601CF048000B3 R
(1781869790.541843) can0 129#00000001000000BA R
(1781869790.542081) can0 120#00000000000000BE R
(1781869790.542321) can0 541#000010000000002F R
(1781869790.556220) can0 12D#000000000000005F R
(1781869790.556474) can0 12D#000000000000006A R
(1781869790.556722) can0 12E#000000000000C02E R
(1781869790.556967) can0 450#0000000000002800 R
(1781869790.557209) can0 121#00A601CF048000D9 R
(1781869790.557451) can0 129#00000001000000D0 R
(1781869790.574758) can0 120#00000000000000D4 R
(1781869790.575029) can0 541#0000100000000045 R
(1781869790.575277) can0 12D#000000000000008B R
(1781869790.575519) can0 12D#00000000000000BE R
(1781869790.575762) can0 12E#000000000000C044 R
(1781869790.576004) can0 121#00A601CF04800038 R
(1781869790.581246) can0 129#0000000100000031 R
(1781869790.581497) can0 540#000040100000F900 R
(1781869790.581739) can0 5B0#10000000000000BF R
(1781869790.581979) can0 120#0000000000000035 R
(1781869790.582217) can0 541#0000100000000070 R
(1781869790.582457) can0 12D#00000000000000D4 R
(1781869790.596297) can0 12A#10010000000A0096 R
(1781869790.596560) can0 12D#0000000000000035 R
(1781869790.596807) can0 12E#000000000000C071 R
(1781869790.597049) can0 121#00A601CF04800052 R
(1781869790.597289) can0 129#000000010000005B R
(1781869790.614403) can0 120#000000000000005F R
(1781869790.614674) can0 541#0000100000000091 R
(1781869790.614919) can0 12D#000000000000005F R
(1781869790.615160) can0 450#0000000000002800 R
(1781869790.615400) can0 12D#000000000000006A R
(1781869790.615640) can0 12E#000000000000C090 R
(1781869790.631390) can0 121#00A601CF04800067 R
(1781869790.631654) can0 129#000000010000006E R
(1781869790.631901) can0 120#000000000000006A R
(1781869790.632142) can0 541#00001000000000A4 R
(1781869790.632383) can0 12D#000000000000008B R
(1781869790.632620) can0 12D#00000000000000BE R
(1781869790.638526) can0 12E#000000000000C0A5 R
(1781869790.638769) can0 12A#10010000000A00A3 R
(1781869790.639008) can0 5A0#00000000040000B0 R
(1781869790.639248) can0 121#00A601CF04800086 R
(1781869790.639486) can0 129#000000010000008F R
(1781869790.639725) can0 120#000000000000008B R
(1781869790.654752) can0 541#00001000000000CE R
(1781869790.655003) can0 12D#00000000000000D4 R
(1781869790.655247) can0 12D#0000000000000035 R
(1781869790.655487) can0 12E#000000000000C0CF R
(1781869790.655726) can0 450#0000000000002800 R
(1781869790.655964) can0 121#00A601CF048000B3 R
(1781869790.671301) can0 129#00000001000000BA R
(1781869790.671545) can0 120#00000000000000BE R
(1781869790.671789) can0 541#000010000000002F R
(1781869790.672030) can0 12D#000000000000005F R
(1781869790.672269) can0 12D#000000000000006A R
(1781869790.678403) can0 12E#000000000000C02E R
(1781869790.678658) can0 121#00A601CF048000D9 R
(1781869790.678899) can0 129#00000001000000D0 R
(1781869790.679138) can0 540#000040100000F900 R
(1781869790.679376) can0 5B0#10000000000000D5 R
(1781869790.679615) can0 120#00000000000000D4 R
(1781869790.694646) can0 541#0000100000000045 R
(1781869790.694902) can0 12D#000000000000008B R
(1781869790.695142) can0 12A#10010000000A00C9 R
(1781869790.695380) can0 12D#00000000000000BE R
(1781869790.695619) can0 12E#000000000000C044 R
(1781869790.695857) can0 121#00A601CF04800038 R
(1781869790.711265) can0 129#0000000100000031 R
(1781869790.711508) can0 120#0000000000000035 R
(1781869790.711749) can0 541#0000100000000070 R
(1781869790.711987) can0 12D#00000000000000D4 R
(1781869790.712224) can0 450#0000000000002800 R
(1781869790.712469) can0 12D#0000000000000035 R
(1781869790.731135) can0 12E#000000000000C071 R
(1781869790.731382) can0 121#00A601CF04800052 R
(1781869790.731621) can0 129#000000010000005B R
(1781869790.731923) can0 120#000000000000005F R
(1781869790.732164) can0 541#0000100000000091 R
(1781869790.732402) can0 12D#000000000000005F R
(1781869790.734816) can0 12D#000000000000006A R
(1781869790.735057) can0 12E#000000000000C090 R
(1781869790.735296) can0 12A#10010000000A0028 R
(1781869790.735533) can0 5A0#00000000040000DA R
(1781869790.735771) can0 121#00A601CF04800067 R
(1781869790.736009) can0 129#000000010000006E R
(1781869790.752307) can0 120#000000000000006A R
(1781869790.752550) can0 541#00001000000000A4 R
(1781869790.752789) can0 12D#000000000000008B R
(1781869790.753027) can0 12D#00000000000000BE R
(1781869790.753266) can0 12E#000000000000C0A5 R
(1781869790.770919) can0 450#0000000000002800 R
(1781869790.771075) can0 121#00A601CF04800086 R
(1781869790.771213) can0 129#000000010000008F R
(1781869790.771351) can0 120#000000000000008B R
(1781869790.771506) can0 541#00001000000000CE R
(1781869790.771643) can0 12D#00000000000000D4 R
(1781869790.776387) can0 12D#0000000000000035 R
(1781869790.776596) can0 12E#000000000000C0CF R
(1781869790.776772) can0 121#00A601CF048000B3 R
(1781869790.776946) can0 129#00000001000000BA R
(1781869790.777121) can0 540#000040100000F900 R
(1781869790.777294) can0 5B0#1000000000000034 R
(1781869790.794482) can0 120#00000000000000BE R
(1781869790.794744) can0 541#000010000000002F R
(1781869790.794988) can0 12D#000000000000005F R
(1781869790.795230) can0 12A#10010000000A0042 R
(1781869790.795467) can0 12D#000000000000006A R
(1781869790.795705) can0 12E#000000000000C02E R
(1781869790.811047) can0 121#00A601CF048000D9 R
(1781869790.811294) can0 129#00000001000000D0 R
(1781869790.811533) can0 120#00000000000000D4 R
(1781869790.811772) can0 541#0000100000000045 R
(1781869790.812010) can0 12D#000000000000008B R
(1781869790.812249) can0 450#0000000000002800 R
(1781869790.818599) can0 12D#00000000000000BE R
(1781869790.818839) can0 12E#000000000000C044 R
(1781869790.819077) can0 121#00A601CF04800038 R
(1781869790.819315) can0 129#0000000100000031 R
(1781869790.819551) can0 120#0000000000000035 R
(1781869790.834398) can0 541#0000100000000070 R
(1781869790.834651) can0 12D#00000000000000D4 R
(1781869790.834890) can0 12D#0000000000000035 R
(1781869790.835128) can0 12E#000000000000C071 R
(1781869790.835364) can0 12A#10010000000A0077 R
(1781869790.835602) can0 5A0#000000000400003B R
(1781869790.851184) can0 121#00A601CF04800052 R
(1781869790.851454) can0 129#000000010000005B R
(1781869790.851696) can0 120#000000000000005F R
(1781869790.851942) can0 541#0000100000000091 R
(1781869790.852182) can0 12D#000000000000005F R
(1781869790.852419) can0 12D#000000000000006A R
(1781869790.861174) can0 12E#000000000000C090 R
(1781869790.861428) can0 450#0000000000002800 R
(1781869790.861667) can0 121#00A601CF04800067 R
(1781869790.861905) can0 129#000000010000006E R
(1781869790.862142) can0 120#000000000000006A R
(1781869790.862379) can0 541#00001000000000A4 R
(1781869790.875287) can0 12D#000000000000008B R
(1781869790.875530) can0 12D#00000000000000BE R
(1781869790.875767) can0 12E#000000000000C0A5 R
(1781869790.876004) can0 121#00A601CF04800086 R
(1781869790.876251) can0 129#000000010000008F R
(1781869790.876491) can0 540#000040100000F900 R
(1781869790.891075) can0 5B0#100000000000005E R
(1781869790.891315) can0 120#000000000000008B R
(1781869790.891553) can0 541#00001000000000CE R
(1781869790.891791) can0 12D#00000000000000D4 R
(1781869790.892030) can0 12A#10050000000A0083 R
(1781869790.892269) can0 12D#0000000000000035 R
(1781869790.901279) can0 12E#000000000000C0CF R
(1781869790.901522) can0 121#00A601CF048000B3 R
(1781869790.901758) can0 129#00000001000000BA R
(1781869790.901997) can0 120#00000000000000BE R
(1781869790.902237) can0 541#000010000000002F R
(1781869790.916095) can0 12D#000000000000005F R
(1781869790.916347) can0 450#0000000000002800 R
(1781869790.916586) can0 12D#000000000000006A R
(1781869790.916823) can0 12E#000000000000C02E R
(1781869790.917061) can0 121#00A601CF048000D9 R
(1781869790.917301) can0 129#00000001000000D0 R
(1781869790.931805) can0 120#00000000000000D4 R
(1781869790.932049) can0 541#0000100000000045 R
(1781869790.932287) can0 12D#000000000000008B R
(1781869790.932524) can0 12D#00000000000000BE R
(1781869790.932760) can0 12E#000000000000C044 R
(1781869790.932996) can0 12A#10050000000A00B6 R
(1781869790.950991) can0 5A0#0000000004000051 R
(1781869790.951232) can0 121#00A601CF04800038 R
(1781869790.951470) can0 129#0000000100000031 R
(1781869790.951710) can0 120#0000000000000035 R
(1781869790.951948) can0 541#0000100000000070 R
(1781869790.952191) can0 12D#00000000000000D4 R
(1781869790.958557) can0 12D#0000000000000035 R
(1781869790.958798) can0 12E#000000000000C071 R
(1781869790.959034) can0 450#0000000000002800 R
(1781869790.959268) can0 121#00A601CF04800052 R
(1781869790.959505) can0 129#000000010000005B R
(1781869790.959742) can0 120#000000000000005F R
(1781869790.974806) can0 541#0000100000000091 R
(1781869790.975046) can0 12D#000000000000005F R
(1781869790.975283) can0 12D#000000000000006A R
(1781869790.975520) can0 12E#000000000000C090 R
(1781869790.975758) can0 121#00A601CF04800067 R
(1781869790.981296) can0 129#000000010000006E R
(1781869790.981549) can0 540#000040100000F900 R
(1781869790.981789) can0 5B0#100000000000006B R
(1781869790.982027) can0 120#000000000000006A R
(1781869790.982270) can0 541#00001000000000A4 R
(1781869790.982508) can0 12D#000000000000008B R
(1781869790.998647) can0 12A#10050000000A00DC R
(1781869790.999144) can0 12D#00000000000000BE R
(1781869790.999426) can0 12E#000000000000C0A5 R
(1781869790.999713) can0 121#00A601CF04800086 R
(1781869790.999962) can0 129#000000010000008F R
(1781869791.000205) can0 120#000000000000008B R
(1781869791.014860) can0 541#00001000000000CE R
(1781869791.015075) can0 12D#00000000000000D4 R
(1781869791.015239) can0 450#0000000000002800 R
(1781869791.015479) can0 12D#0000000000000035 R
(1781869791.015689) can0 12E#000000000000C0CF R
(1781869791.015892) can0 121#00A601CF048000B3 R
(1781869791.031707) can0 129#00000001000000BA R
(1781869791.031906) can0 120#00000000000000BE R
(1781869791.032058) can0 541#000010000000002F R
(1781869791.032193) can0 12D#000000000000005F R
(1781869791.032312) can0 12D#000000000000006A R
(1781869791.032430) can0 12E#000000000000C02E R
(1781869791.038548) can0 12A#10050000000A003D R
(1781869791.038716) can0 5A0#0000000004000064 R
(1781869791.038827) can0 121#00A601CF048000D9 R
(1781869791.038949) can0 129#00000001000000D0 R
(1781869791.039058) can0 120#00000000000000D4 R
(1781869791.039163) can0 541#0000100000000045 R
(1781869791.054790) can0 12D#000000000000008B R
(1781869791.054965) can0 12D#00000000000000BE R
(1781869791.055078) can0 12E#000000000000C044 R
(1781869791.055180) can0 450#0000000000002800 R
(1781869791.055278) can0 121#00A601CF04800038 R
(1781869791.074466) can0 129#0000000100000031 R
(1781869791.074697) can0 120#0000000000000035 R
(1781869791.074888) can0 541#0000100000000070 R
(1781869791.075076) can0 12D#00000000000000D4 R
(1781869791.075260) can0 12D#0000000000000035 R
(1781869791.075459) can0 12E#000000000000C071 R
(1781869791.081092) can0 121#00A601CF04800052 R
(1781869791.081267) can0 129#000000010000005B R
(1781869791.081389) can0 540#000040100000F900 R
(1781869791.081496) can0 5B0#100000000000008A R
(1781869791.081598) can0 120#000000000000005F R
(1781869791.081703) can0 541#0000100000000091 R
(1781869791.096735) can0 12D#000000000000005F R
(1781869791.097129) can0 12A#10050000000A0057 R
(1781869791.097467) can0 12D#000000000000006A R
(1781869791.097583) can0 12E#000000000000C090 R
(1781869791.097685) can0 121#00A601CF04800067 R
(1781869791.097786) can0 129#000000010000006E R
(1781869791.114638) can0 120#000000000000006A R
(1781869791.114948) can0 541#00001000000000A4 R
(1781869791.115214) can0 12D#000000000000008B R
(1781869791.115466) can0 450#0000000000002800 R
(1781869791.115712) can0 12D#00000000000000BE R
(1781869791.116006) can0 12E#000000000000C0A5 R
(1781869791.131105) can0 121#00A601CF04800086 R
(1781869791.131282) can0 129#000000010000008F R
(1781869791.131432) can0 120#000000000000008B R
(1781869791.131577) can0 541#00001000000000CE R
(1781869791.131720) can0 12D#00000000000000D4 R
(1781869791.136111) can0 12D#0000000000000035 R
(1781869791.136251) can0 12E#000000000000C0CF R
(1781869791.136369) can0 12A#10050000000A0062 R
(1781869791.136478) can0 5A0#0000000004000085 R
(1781869791.136588) can0 121#00A601CF048000B3 R
(1781869791.136695) can0 129#00000001000000BA R
(1781869791.154527) can0 120#00000000000000BE R
(1781869791.154823) can0 541#000010000000002F R
(1781869791.155076) can0 12D#000000000000005F R
(1781869791.155323) can0 12D#000000000000006A R
(1781869791.155567) can0 12E#000000000000C02E R
(1781869791.155808) can0 450#0000000000002800 R
(1781869791.171229) can0 121#00A601CF048000D9 R
(1781869791.171515) can0 129#00000001000000D0 R
(1781869791.171769) can0 120#00000000000000D4 R
(1781869791.172014) can0 541#0000100000000045 R
(1781869791.172259) can0 12D#000000000000008B R
(1781869791.172501) can0 12D#00000000000000BE R
(1781869791.178537) can0 12E#000000000000C044 R
(1781869791.178783) can0 121#00A601CF04800038 R
(1781869791.179023) can0 129#0000000100000031 R
(1781869791.179265) can0 540#000040100000F900 R
(1781869791.179507) can0 5B0#10000000000000BF R
(1781869791.179747) can0 120#0000000000000035 R
(1781869791.194588) can0 541#0000100000000070 R
(1781869791.194851) can0 12D#00000000000000D4 R
(1781869791.195097) can0 12A#10050000000A0083 R
(1781869791.195338) can0 12D#0000000000000035 R
(1781869791.195576) can0 12E#000000000000C071 R
(1781869791.195813) can0 121#00A601CF04800052 R
(1781869791.211162) can0 129#000000010000005B R
(1781869791.211421) can0 120#000000000000005F R
(1781869791.211665) can0 541#0000100000000091 R
(1781869791.211907) can0 12D#000000000000005F R
(1781869791.212150) can0 450#0000000000002800 R
(1781869791.221077) can0 12D#000000000000006A R
(1781869791.221356) can0 12E#000000000000C090 R
(1781869791.221602) can0 121#00A601CF04800067 R
(1781869791.221844) can0 129#000000010000006E R
(1781869791.222088) can0 120#000000000000006A R
(1781869791.222333) can0 541#00001000000000A4 R
(1781869791.234757) can0 12D#000000000000008B R
(1781869791.235022) can0 12D#00000000000000BE R
(1781869791.235270) can0 12E#000000000000C0A5 R
(1781869791.235514) can0 12A#10050000000A00B6 R
(1781869791.235761) can0 5A0#00000000040000B0 R
(1781869791.236061) can0 121#00A601CF04800086 R
(1781869791.252253) can0 129#000000010000008F R
(1781869791.252527) can0 120#000000000000008B R
(1781869791.252775) can0 541#00001000000000CE R
(1781869791.253017) can0 12D#00000000000000D4 R
(1781869791.253259) can0 12D#0000000000000035 R
(1781869791.253498) can0 12E#000000000000C0CF R
(1781869791.271034) can0 450#0000000000002800 R
(1781869791.271233) can0 121#00A601CF048000B3 R
(1781869791.271411) can0 129#00000001000000BA R
(1781869791.271586) can0 120#00000000000000BE R
(1781869791.271760) can0 541#000010000000002F R
(1781869791.271934) can0 12D#000000000000005F R
(1781869791.275446) can0 12D#000000000000006A R
(1781869791.275605) can0 12E#000000000000C02E R
(1781869791.275747) can0 121#00A601CF048000D9 R
(1781869791.275887) can0 129#00000001000000D0 R
(1781869791.276098) can0 540#000040100000FA00 R
(1781869791.291129) can0 5B0#10000000000000D5 R
(1781869791.291391) can0 120#00000000000000D4 R
(1781869791.291633) can0 541#0000100000000045 R
(1781869791.291872) can0 12D#000000000000008B R
(1781869791.292113) can0 12A#10050000000A00DC R
(1781869791.292338) can0 12D#00000000000000BE R
(1781869791.302238) can0 12E#000000000000C044 R
(1781869791.302445) can0 121#00A601CF04800038 R
(1781869791.302626) can0 129#0000000100000031 R
(1781869791.302803) can0 120#0000000000000035 R
(1781869791.303001) can0 541#0000100000000070 R
(1781869791.303242) can0 12D#00000000000000D4 R
(1781869791.318538) can0 450#0000000000002800 R
(1781869791.318795) can0 12D#0000000000000035 R
(1781869791.319067) can0 12E#000000000000C071 R
(1781869791.319371) can0 121#00A601CF04800052 R
(1781869791.319624) can0 129#000000010000005B R
(1781869791.319867) can0 120#000000000000005F R
(1781869791.334581) can0 541#0000100000000091 R
(1781869791.334855) can0 12D#000000000000005F R
(1781869791.335101) can0 12D#000000000000006A R
(1781869791.335344) can0 12E#000000000000C090 R
(1781869791.335585) can0 12A#10050000000A003D R
(1781869791.335825) can0 5A0#00000000040000DA R
(1781869791.351061) can0 121#00A601CF04800067 R
(1781869791.351305) can0 129#000000010000006E R
(1781869791.351545) can0 120#000000000000006A R
(1781869791.351782) can0 541#00001000000000A4 R
(1781869791.352025) can0 12D#000000000000008B R
(1781869791.352267) can0 12D#00000000000000BE R
(1781869791.358625) can0 12E#000000000000C0A5 R
(1781869791.358874) can0 450#0000000000002800 R
(1781869791.359114) can0 121#00A601CF04800086 R
(1781869791.359355) can0 129#000000010000008F R
(1781869791.359597) can0 120#000000000000008B R
(1781869791.374939) can0 541#00001000000000CE R
(1781869791.375215) can0 12D#00000000000000D4 R
(1781869791.375466) can0 12D#0000000000000035 R
(1781869791.375707) can0 12E#000000000000C0CF R
(1781869791.375946) can0 121#00A601CF048000B3 R
(1781869791.376185) can0 129#00000001000000BA R
(1781869791.390957) can0 540#000040100000FA00 R
(1781869791.391216) can0 5B0#1000000000000034 R
(1781869791.391466) can0 120#00000000000000BE R
(1781869791.391707) can0 541#000010000000002F R
(1781869791.391945) can0 12D#000000000000005F R
(1781869791.392187) can0 12A#10050000000A0057 R
(1781869791.401172) can0 12D#000000000000006A R
(1781869791.401424) can0 12E#000000000000C02E R
(1781869791.401667) can0 121#00A601CF048000D9 R
(1781869791.401905) can0 129#00000001000000D0 R
(1781869791.402145) can0 120#00000000000000D4 R
(1781869791.402384) can0 541#0000100000000045 R
(1781869791.416261) can0 12D#000000000000008B R
(1781869791.416511) can0 450#0000000000002800 R
(1781869791.416752) can0 12D#00000000000000BE R
(1781869791.416993) can0 12E#000000000000C044 R
(1781869791.417234) can0 121#00A601CF04800038 R
(1781869791.417474) can0 129#0000000100000031 R
(1781869791.431657) can0 120#0000000000000035 R
(1781869791.431900) can0 541#0000100000000070 R
(1781869791.432140) can0 12D#00000000000000D4 R
(1781869791.432378) can0 12D#0000000000000035 R
(1781869791.432621) can0 12E#000000000000C071 R
(1781869791.441049) can0 12A#10050000000A0062 R
(1781869791.441315) can0 5A0#000000000400003B R
(1781869791.441559) can0 121#00A601CF04800052 R
(1781869791.441799) can0 129#000000010000005B R
(1781869791.442049) can0 120#000000000000005F R
(1781869791.442289) can0 541#0000100000000091 R
(1781869791.456146) can0 12D#000000000000005F R
(1781869791.456404) can0 12D#000000000000006A R
(1781869791.456645) can0 12E#000000000000C090 R
(1781869791.456885) can0 450#0000000000002800 R
(1781869791.457124) can0 121#00A601CF04800067 R
(1781869791.457364) can0 129#000000010000006E R
(1781869791.474741) can0 120#000000000000006A R
(1781869791.474991) can0 541#00001000000000A4 R
(1781869791.475233) can0 12D#000000000000008B R
(1781869791.475473) can0 12D#00000000000000BE R
(1781869791.475715) can0 12E#000000000000C0A5 R
(1781869791.475954) can0 121#00A601CF04800086 R
(1781869791.481438) can0 129#000000010000008F R
(1781869791.481698) can0 540#000040100000FA00 R
(1781869791.481941) can0 5B0#100000000000005E R
(1781869791.482184) can0 120#000000000000008B R
(1781869791.482425) can0 541#00001000000000CE R
(1781869791.482666) can0 12D#00000000000000D4 R
(1781869791.496275) can0 12A#10050000000A0083 R
(1781869791.496521) can0 12D#0000000000000035 R
(1781869791.496761) can0 12E#000000000000C0CF R
(1781869791.497002) can0 121#00A601CF048000B3 R
(1781869791.497242) can0 129#00000001000000BA R
(1781869791.497479) can0 120#00000000000000BE R
(1781869791.514618) can0 541#000010000000002F R
(1781869791.514862) can0 12D#000000000000005F R
(1781869791.515101) can0 450#0000000000002800 R
(1781869791.515340) can0 12D#000000000000006A R
(1781869791.515579) can0 12E#000000000000C02E R
(1781869791.531340) can0 121#00A601CF048000D9 R
(1781869791.531645) can0 129#00000001000000D0 R
(1781869791.531896) can0 120#00000000000000D4 R
(1781869791.532116) can0 541#0000100000000045 R
(1781869791.532255) can0 12D#000000000000008B R
(1781869791.532377) can0 12D#00000000000000BE R
(1781869791.538520) can0 12E#000000000000C044 R
(1781869791.538790) can0 12A#10050000000A00B6 R
(1781869791.539039) can0 5A0#0000000004000051 R
(1781869791.539285) can0 121#00A601CF04800038 R
(1781869791.539529) can0 129#0000000100000031 R
(1781869791.539768) can0 120#0000000000000035 R
(1781869791.554749) can0 541#0000100000000070 R
(1781869791.554993) can0 12D#00000000000000D4 R
(1781869791.555234) can0 12D#0000000000000035 R
(1781869791.555474) can0 12E#000000000000C071 R
(1781869791.555714) can0 450#0000000000002800 R
(1781869791.555954) can0 121#00A601CF04800052 R
(1781869791.574553) can0 129#000000010000005B R
(1781869791.574799) can0 120#000000000000005F R
(1781869791.575038) can0 541#0000100000000091 R
(1781869791.575278) can0 12D#000000000000005F R
(1781869791.575517) can0 12D#000000000000006A R
(1781869791.575756) can0 12E#000000000000C090 R
(1781869791.578606) can0 121#00A601CF04800067 R
(1781869791.578851) can0 129#000000010000006E R
(1781869791.579117) can0 540#000040100000FA00 R
(1781869791.579359) can0 5B0#100000000000006B R
(1781869791.579602) can0 120#000000000000006A R
(1781869791.594665) can0 541#00001000000000A4 R
(1781869791.594922) can0 12D#000000000000008B R
(1781869791.595163) can0 12A#10050000000A00DC R
(1781869791.595404) can0 12D#00000000000000BE R
(1781869791.595643) can0 12E#000000000000C0A5 R
(1781869791.595881) can0 121#00A601CF04800086 R
(1781869791.611216) can0 129#000000010000008F R
(1781869791.611466) can0 120#000000000000008B R
(1781869791.611708) can0 541#00001000000000CE R
(1781869791.611950) can0 12D#00000000000000D4 R
(1781869791.612187) can0 450#0000000000002800 R
(1781869791.612427) can0 12D#0000000000000035 R
(1781869791.631068) can0 12E#000000000000C0CF R
(1781869791.631321) can0 121#00A601CF048000B3 R
(1781869791.631563) can0 129#00000001000000BA R
(1781869791.631804) can0 120#00000000000000BE R
(1781869791.632045) can0 541#0000100000000139 R
(1781869791.632283) can0 12D#000000000000005F R
(1781869791.641535) can0 12D#000000000000006A R
(1781869791.641641) can0 12E#000000000000C02E R
(1781869791.641740) can0 12A#10050000000A003D R
(1781869791.641836) can0 5A0#0000000004000064 R
(1781869791.641933) can0 121#00A601CF048000D9 R
(1781869791.642028) can0 129#00000001000000D0 R
(1781869791.652317) can0 120#00000000000000D4 R
(1781869791.652580) can0 541#0000100000000153 R
(1781869791.652826) can0 12D#000000000000008B R
(1781869791.653066) can0 12D#00000000000000BE R
(1781869791.653304) can0 12E#000000000000C044 R
(1781869791.653541) can0 450#0000000000002800 R
(1781869791.671061) can0 121#00A601CF04800038 R
(1781869791.671308) can0 129#0000000100000031 R
(1781869791.671549) can0 120#0000000000000035 R
(1781869791.671790) can0 541#0000100000000166 R
(1781869791.672037) can0 12D#00000000000000D4 R
(1781869791.676228) can0 12D#0000000000000035 R
(1781869791.676498) can0 12E#000000000000C071 R
(1781869791.676748) can0 121#00A601CF04800052 R
(1781869791.676994) can0 129#000000010000005B R
(1781869791.677236) can0 540#000040100000FA00 R
(1781869791.677477) can0 5B0#100000000000008A R
(1781869791.694560) can0 120#000000000000005F R
(1781869791.694840) can0 541#0000100000000187 R
(1781869791.695099) can0 12D#000000000000005F R
(1781869791.695355) can0 12A#10050000000A0057 R
(1781869791.695606) can0 12D#000000000000006A R
(1781869791.695859) can0 12E#000000000000C090 R
(1781869791.710278) can0 121#00A601CF04800067 R
(1781869791.710552) can0 129#000000010000006E R
(1781869791.710801) can0 120#000000000000006A R
(1781869791.711050) can0 541#00001000000001B2 R
(1781869791.711295) can0 12D#000000000000008B R
(1781869791.711540) can0 450#0000000000002800 R
(1781869791.715364) can0 12D#00000000000000BE R
(1781869791.715624) can0 12E#000000000000C0A5 R
(1781869791.715869) can0 121#00A601CF04800086 R
(1781869791.731532) can0 129#000000010000008F R
(1781869791.731812) can0 120#000000000000008B R
(1781869791.732126) can0 541#00001000000001D8 R
(1781869791.732374) can0 12D#00000000000000D4 R
(1781869791.732620) can0 12D#0000000000000035 R
(1781869791.732862) can0 12E#000000000000C0CF R
(1781869791.741148) can0 12A#10050000000A0062 R
(1781869791.741446) can0 5A0#0000000004000085 R
(1781869791.741706) can0 121#00A601CF048000B3 R
(1781869791.741958) can0 129#00000001000000BA R
(1781869791.742203) can0 120#00000000000000BE R
(1781869791.742446) can0 541#0000100000000139 R
(1781869791.756277) can0 12D#000000000000005F R
(1781869791.756546) can0 12D#000000000000006A R
(1781869791.756792) can0 12E#000000000000C02E R
(1781869791.757036) can0 450#0000000000002800 R
(1781869791.757277) can0 121#00A601CF048000D9 R
(1781869791.757517) can0 129#00000001000000D0 R
(1781869791.774566) can0 120#00000000000000D4 R
(1781869791.774734) can0 541#0000100000000153 R
(1781869791.774878) can0 12D#000000000000008B R
(1781869791.775021) can0 12D#00000000000000BE R
(1781869791.775161) can0 12E#000000000000C044 R
(1781869791.775300) can0 121#00A601CF04800038 R
(1781869791.781251) can0 129#0000000100000031 R
(1781869791.781512) can0 540#000040100000FA00 R
(1781869791.781766) can0 5B0#10000000000000BF R
(1781869791.782018) can0 120#0000000000000035 R
(1781869791.782269) can0 541#0000100000000166 R
(1781869791.796173) can0 12D#00000000000000D4 R
(1781869791.796414) can0 12A#10050000000A0083 R
(1781869791.796604) can0 12D#0000000000000035 R
(1781869791.796788) can0 12E#000000000000C071 R
(1781869791.796968) can0 121#00A601CF04800052 R
(1781869791.797154) can0 129#000000010000005B R
(1781869791.814530) can0 120#000000000000005F R
(1781869791.814811) can0 541#0000100000000187 R
(1781869791.815066) can0 12D#000000000000005F R
(1781869791.815312) can0 450#0000000000002800 R
(1781869791.815561) can0 12D#000000000000006A R
(1781869791.815802) can0 12E#000000000000C090 R
(1781869791.831423) can0 121#00A601CF04800067 R
(1781869791.831686) can0 129#000000010000006E R
(1781869791.831934) can0 120#000000000000006A R
(1781869791.832175) can0 541#00001000000001B2 R
(1781869791.832420) can0 12D#000000000000008B R
(1781869791.832661) can0 12D#00000000000000BE R
(1781869791.838576) can0 12E#000000000000C0A5 R
(1781869791.838822) can0 12A#10050000000A00B6 R
(1781869791.839064) can0 5A0#00000000040000B0 R
(1781869791.839310) can0 121#00A601CF04800086 R
(1781869791.839551) can0 129#000000010000008F R
(1781869791.839792) can0 120#000000000000008B R
(1781869791.854619) can0 541#00001000000001D8 R
(1781869791.854869) can0 12D#00000000000000D4 R
(1781869791.855110) can0 12D#0000000000000035 R
(1781869791.855350) can0 12E#000000000000C0CF R
(1781869791.855591) can0 450#0000000000002800 R
(1781869791.871085) can0 121#00A601CF048000B3 R
(1781869791.871353) can0 129#00000001000000BA R
(1781869791.871596) can0 120#00000000000000BE R
(1781869791.871836) can0 541#0000100000000139 R
(1781869791.872075) can0 12D#000000000000005F R
(1781869791.872315) can0 12D#000000000000006A R
(1781869791.878441) can0 12E#000000000000C02E R
(1781869791.878694) can0 121#00A601CF048000D9 R
(1781869791.878934) can0 129#00000001000000D0 R
(1781869791.879173) can0 540#000040100000FA00 R
(1781869791.879411) can0 5B0#10000000000000D5 R
(1781869791.879651) can0 120#00000000000000D4 R
(1781869791.894745) can0 541#0000100000000153 R
(1781869791.894989) can0 12D#000000000000008B R
(1781869791.895227) can0 12A#10050000000A00DC R
(1781869791.895466) can0 12D#00000000000000BE R
(1781869791.895704) can0 12E#000000000000C044 R
(1781869791.895944) can0 121#00A601CF04800038 R
(1781869791.911294) can0 129#0000000100000031 R
(1781869791.911538) can0 120#0000000000000035 R
(1781869791.911777) can0 541#0000100000000166 R
(1781869791.912016) can0 12D#00000000000000D4 R
(1781869791.912256) can0 450#0000000000002800 R
(1781869791.912495) can0 12D#0000000000000035 R
(1781869791.921215) can0 12E#000000000000C071 R
(1781869791.921460) can0 121#00A601CF04800052 R
(1781869791.921699) can0 129#000000010000005B R
(1781869791.921941) can0 120#000000000000005F R
(1781869791.922179) can0 541#0000100000000187 R
(1781869791.922421) can0 12D#000000000000005F R
(1781869791.934935) can0 12D#000000000000006A R
(1781869791.935181) can0 12E#000000000000C090 R
(1781869791.935426) can0 12A#10050000000A003D R
(1781869791.935667) can0 5A0#00000000040000DA R
(1781869791.935907) can0 121#00A601CF04800067 R
(1781869791.952118) can0 129#000000010000006E R
(1781869791.952378) can0 120#000000000000006A R
(1781869791.952620) can0 541#00001000000001B2 R
(1781869791.952862) can0 12D#000000000000008B R
(1781869791.953103) can0 12D#00000000000000BE R
(1781869791.953345) can0 12E#000000000000C0A5 R
(1781869791.970922) can0 450#0000000000002800 R
(1781869791.971168) can0 121#00A601CF04800086 R
(1781869791.971409) can0 129#000000010000008F R
(1781869791.971647) can0 120#000000000000008B R
(1781869791.971885) can0 541#00001000000001D8 R
(1781869791.972123) can0 12D#00000000000000D4 R
(1781869791.976305) can0 12D#0000000000000035 R
(1781869791.976547) can0 12E#000000000000C0CF R
(1781869791.976787) can0 121#00A601CF048000B3 R
(1781869791.977027) can0 129#00000001000000BA R
(1781869791.977268) can0 540#000040100000FA00 R
(1781869791.977506) can0 5B0#1000000000000034 R
(1781869791.994559) can0 120#00000000000000BE R
(1781869791.994846) can0 541#0000100000000139 R
(1781869791.995088) can0 12D#000000000000005F R
(1781869791.995328) can0 12A#10050000000A0057 R
(1781869791.995568) can0 12D#000000000000006A R
(1781869791.995809) can0 12E#000000000000C02E R
(1781869792.002372) can0 121#00A601CF048000D9 R
(1781869792.002617) can0 129#00000001000000D0 R
(1781869792.002858) can0 120#00000000000000D4 R
(1781869792.003098) can0 541#0000100000000153 R
(1781869792.003339) can0 12D#000000000000008B R
(1781869792.018403) can0 450#0000000000002800 R
(1781869792.018588) can0 12D#00000000000000BE R
(1781869792.018776) can0 12E#000000000000C044 R
(1781869792.018944) can0 121#00A601CF04800038 R
(1781869792.019099) can0 129#0000000100000031 R
(1781869792.019242) can0 120#0000000000000035 R
(1781869792.034717) can0 541#0000100000000166 R
(1781869792.034981) can0 12D#00000000000000D4 R
(1781869792.035228) can0 12D#0000000000000035 R
(1781869792.035472) can0 12E#000000000000C071 R
(1781869792.035717) can0 12A#10050000000A0062 R
(1781869792.035958) can0 5A0#000000000400003B R
(1781869792.051177) can0 121#00A601CF04800052 R
(1781869792.051434) can0 129#000000010000005B R
(1781869792.051675) can0 120#000000000000005F R
(1781869792.051919) can0 541#0000100000000187 R
(1781869792.052159) can0 12D#000000000000005F R
(1781869792.052399) can0 12D#000000000000006A R
(1781869792.061146) can0 12E#000000000000C090 R
(1781869792.061393) can0 450#0000000000002800 R
(1781869792.061633) can0 121#00A601CF04800067 R
(1781869792.061872) can0 129#000000010000006E R
(1781869792.062114) can0 120#000000000000006A R
(1781869792.062360) can0 541#00001000000001B2 R
(1781869792.075163) can0 12D#000000000000008B R
(1781869792.075446) can0 12D#00000000000000BE R
(1781869792.075696) can0 12E#000000000000C0A5 R
(1781869792.075939) can0 121#00A601CF04800086 R
(1781869792.076180) can0 129#000000010000008F R
(1781869792.076420) can0 540#000040100000FA00 R
(1781869792.091065) can0 5B0#100000000000005E R
(1781869792.091329) can0 120#000000000000008B R
(1781869792.091575) can0 541#00001000000001D8 R
(1781869792.091818) can0 12D#00000000000000D4 R
(1781869792.092060) can0 12A#10050000000A0083 R
(1781869792.101031) can0 12D#0000000000000035 R
(1781869792.101296) can0 12E#000000000000C0CF R
(1781869792.101537) can0 121#00A601CF048000B3 R
(1781869792.101778) can0 129#00000001000000BA R
(1781869792.102019) can0 120#00000000000000BE R
(1781869792.102258) can0 541#0000100000000139 R
(1781869792.116200) can0 12D#000000000000005F R
(1781869792.116516) can0 450#0000000000002800 R
(1781869792.116776) can0 12D#000000000000006A R
(1781869792.117032) can0 12E#000000000000C02E R
(1781869792.117279) can0 121#00A601CF048000D9 R
(1781869792.117525) can0 129#00000001000000D0 R
(1781869792.131845) can0 120#00000000000000D4 R
(1781869792.132101) can0 541#0000100000000153 R
(1781869792.132347) can0 12D#000000000000008B R
(1781869792.132590) can0 12D#00000000000000BE R
(1781869792.132834) can0 12E#000000000000C044 R
(1781869792.133074) can0 12A#10050000000A00B6 R
(1781869792.150963) can0 5A0#0000000004000051 R
(1781869792.151208) can0 121#00A601CF04800038 R
(1781869792.151456) can0 129#0000000100000031 R
(1781869792.151698) can0 120#0000000000000035 R
(1781869792.151940) can0 541#0000100000000166 R
(1781869792.152180) can0 12D#00000000000000D4 R
(1781869792.156359) can0 12D#0000000000000035 R
(1781869792.156609) can0 12E#000000000000C071 R
(1781869792.156851) can0 450#0000000000002800 R
(1781869792.157094) can0 121#00A601CF04800052 R
(1781869792.157335) can0 129#000000010000005B R
(1781869792.174673) can0 120#000000000000005F R
(1781869792.174931) can0 541#0000100000000187 R
(1781869792.175172) can0 12D#000000000000005F R
(1781869792.175420) can0 12D#000000000000006A R
(1781869792.175660) can0 12E#000000000000C090 R
(1781869792.175900) can0 121#00A601CF04800067 R
(1781869792.181337) can0 129#000000010000006E R
(1781869792.181631) can0 540#000040100000FA00 R
(1781869792.181889) can0 5B0#100000000000006B R
(1781869792.182137) can0 120#000000000000006A R
(1781869792.182379) can0 541#00001000000001B2 R
(1781869792.182619) can0 12D#000000000000008B R
(1781869792.198496) can0 12A#10050000000A00DC R
(1781869792.198747) can0 12D#00000000000000BE R
(1781869792.198988) can0 12E#000000000000C0A5 R
(1781869792.199229) can0 121#00A601CF04800086 R
(1781869792.199468) can0 129#000000010000008F R
(1781869792.199708) can0 120#000000000000008B R
(1781869792.214806) can0 541#00001000000001D8 R
(1781869792.215062) can0 12D#00000000000000D4 R
(1781869792.215307) can0 450#0000000000002800 R
(1781869792.215551) can0 12D#0000000000000035 R
(1781869792.215794) can0 12E#000000000000C0CF R
(1781869792.216036) can0 121#00A601CF048000B3 R
(1781869792.231369) can0 129#00000001000000BA R
(1781869792.231634) can0 120#00000000000000BE R
(1781869792.231880) can0 541#0000100000000139 R
(1781869792.232122) can0 12D#000000000000005F R
(1781869792.232365) can0 12D#000000000000006A R
(1781869792.232610) can0 12E#000000000000C02E R
(1781869792.238616) can0 12A#10050000000A003D R
(1781869792.238862) can0 5A0#0000000004000064 R
(1781869792.239104) can0 121#00A601CF048000D9 R
(1781869792.239345) can0 129#00000001000000D0 R
(1781869792.239585) can0 120#00000000000000D4 R
(1781869792.254716) can0 541#0000100000000153 R
(1781869792.254972) can0 12D#000000000000008B R
(1781869792.255214) can0 12D#00000000000000BE R
(1781869792.255454) can0 12E#000000000000C044 R
(1781869792.255693) can0 450#0000000000002800 R
(1781869792.255932) can0 121#00A601CF04800038 R
(1781869792.274507) can0 129#0000000100000031 R
(1781869792.274760) can0 120#0000000000000035 R
(1781869792.275009) can0 541#0000100000000166 R
(1781869792.275251) can0 12D#00000000000000D4 R
(1781869792.275491) can0 12D#0000000000000035 R
(1781869792.275731) can0 12E#000000000000C071 R
(1781869792.281103) can0 121#00A601CF04800052 R
(1781869792.281347) can0 129#000000010000005B R
(1781869792.281588) can0 540#000040100000FA00 R
(1781869792.281831) can0 5B0#100000000000008A R
(1781869792.282072) can0 120#000000000000005F R
(1781869792.282311) can0 541#0000100000000187 R
(1781869792.296528) can0 12D#000000000000005F R
(1781869792.296770) can0 12A#10050000000A0057 R
(1781869792.297017) can0 12D#000000000000006A R
(1781869792.297256) can0 12E#000000000000C090 R
(1781869792.297497) can0 121#00A601CF04800067 R
(1781869792.297737) can0 129#000000010000006E R
(1781869792.311304) can0 120#000000000000006A R
(1781869792.311549) can0 541#00001000000001B2 R
(1781869792.311787) can0 12D#000000000000008B R
(1781869792.312027) can0 450#0000000000002800 R
(1781869792.312269) can0 12D#00000000000000BE R
(1781869792.330924) can0 12E#000000000000C0A5 R
(1781869792.331179) can0 121#00A601CF04800086 R
(1781869792.331420) can0 129#000000010000008F R
(1781869792.331661) can0 120#000000000000008B R
(1781869792.331900) can0 541#00001000000001D8 R
(1781869792.332140) can0 12D#00000000000000D4 R
(1781869792.336257) can0 12D#0000000000000035 R
(1781869792.336505) can0 12E#000000000000C0CF R
(1781869792.336747) can0 12A#10050000000A0062 R
(1781869792.336987) can0 5A0#0000000004000085 R
(1781869792.337227) can0 121#00A601CF048000B3 R
(1781869792.337471) can0 129#00000001000000BA R
(1781869792.354528) can0 120#00000000000000BE R
(1781869792.354776) can0 541#0000100000000139 R
(1781869792.355018) can0 12D#000000000000005F R
(1781869792.355261) can0 12D#000000000000006A R
(1781869792.355503) can0 12E#000000000000C02E R
(1781869792.355745) can0 450#0000000000002800 R
(1781869792.371164) can0 121#00A601CF048000D9 R
(1781869792.371409) can0 129#00000001000000D0 R
(1781869792.371651) can0 120#00000000000000D4 R
(1781869792.371891) can0 541#0000100000000153 R
(1781869792.372132) can0 12D#000000000000008B R
(1781869792.372372) can0 12D#00000000000000BE R
(1781869792.376475) can0 12E#000000000000C044 R
(1781869792.376719) can0 121#00A601CF04800038 R
(1781869792.376957) can0 129#0000000100000031 R
(1781869792.377197) can0 540#000040100000FA00 R
(1781869792.377437) can0 5B0#10000000000000BF R
(1781869792.377678) can0 120#0000000000000035 R
(1781869792.394711) can0 541#0000100000000166 R
(1781869792.394953) can0 12D#00000000000000D4 R
(1781869792.395194) can0 12A#10050000000A0083 R
(1781869792.395459) can0 12D#0000000000000035 R
(1781869792.395699) can0 12E#000000000000C071 R
(1781869792.410848) can0 121#00A601CF04800052 R
(1781869792.411102) can0 129#000000010000005B R
(1781869792.411343) can0 120#000000000000005F R
(1781869792.411584) can0 541#0000100000000187 R
(1781869792.411831) can0 12D#000000000000005F R
(1781869792.412075) can0 450#0000000000002800 R
(1781869792.421048) can0 12D#000000000000006A R
(1781869792.421296) can0 12E#000000000000C090 R
(1781869792.421538) can0 121#00A601CF04800067 R
(1781869792.421778) can0 129#000000010000006E R
(1781869792.422019) can0 120#000000000000006A R
(1781869792.422260) can0 541#00001000000001B2 R
(1781869792.434829) can0 12D#000000000000008B R
(1781869792.435074) can0 12D#00000000000000BE R
(1781869792.435313) can0 12E#000000000000C0A5 R
(1781869792.435556) can0 12A#10050000000A00B6 R
(1781869792.435797) can0 5A0#00000000040000B0 R
(1781869792.436039) can0 121#00A601CF04800086 R
(1781869792.452240) can0 129#000000010000008F R
(1781869792.452484) can0 120#000000000000008B R
(1781869792.452725) can0 541#00001000000001D8 R
(1781869792.452967) can0 12D#00000000000000D4 R
(1781869792.453208) can0 12D#0000000000000035 R
(1781869792.453449) can0 12E#000000000000C0CF R
(1781869792.461219) can0 450#0000000000002800 R
(1781869792.461463) can0 121#00A601CF048000B3 R
(1781869792.461704) can0 129#00000001000000BA R
(1781869792.461945) can0 120#00000000000000BE R
(1781869792.462184) can0 541#0000100000000139 R
(1781869792.475199) can0 12D#000000000000005F R
(1781869792.475500) can0 12D#000000000000006A R
(1781869792.475757) can0 12E#000000000000C02E R
(1781869792.476002) can0 121#00A601CF048000D9 R
(1781869792.476243) can0 129#00000001000000D0 R
(1781869792.476484) can0 540#000040100000FA00 R
(1781869792.491084) can0 5B0#10000000000000D5 R
(1781869792.491346) can0 120#00000000000000D4 R
(1781869792.491591) can0 541#0000100000000153 R
(1781869792.491833) can0 12D#000000000000008B R
(1781869792.492075) can0 12A#10050000000A00DC R
(1781869792.492316) can0 12D#00000000000000BE R
(1781869792.502255) can0 12E#000000000000C044 R
(1781869792.502500) can0 121#00A601CF04800038 R
(1781869792.502742) can0 129#0000000100000031 R
(1781869792.502983) can0 120#0000000000000035 R
(1781869792.503222) can0 541#0000100000000166 R
(1781869792.503462) can0 12D#00000000000000D4 R
(1781869792.518534) can0 450#0000000000002800 R
(1781869792.518781) can0 12D#0000000000000035 R
(1781869792.519021) can0 12E#000000000000C071 R
(1781869792.519261) can0 121#00A601CF04800052 R
(1781869792.519502) can0 129#000000010000005B R
(1781869792.519742) can0 120#000000000000005F R
(1781869792.531815) can0 541#0000100000000187 R
(1781869792.532057) can0 12D#000000000000005F R
(1781869792.532296) can0 12D#000000000000006A R
(1781869792.532535) can0 12E#000000000000C090 R
(1781869792.532774) can0 12A#10050000000A003D R
(1781869792.533014) can0 5A0#00000000040000DA R
(1781869792.551056) can0 121#00A601CF04800067 R
(1781869792.551304) can0 129#000000010000006E R
(1781869792.551546) can0 120#000000000000006A R
(1781869792.551785) can0 541#00001000000001B2 R
(1781869792.552028) can0 12D#000000000000008B R
(1781869792.558427) can0 12D#00000000000000BE R
(1781869792.558682) can0 12E#000000000000C0A5 R
(1781869792.558922) can0 450#0000000000002800 R
(1781869792.559162) can0 121#00A601CF04800086 R
(1781869792.559402) can0 129#000000010000008F R
(1781869792.559642) can0 120#000000000000008B R
(1781869792.574994) can0 541#00001000000001D8 R
(1781869792.575241) can0 12D#00000000000000D4 R
(1781869792.575483) can0 12D#0000000000000035 R
(1781869792.575723) can0 12E#000000000000C0CF R
(1781869792.575964) can0 121#00A601CF048000B3 R
(1781869792.576207) can0 129#00000001000000BA R
(1781869792.590918) can0 540#000040100000FA00 R
(1781869792.591162) can0 5B0#1000000000000034 R
(1781869792.591402) can0 120#00000000000000BE R
(1781869792.591643) can0 541#0000100000000139 R
(1781869792.591884) can0 12D#000000000000005F R
(1781869792.592127) can0 12A#10050000000A0057 R
(1781869792.601130) can0 12D#000000000000006A R
(1781869792.601373) can0 12E#000000000000C02E R
(1781869792.601613) can0 121#00A601CF048000D9 R
(1781869792.601853) can0 129#00000001000000D0 R
(1781869792.602094) can0 120#00000000000000D4 R
(1781869792.602335) can0 541#0000100000000153 R
(1781869792.614895) can0 12D#000000000000008B R
(1781869792.615141) can0 450#0000000000002800 R
(1781869792.615379) can0 12D#00000000000000BE R
(1781869792.615625) can0 12E#000000000000C044 R
(1781869792.615866) can0 121#00A601CF04800038 R
(1781869792.631381) can0 129#0000000100000031 R
(1781869792.631637) can0 120#0000000000000035 R
(1781869792.631879) can0 541#0000100000000269 R
(1781869792.632120) can0 12D#00000000000000D4 R
(1781869792.632360) can0 12D#0000000000000035 R
(1781869792.632601) can0 12E#000000000000C071 R
(1781869792.641009) can0 12A#10050000000A0062 R
(1781869792.641264) can0 5A0#000000000400003B R
(1781869792.641504) can0 121#00A601CF04800052 R
(1781869792.641751) can0 129#000000010000005B R
(1781869792.641992) can0 120#000000000000005F R
(1781869792.642231) can0 541#0000100000000288 R
(1781869792.656242) can0 12D#000000000000005F R
(1781869792.656485) can0 12D#000000000000006A R
(1781869792.656728) can0 12E#000000000000C090 R
(1781869792.656970) can0 450#0000000000002800 R
(1781869792.657208) can0 121#00A601CF04800067 R
(1781869792.657448) can0 129#000000010000006E R
(1781869792.674832) can0 120#000000000000006A R
(1781869792.675080) can0 541#00001000000002BD R
(1781869792.675321) can0 12D#000000000000008B R
(1781869792.675560) can0 12D#00000000000000BE R
(1781869792.675802) can0 12E#000000000000C0A5 R
(1781869792.676045) can0 121#00A601CF04800086 R
(1781869792.681166) can0 129#000000010000008F R
(1781869792.681407) can0 540#000040100000FA00 R
(1781869792.681648) can0 5B0#100000000000005E R
(1781869792.681887) can0 120#000000000000008B R
(1781869792.682125) can0 541#00001000000002D7 R
(1781869792.682365) can0 12D#00000000000000D4 R
(1781869792.696401) can0 12A#10050000000A0083 R
(1781869792.696644) can0 12D#0000000000000035 R
(1781869792.696883) can0 12E#000000000000C0CF R
(1781869792.697123) can0 121#00A601CF048000B3 R
(1781869792.697363) can0 129#00000001000000BA R
(1781869792.714482) can0 120#00000000000000BE R
(1781869792.714740) can0 541#0000100000000236 R
(1781869792.714979) can0 12D#000000000000005F R
(1781869792.715219) can0 450#0000000000002800 R
(1781869792.715457) can0 12D#000000000000006A R
(1781869792.715696) can0 12E#000000000000C02E R
(1781869792.731227) can0 121#00A601CF048000D9 R
(1781869792.731472) can0 129#00000001000000D0 R
(1781869792.731714) can0 120#00000000000000D4 R
(1781869792.731953) can0 541#000010000000025C R
(1781869792.732252) can0 12D#000000000000008B R
(1781869792.732493) can0 12D#00000000000000BE R
(1781869792.738525) can0 12E#000000000000C044 R
(1781869792.738770) can0 12A#10050000000A00B6 R
(1781869792.739011) can0 5A0#0000000004000051 R
(1781869792.739251) can0 121#00A601CF04800038 R
(1781869792.739492) can0 129#0000000100000031 R
(1781869792.739734) can0 120#0000000000000035 R
(1781869792.754842) can0 541#0000100000000269 R
(1781869792.755091) can0 12D#00000000000000D4 R
(1781869792.755332) can0 12D#0000000000000035 R
(1781869792.755573) can0 12E#000000000000C071 R
(1781869792.755814) can0 450#0000000000002800 R
(1781869792.756056) can0 121#00A601CF04800052 R
(1781869792.771071) can0 129#000000010000005B R
(1781869792.771190) can0 120#000000000000005F R
(1781869792.771291) can0 541#0000100000000288 R
(1781869792.771390) can0 12D#000000000000005F R
(1781869792.771488) can0 12D#000000000000006A R
(1781869792.778531) can0 12E#000000000000C090 R
(1781869792.778670) can0 121#00A601CF04800067 R
(1781869792.778768) can0 129#000000010000006E R
(1781869792.778857) can0 540#000040100000FA00 R
(1781869792.778946) can0 5B0#100000000000006B R
(1781869792.779034) can0 120#000000000000006A R
(1781869792.794950) can0 541#00001000000002BD R
(1781869792.795073) can0 12D#000000000000008B R
(1781869792.795174) can0 12A#10050000000A00DC R
(1781869792.795271) can0 12D#00000000000000BE R
(1781869792.795369) can0 12E#000000000000C0A5 R
(1781869792.795465) can0 121#00A601CF04800086 R
(1781869792.811115) can0 129#000000010000008F R
(1781869792.811265) can0 120#000000000000008B R
(1781869792.811404) can0 541#00001000000002D7 R
(1781869792.811541) can0 12D#00000000000000D4 R
(1781869792.811680) can0 450#0000000000002800 R
(1781869792.811817) can0 12D#0000000000000035 R
(1781869792.831036) can0 12E#000000000000C0CF R
(1781869792.831289) can0 121#00A601CF048000B3 R
(1781869792.831529) can0 129#00000001000000BA R
(1781869792.831771) can0 120#00000000000000BE R
(1781869792.832010) can0 541#0000100000000236 R
(1781869792.832251) can0 12D#000000000000005F R
(1781869792.834914) can0 12D#000000000000006A R
(1781869792.835156) can0 12E#000000000000C02E R
(1781869792.835398) can0 12A#10050000000A003D R
(1781869792.835638) can0 5A0#0000000004000064 R
(1781869792.835878) can0 121#00A601CF048000D9 R
(1781869792.836117) can0 129#00000001000000D0 R
(1781869792.852329) can0 120#00000000000000D4 R
(1781869792.852583) can0 541#000010000000025C R
(1781869792.852826) can0 12D#000000000000008B R
(1781869792.853069) can0 12D#00000000000000BE R
(1781869792.853310) can0 12E#000000000000C044 R
(1781869792.870776) can0 450#0000000000002800 R
(1781869792.871037) can0 121#00A601CF04800038 R
(1781869792.871281) can0 129#0000000100000031 R
(1781869792.871521) can0 120#0000000000000035 R
(1781869792.871760) can0 541#0000100000000269 R
(1781869792.871998) can0 12D#00000000000000D4 R
(1781869792.876361) can0 12D#0000000000000035 R
(1781869792.876653) can0 12E#000000000000C071 R
(1781869792.876908) can0 121#00A601CF04800052 R
(1781869792.877154) can0 129#000000010000005B R
(1781869792.877401) can0 540#000040100000FA00 R
(1781869792.877643) can0 5B0#100000000000008A R
(1781869792.894581) can0 120#000000000000005F R
(1781869792.894833) can0 541#0000100000000288 R
(1781869792.895080) can0 12D#000000000000005F R
(1781869792.895325) can0 12A#10050000000A0057 R
(1781869792.895569) can0 12D#000000000000006A R
(1781869792.895813) can0 12E#000000000000C090 R
(1781869792.911035) can0 121#00A601CF04800067 R
(1781869792.911312) can0 129#000000010000006E R
(1781869792.911553) can0 120#000000000000006A R
(1781869792.911791) can0 541#00001000000002BD R
(1781869792.912032) can0 12D#000000000000008B R
(1781869792.912270) can0 450#0000000000002800 R
(1781869792.918592) can0 12D#00000000000000BE R
(1781869792.918835) can0 12E#000000000000C0A5 R
(1781869792.919077) can0 121#00A601CF04800086 R
(1781869792.919318) can0 129#000000010000008F R
(1781869792.919557) can0 120#000000000000008B R
(1781869792.934491) can0 541#00001000000002D7 R
(1781869792.934828) can0 12D#00000000000000D4 R
(1781869792.935090) can0 12D#0000000000000035 R
(1781869792.935337) can0 12E#000000000000C0CF R
(1781869792.935581) can0 12A#10050000000A0062 R
(1781869792.935824) can0 5A0#0000000004000085 R
(1781869792.951042) can0 121#00A601CF048000B3 R
(1781869792.951299) can0 129#00000001000000BA R
(1781869792.951540) can0 120#00000000000000BE R
(1781869792.951781) can0 541#0000100000000236 R
(1781869792.952020) can0 12D#000000000000005F R
(1781869792.952261) can0 12D#000000000000006A R
(1781869792.961010) can0 12E#000000000000C02E R
(1781869792.961257) can0 450#0000000000002800 R
(1781869792.961498) can0 121#00A601CF048000D9 R
(1781869792.961737) can0 129#00000001000000D0 R
(1781869792.961977) can0 120#00000000000000D4 R
(1781869792.962216) can0 541#000010000000025C R
(1781869792.975308) can0 12D#000000000000008B R
(1781869792.975425) can0 12D#00000000000000BE R
(1781869792.975532) can0 12E#000000000000C044 R
(1781869792.975639) can0 121#00A601CF04800038 R
(1781869792.975746) can0 129#0000000100000031 R
(1781869792.975853) can0 540#000040100000FA00 R
(1781869792.990983) can0 5B0#10000000000000BF R
(1781869792.991241) can0 120#0000000000000035 R
(1781869792.991487) can0 541#0000100000000269 R
(1781869792.991728) can0 12D#00000000000000D4 R
(1781869792.991969) can0 12A#10050000000A0083 R
(1781869792.992209) can0 12D#0000000000000035 R
(1781869793.001289) can0 12E#000000000000C071 R
(1781869793.001556) can0 121#00A601CF04800052 R
(1781869793.001806) can0 129#000000010000005B R
(1781869793.002053) can0 120#000000000000005F R
(1781869793.002299) can0 541#0000100000000288 R
(1781869793.016318) can0 12D#000000000000005F R
(1781869793.016598) can0 450#0000000000002800 R
(1781869793.016904) can0 12D#000000000000006A R
(1781869793.017171) can0 12E#000000000000C090 R
(1781869793.017424) can0 121#00A601CF04800067 R
(1781869793.017680) can0 129#000000010000006E R
(1781869793.031667) can0 120#000000000000006A R
(1781869793.031929) can0 541#00001000000002BD R
(1781869793.032176) can0 12D#000000000000008B R
(1781869793.032420) can0 12D#00000000000000BE R
(1781869793.032665) can0 12E#000000000000C0A5 R
(1781869793.032907) can0 12A#10050000000A00B6 R
(1781869793.050892) can0 5A0#00000000040000B0 R
(1781869793.051154) can0 121#00A601CF04800086 R
(1781869793.051400) can0 129#000000010000008F R
(1781869793.051640) can0 120#000000000000008B R
(1781869793.051879) can0 541#00001000000002D7 R
(1781869793.052119) can0 12D#00000000000000D4 R
(1781869793.058548) can0 12D#0000000000000035 R
(1781869793.058793) can0 12E#000000000000C0CF R
(1781869793.059035) can0 450#0000000000002800 R
(1781869793.059276) can0 121#00A601CF048000B3 R
(1781869793.059520) can0 129#00000001000000BA R
(1781869793.059762) can0 120#00000000000000BE R
(1781869793.074929) can0 541#0000100000000236 R
(1781869793.075182) can0 12D#000000000000005F R
(1781869793.075424) can0 12D#000000000000006A R
(1781869793.075664) can0 12E#000000000000C02E R
(1781869793.075904) can0 121#00A601CF048000D9 R
(1781869793.081157) can0 129#00000001000000D0 R
(1781869793.081412) can0 540#000040100000FA00 R
(1781869793.081653) can0 5B0#10000000000000D5 R
(1781869793.081893) can0 120#00000000000000D4 R
(1781869793.082133) can0 541#000010000000025C R
(1781869793.082373) can0 12D#000000000000008B R
(1781869793.098445) can0 12A#10050000000A00DC R
(1781869793.098705) can0 12D#00000000000000BE R
(1781869793.098945) can0 12E#000000000000C044 R
(1781869793.099187) can0 121#00A601CF04800038 R
(1781869793.099425) can0 129#0000000100000031 R
(1781869793.099666) can0 120#0000000000000035 R
(1781869793.114804) can0 541#0000100000000269 R
(1781869793.115056) can0 12D#00000000000000D4 R
(1781869793.115298) can0 450#0000000000002800 R
(1781869793.115542) can0 12D#0000000000000035 R
(1781869793.115784) can0 12E#000000000000C071 R
(1781869793.116032) can0 121#00A601CF04800052 R
(1781869793.131378) can0 129#000000010000005B R
(1781869793.131534) can0 120#000000000000005F R
(1781869793.131676) can0 541#0000100000000288 R
(1781869793.131817) can0 12D#000000000000005F R
(1781869793.131956) can0 12D#000000000000006A R
(1781869793.132096) can0 12E#000000000000C090 R
(1781869793.138435) can0 12A#10050000000A003D R
(1781869793.138547) can0 5A0#00000000040000DA R
(1781869793.138653) can0 121#00A601CF04800067 R
(1781869793.138762) can0 129#000000010000006E R
(1781869793.138858) can0 120#000000000000006A R
(1781869793.138954) can0 541#00001000000002BD R
(1781869793.155147) can0 12D#000000000000008B R
(1781869793.155451) can0 12D#00000000000000BE R
(1781869793.155695) can0 12E#000000000000C0A5 R
(1781869793.155941) can0 450#0000000000002800 R
(1781869793.156180) can0 121#00A601CF04800086 R
(1781869793.174691) can0 129#000000010000008F R
(1781869793.174944) can0 120#000000000000008B R
(1781869793.175186) can0 541#00001000000002D7 R
(1781869793.175425) can0 12D#00000000000000D4 R
(1781869793.175663) can0 12D#0000000000000035 R
(1781869793.175902) can0 12E#000000000000C0CF R
(1781869793.180974) can0 121#00A601CF048000B3 R
(1781869793.181217) can0 129#00000001000000BA R
(1781869793.181469) can0 540#000040100000FA00 R
(1781869793.181713) can0 5B0#1000000000000034 R
(1781869793.181952) can0 120#00000000000000BE R
(1781869793.182191) can0 541#0000100000000236 R
(1781869793.196306) can0 12D#000000000000005F R
(1781869793.196566) can0 12A#10050000000A0057 R
(1781869793.196806) can0 12D#000000000000006A R
(1781869793.197042) can0 12E#000000000000C02E R
(1781869793.197282) can0 121#00A601CF048000D9 R
(1781869793.197521) can0 129#00000001000000D0 R
(1781869793.214631) can0 120#00000000000000D4 R
(1781869793.214878) can0 541#000010000000025C R
(1781869793.215142) can0 12D#000000000000008B R
(1781869793.215380) can0 450#0000000000002800 R
(1781869793.215618) can0 12D#00000000000000BE R
(1781869793.215858) can0 12E#000000000000C044 R
(1781869793.231089) can0 121#00A601CF04800038 R
(1781869793.231342) can0 129#0000000100000031 R
(1781869793.231583) can0 120#0000000000000035 R
(1781869793.231823) can0 541#0000100000000269 R
(1781869793.232062) can0 12D#00000000000000D4 R
(1781869793.236311) can0 12D#0000000000000035 R
(1781869793.236596) can0 12E#000000000000C071 R
(1781869793.236849) can0 12A#10050000000A0062 R
(1781869793.237096) can0 5A0#000000000400003B R
(1781869793.237341) can0 121#00A601CF04800052 R
(1781869793.237584) can0 129#000000010000005B R
(1781869793.254536) can0 120#000000000000005F R
(1781869793.254792) can0 541#0000100000000288 R
(1781869793.255035) can0 12D#000000000000005F R
(1781869793.255275) can0 12D#000000000000006A R
(1781869793.255513) can0 12E#000000000000C090 R
(1781869793.255751) can0 450#0000000000002800 R
(1781869793.271101) can0 121#00A601CF04800067 R
(1781869793.271359) can0 129#000000010000006E R
(1781869793.271601) can0 120#000000000000006A R
(1781869793.271842) can0 541#00001000000002BD R
(1781869793.272132) can0 12D#000000000000008B R
(1781869793.272400) can0 12D#00000000000000BE R
(1781869793.278550) can0 12E#000000000000C0A5 R
(1781869793.278803) can0 121#00A601CF04800086 R
(1781869793.279049) can0 129#000000010000008F R
(1781869793.279292) can0 540#000040100000FA00 R
(1781869793.279534) can0 5B0#100000000000005E R
(1781869793.279777) can0 120#000000000000008B R
(1781869793.294675) can0 541#00001000000002D7 R
(1781869793.294932) can0 12D#00000000000000D4 R
(1781869793.295175) can0 12A#10050000000A0083 R
(1781869793.295414) can0 12D#0000000000000035 R
(1781869793.295655) can0 12E#000000000000C0CF R
(1781869793.295895) can0 121#00A601CF048000B3 R
(1781869793.310995) can0 129#00000001000000BA R
(1781869793.311241) can0 120#00000000000000BE R
(1781869793.311485) can0 541#0000100000000236 R
(1781869793.311725) can0 12D#000000000000005F R
(1781869793.311966) can0 450#0000000000002800 R
(1781869793.320930) can0 12D#000000000000006A R
(1781869793.321185) can0 12E#000000000000C02E R
(1781869793.321427) can0 121#00A601CF048000D9 R
(1781869793.321667) can0 129#00000001000000D0 R
(1781869793.321908) can0 120#00000000000000D4 R
(1781869793.322148) can0 541#000010000000025C R
(1781869793.334836) can0 12D#000000000000008B R
(1781869793.335081) can0 12D#00000000000000BE R
(1781869793.335323) can0 12E#000000000000C044 R
(1781869793.335567) can0 12A#10050000000A00B6 R
(1781869793.335806) can0 5A0#0000000004000051 R
(1781869793.336045) can0 121#00A601CF04800038 R
(1781869793.352203) can0 129#0000000100000031 R
(1781869793.352449) can0 120#0000000000000035 R
(1781869793.352687) can0 541#0000100000000269 R
(1781869793.352928) can0 12D#00000000000000D4 R
(1781869793.353167) can0 12D#0000000000000035 R
(1781869793.353406) can0 12E#000000000000C071 R
(1781869793.370909) can0 450#0000000000002800 R
(1781869793.371152) can0 121#00A601CF04800052 R
(1781869793.371393) can0 129#000000010000005B R
(1781869793.371636) can0 120#000000000000005F R
(1781869793.371875) can0 541#0000100000000288 R
(1781869793.372115) can0 12D#000000000000005F R
(1781869793.375500) can0 12D#000000000000006A R
(1781869793.375760) can0 12E#000000000000C090 R
(1781869793.376011) can0 121#00A601CF04800067 R
(1781869793.376258) can0 129#000000010000006E R
(1781869793.376513) can0 540#000040100000FA00 R
(1781869793.390974) can0 5B0#100000000000006B R
(1781869793.391228) can0 120#000000000000006A R
(1781869793.391468) can0 541#00001000000002BD R
(1781869793.391708) can0 12D#000000000000008B R
(1781869793.391953) can0 12A#10050000000A00DC R
(1781869793.392194) can0 12D#00000000000000BE R
(1781869793.402213) can0 12E#000000000000C0A5 R
(1781869793.402465) can0 121#00A601CF04800086 R
(1781869793.402707) can0 129#000000010000008F R
(1781869793.402945) can0 120#000000000000008B R
(1781869793.403184) can0 541#00001000000002D7 R
(1781869793.403424) can0 12D#00000000000000D4 R
(1781869793.418526) can0 450#0000000000002800 R
(1781869793.418797) can0 12D#0000000000000035 R
(1781869793.419049) can0 12E#000000000000C0CF R
(1781869793.419297) can0 121#00A601CF048000B3 R
(1781869793.419545) can0 129#00000001000000BA R
(1781869793.419793) can0 120#00000000000000BE R
(1781869793.434659) can0 541#0000100000000236 R
(1781869793.434909) can0 12D#000000000000005F R
(1781869793.435154) can0 12D#000000000000006A R
(1781869793.435395) can0 12E#000000000000C02E R
(1781869793.435635) can0 12A#10050000000A003D R
(1781869793.435875) can0 5A0#0000000004000064 R
(1781869793.450956) can0 121#00A601CF048000D9 R
(1781869793.451209) can0 129#00000001000000D0 R
(1781869793.451457) can0 120#00000000000000D4 R
(1781869793.451706) can0 541#000010000000025C R
(1781869793.451951) can0 12D#000000000000008B R
(1781869793.452196) can0 12D#00000000000000BE R
(1781869793.458659) can0 12E#000000000000C044 R
(1781869793.458920) can0 450#0000000000002800 R
(1781869793.459167) can0 121#00A601CF04800038 R
(1781869793.459411) can0 129#0000000100000031 R
(1781869793.459656) can0 120#0000000000000035 R
(1781869793.475028) can0 541#0000100000000269 R
(1781869793.475292) can0 12D#00000000000000D4 R
(1781869793.475536) can0 12D#0000000000000035 R
(1781869793.475778) can0 12E#000000000000C071 R
(1781869793.476022) can0 121#00A601CF04800052 R
(1781869793.476273) can0 129#000000010000005B R
(1781869793.490832) can0 540#000040100000FA00 R
(1781869793.491082) can0 5B0#100000000000008A R
(1781869793.491322) can0 120#000000000000005F R
(1781869793.491561) can0 541#0000100000000288 R
(1781869793.491799) can0 12D#000000000000005F R
(1781869793.492037) can0 12A#10050000000A0057 R
(1781869793.501036) can0 12D#000000000000006A R
(1781869793.501283) can0 12E#000000000000C090 R
(1781869793.501528) can0 121#00A601CF04800067 R
(1781869793.501771) can0 129#000000010000006E R
(1781869793.502013) can0 120#000000000000006A R
(1781869793.502254) can0 541#00001000000002BD R
(1781869793.516355) can0 12D#000000000000008B R
(1781869793.516605) can0 450#0000000000002800 R
(1781869793.516847) can0 12D#00000000000000BE R
(1781869793.517094) can0 12E#000000000000C0A5 R
(1781869793.517335) can0 121#00A601CF04800086 R
(1781869793.517577) can0 129#000000010000008F R
(1781869793.531506) can0 120#000000000000008B R
(1781869793.531753) can0 541#00001000000002D7 R
(1781869793.531995) can0 12D#00000000000000D4 R
(1781869793.532235) can0 12D#0000000000000035 R
(1781869793.532477) can0 12E#000000000000C0CF R
(1781869793.540923) can0 12A#10050000000A0062 R
(1781869793.541203) can0 5A0#0000000004000085 R
(1781869793.541453) can0 121#00A601CF048000B3 R
(1781869793.541697) can0 129#00000001000000BA R
(1781869793.541941) can0 120#00000000000000BE R
(1781869793.542198) can0 541#0000100000000236 R
(1781869793.556453) can0 12D#000000000000005F R
(1781869793.556707) can0 12D#000000000000006A R
(1781869793.556951) can0 12E#000000000000C02E R
(1781869793.557194) can0 450#0000000000002800 R
(1781869793.557435) can0 121#00A601CF048000D9 R
(1781869793.557681) can0 129#00000001000000D0 R
(1781869793.574857) can0 120#00000000000000D4 R
(1781869793.575106) can0 541#000010000000025C R
(1781869793.575346) can0 12D#000000000000008B R
(1781869793.575587) can0 12D#00000000000000BE R
(1781869793.575828) can0 12E#000000000000C044 R
(1781869793.576067) can0 121#00A601CF04800038 R
(1781869793.581285) can0 129#0000000100000031 R
(1781869793.581530) can0 540#000040100000FA00 R
(1781869793.581772) can0 5B0#10000000000000BF R
(1781869793.582013) can0 120#0000000000000035 R
(1781869793.582252) can0 541#0000100000000269 R
(1781869793.582493) can0 12D#00000000000000D4 R
(1781869793.596466) can0 12A#10050000000A0083 R
(1781869793.596709) can0 12D#0000000000000035 R
(1781869793.596949) can0 12E#000000000000C071 R
(1781869793.597189) can0 121#00A601CF04800052 R
(1781869793.597429) can0 129#000000010000005B R
(1781869793.597668) can0 120#000000000000005F R
(1781869793.614714) can0 541#0000100000000288 R
(1781869793.614955) can0 12D#000000000000005F R
(1781869793.615196) can0 450#0000000000002800 R
(1781869793.615434) can0 12D#000000000000006A R
(1781869793.615715) can0 12E#000000000000C090 R
(1781869793.631114) can0 121#00A601CF04800067 R
(1781869793.631376) can0 129#000000010000006E R
(1781869793.631620) can0 120#000000000000006A R
(1781869793.631862) can0 541#00001000000003AB R
(1781869793.632104) can0 12D#000000000000008B R
(1781869793.632344) can0 12D#00000000000000BE R
(1781869793.638489) can0 12E#000000000000C0A5 R
(1781869793.638734) can0 12A#10050000000A00B6 R
(1781869793.638976) can0 5A0#00000000040000B0 R
(1781869793.639217) can0 121#00A601CF04800086 R
(1781869793.639458) can0 129#000000010000008F R
(1781869793.639699) can0 120#000000000000008B R
(1781869793.654848) can0 541#00001000000003C1 R
(1781869793.655092) can0 12D#00000000000000D4 R
(1781869793.655333) can0 12D#0000000000000035 R
(1781869793.655572) can0 12E#000000000000C0CF R
(1781869793.655815) can0 450#0000000000002800 R
(1781869793.656057) can0 121#00A601CF048000B3 R
(1781869793.674653) can0 129#00000001000000BA R
(1781869793.674898) can0 120#00000000000000BE R
(1781869793.675139) can0 541#0000100000000320 R
(1781869793.675380) can0 12D#000000000000005F R
(1781869793.675620) can0 12D#000000000000006A R
(1781869793.675860) can0 12E#000000000000C02E R
(1781869793.678603) can0 121#00A601CF048000D9 R
(1781869793.678847) can0 129#00000001000000D0 R
(1781869793.679086) can0 540#000040100000FA00 R
(1781869793.679326) can0 5B0#10000000000000D5 R
(1781869793.679566) can0 120#00000000000000D4 R
(1781869793.694772) can0 541#000010000000034A R
