(1782156465.742130) can0 12D#0000000000000000 R
(1782156465.742578) can0 12D#0000000000000000 R
(1782156465.742864) can0 12D#0000000000000000 R
(1782156465.743127) can0 12D#0000000000000000 R
(1782156465.743382) can0 12D#0000000000000000 R
(1782156465.743624) can0 12D#0000000000000000 R
(1782156465.743862) can0 12D#0000000000000000 R
(1782156465.744099) can0 12D#0000000000000000 R
(1782156465.744339) can0 12D#0000000000000000 R
(1782156465.744599) can0 12D#0000000000000000 R
(1782156465.744841) can0 12D#0000000000000000 R
(1782156465.745080) can0 12D#0000000000000000 R
(1782156465.745319) can0 12D#0000000000000000 R
(1782156465.745558) can0 12D#0000000000000000 R
(1782156465.745796) can0 12D#0000000000000000 R
(1782156465.746210) can0 12D#0000000000000000 R
(1782156465.746338) can0 12D#0000000000000000 R
(1782156465.746438) can0 12D#0000000000000000 R
(1782156465.746534) can0 12D#0000000000000000 R
(1782156465.746630) can0 12D#0000000000000000 R
(1782156465.746725) can0 12D#0000000000000000 R
(1782156465.747948) can0 12D#0000000000000035 R
(1782156465.748085) can0 12D#0000000000000035 R
(1782156465.748165) can0 12D#0000000000000035 R
(1782156465.748240) can0 12D#0000000000000035 R
(1782156465.748320) can0 12D#0000000000000035 R
(1782156465.748395) can0 12D#0000000000000035 R
(1782156465.749512) can0 12D#0000000000000035 R
(1782156465.749621) can0 12D#0000000000000035 R
(1782156465.749709) can0 12D#0000000000000035 R
(1782156465.749793) can0 12D#0000000000000035 R
(1782156465.749877) can0 12D#0000000000000035 R
(1782156465.749962) can0 12D#0000000000000035 R
(1782156465.751185) can0 12D#0000000000000035 R
(1782156465.751273) can0 12D#0000000000000035 R
(1782156465.751357) can0 12D#0000000000000035 R
(1782156465.751441) can0 12D#0000000000000035 R
(1782156465.751524) can0 12D#0000000000000035 R
(1782156465.751610) can0 12D#0000000000000035 R
(1782156465.752576) can0 12D#0000000000000035 R
(1782156465.752665) can0 12D#0000000000000035 R
(1782156465.752748) can0 12D#0000000000000035 R
(1782156465.752835) can0 12D#0000000000000035 R
(1782156465.752919) can0 12D#0000000000000035 R
(1782156465.754121) can0 12D#0000000000000035 R
(1782156465.754235) can0 12D#0000000000000035 R
(1782156465.754320) can0 12D#0000000000000035 R
(1782156465.754403) can0 12D#0000000000000035 R
(1782156465.754485) can0 12D#0000000000000035 R
(1782156465.754569) can0 12D#0000000000000035 R
(1782156465.755784) can0 12D#0000000000000035 R
(1782156465.755893) can0 12D#0000000000000035 R
(1782156465.755977) can0 12D#0000000000000035 R
(1782156465.756064) can0 12D#0000000000000035 R
(1782156465.756149) can0 12D#0000000000000035 R
(1782156465.756234) can0 12D#0000000000000035 R
(1782156465.759098) can0 12D#0000000000000035 R
(1782156465.759211) can0 12D#0000000000000035 R
(1782156465.759299) can0 12D#000000000000005F R
(1782156465.759373) can0 12D#000000000000005F R
(1782156465.759448) can0 12D#000000000000005F R
(1782156465.759521) can0 12D#000000000000005F R
(1782156465.759592) can0 12D#000000000000005F R
(1782156465.759664) can0 12D#000000000000005F R
(1782156465.759736) can0 12D#000000000000005F R
(1782156465.759810) can0 12D#000000000000005F R
(1782156465.759882) can0 12D#000000000000005F R
(1782156465.759955) can0 12D#000000000000005F R
(1782156465.770119) can0 12D#000000000000005F R
(1782156465.770209) can0 12D#000000000000005F R
(1782156465.770294) can0 12D#000000000000005F R
(1782156465.770377) can0 12E#0000000000000000 R
(1782156465.770461) can0 12D#000000000000006A R
(1782156465.770544) can0 12E#0000000000000035 R
(1782156465.776371) can0 121#0000000004840010 R
(1782156465.776459) can0 129#0000000100000004 R
(1782156465.776542) can0 540#0000000000000000 R
(1782156465.776638) can0 5B0#0000000000000000 R
(1782156465.776723) can0 120#0000000000000000 R
(1782156465.791759) can0 12D#000000000000008B R
(1782156465.791935) can0 12A#10010000000A001D R
(1782156465.792045) can0 12D#00000000000000BE R
(1782156465.792147) can0 12E#000000000000005F R
(1782156465.792248) can0 121#0000000004840025 R
(1782156465.792349) can0 129#0000000100000031 R
(1782156465.813329) can0 120#0000000000000035 R
(1782156465.813422) can0 12D#00000000000000D4 R
(1782156465.813561) can0 12D#0000000000000035 R
(1782156465.813671) can0 12E#000000000000006A R
(1782156465.813762) can0 121#00AC01D604800053 R
(1782156465.813850) can0 129#000000010000005B R
(1782156465.829994) can0 120#000000000000005F R
(1782156465.830144) can0 12D#000000000000005F R
(1782156465.830254) can0 12D#000000000000006A R
(1782156465.830351) can0 12E#000000000000008B R
(1782156465.830452) can0 12A#10010000000A0028 R
(1782156465.830552) can0 5A0#0000000000000000 R
(1782156465.849887) can0 121#00AC01D604800066 R
(1782156465.850071) can0 129#000000010000006E R
(1782156465.850222) can0 120#000000000000006A R
(1782156465.850368) can0 12D#000000000000008B R
(1782156465.850511) can0 12D#00000000000000BE R
(1782156465.850652) can0 12E#00000000000000BE R
(1782156465.866543) can0 121#00AC01D604800087 R
(1782156465.866716) can0 129#000000010000008F R
(1782156465.866840) can0 120#000000000000008B R
(1782156465.866964) can0 12D#00000000000000D4 R
(1782156465.867081) can0 12D#0000000000000035 R
(1782156465.876236) can0 12E#00000000000000D4 R
(1782156465.876461) can0 121#00AC01D6048000B2 R
(1782156465.876645) can0 129#00000001000000BA R
(1782156465.876827) can0 540#0000000100018000 R
(1782156465.877005) can0 5B0#0000000000000035 R
(1782156465.877183) can0 120#00000000000000BE R
(1782156465.891728) can0 12D#000000000000005F R
(1782156465.891992) can0 12A#10010000000A0042 R
(1782156465.892232) can0 12D#000000000000006A R
(1782156465.892472) can0 12E#0000000000000035 R
(1782156465.892710) can0 121#00AC01D6048000D8 R
(1782156465.892948) can0 129#00000001000000D0 R
(1782156465.911538) can0 120#00000000000000D4 R
(1782156465.911787) can0 12D#000000000000008B R
(1782156465.912025) can0 12D#00000000000000BE R
(1782156465.912261) can0 12E#000000000000005F R
(1782156465.912498) can0 121#00AC01D604800039 R
(1782156465.912733) can0 129#0000000100000031 R
(1782156465.929993) can0 120#0000000000000035 R
(1782156465.930253) can0 12D#00000000000000D4 R
(1782156465.930495) can0 12D#0000000000000035 R
(1782156465.930737) can0 12E#000000000000006A R
(1782156465.930973) can0 12A#10010000000A0077 R
(1782156465.931209) can0 5A0#0000000000000035 R
(1782156465.949997) can0 121#00AC01D604800053 R
(1782156465.950245) can0 129#000000010000005B R
(1782156465.950483) can0 120#000000000000005F R
(1782156465.950721) can0 12D#000000000000005F R
(1782156465.950959) can0 12D#000000000000006A R
(1782156465.951193) can0 12E#000000000000008B R
(1782156465.966335) can0 121#00AC01D604800066 R
(1782156465.966589) can0 129#000000010000006E R
(1782156465.966831) can0 120#000000000000006A R
(1782156465.967067) can0 541#000100000003FE7E R
(1782156465.967305) can0 12D#000000000000008B R
(1782156465.971529) can0 12D#00000000000000BE R
(1782156465.971781) can0 12E#00000000000000BE R
(1782156465.972021) can0 121#00AC01D604800087 R
(1782156465.972258) can0 129#000000010000008F R
(1782156465.972495) can0 540#0000000100018000 R
(1782156465.972729) can0 5B0#100000000000005E R
(1782156465.989868) can0 120#000000000000008B R
(1782156465.990121) can0 541#000110000003FE0E R
(1782156465.992004) can0 12D#00000000000000D4 R
(1782156465.992263) can0 12A#10010000000A0096 R
(1782156465.992509) can0 12D#0000000000000035 R
(1782156465.992760) can0 12E#00000000000000D4 R
(1782156466.006368) can0 121#00AC01D6048000B2 R
(1782156466.006630) can0 129#00000001000000BA R
(1782156466.006876) can0 120#00000000000000BE R
(1782156466.007122) can0 541#000110000003FE3B R
(1782156466.007367) can0 12D#000000000000005F R
(1782156466.007609) can0 450#0000000000002800 R
(1782156466.016444) can0 12D#000000000000006A R
(1782156466.016561) can0 12E#0000000000000035 R
(1782156466.016660) can0 121#00A701D1048000C3 R
(1782156466.016760) can0 129#00000001000000D0 R
(1782156466.016856) can0 120#00000000000000D4 R
(1782156466.016951) can0 541#000110000003FE51 R
(1782156466.030041) can0 12D#000000000000008B R
(1782156466.030300) can0 12D#00000000000000BE R
(1782156466.030542) can0 12E#000000000000005F R
(1782156466.030779) can0 12A#10010000000A00A3 R
(1782156466.031058) can0 5A0#000000000000005F R
(1782156466.046392) can0 121#00A701D104800022 R
(1782156466.046648) can0 129#0000000100000031 R
(1782156466.046889) can0 120#0000000000000035 R
(1782156466.047125) can0 541#000110000003FE64 R
(1782156466.047362) can0 12D#00000000000000D4 R
(1782156466.047596) can0 12D#0000000000000035 R
(1782156466.056442) can0 12E#000000000000006A R
(1782156466.056694) can0 450#0000000000002800 R
(1782156466.057005) can0 121#00A701D104800048 R
(1782156466.065205) can0 129#000000010000005B R
(1782156466.065338) can0 120#000000000000005F R
(1782156466.065464) can0 541#000110000003FE85 R
(1782156466.070692) can0 12D#000000000000005F R
(1782156466.070778) can0 12D#000000000000006A R
(1782156466.070853) can0 12E#000000000000008B R
(1782156466.070929) can0 121#00A701D10480007D R
(1782156466.071002) can0 129#000000010000006E R
(1782156466.071074) can0 540#0000001100018000 R
(1782156466.086488) can0 5B0#100000000000006B R
(1782156466.086577) can0 120#000000000000006A R
(1782156466.086663) can0 541#000110000003FEB0 R
(1782156466.086747) can0 12D#000000000000008B R
(1782156466.086832) can0 12A#10010000000A00C9 R
(1782156466.086917) can0 12D#00000000000000BE R
(1782156466.097882) can0 12E#00000000000000BE R
(1782156466.097987) can0 121#00A701D10480009C R
(1782156466.098088) can0 129#000000010000008F R
(1782156466.098189) can0 120#000000000000008B R
(1782156466.098290) can0 541#000110000003FEDA R
(1782156466.098390) can0 12D#00000000000000D4 R
(1782156466.111545) can0 450#0000000000002800 R
(1782156466.111650) can0 12D#0000000000000035 R
(1782156466.111752) can0 12E#00000000000000D4 R
(1782156466.111851) can0 121#00A701D1048000A9 R
(1782156466.111951) can0 129#00000001000000BA R
(1782156466.127446) can0 120#00000000000000BE R
(1782156466.127614) can0 541#000110000003FE3B R
(1782156466.127724) can0 12D#000000000000005F R
(1782156466.127838) can0 12D#000000000000006A R
(1782156466.127943) can0 12E#0000000000000035 R
(1782156466.128046) can0 12A#10010000000A0028 R
(1782156466.146648) can0 5A0#000000000000006A R
(1782156466.146798) can0 121#00A701D1048000C3 R
(1782156466.146919) can0 129#00000001000000D0 R
(1782156466.147036) can0 120#00000000000000D4 R
(1782156466.147152) can0 541#000110000003FE51 R
(1782156466.147268) can0 12D#000000000000008B R
(1782156466.154117) can0 12D#00000000000000BE R
(1782156466.154296) can0 12E#000000000000005F R
(1782156466.154469) can0 450#0000000000002800 R
(1782156466.154642) can0 121#00A701D104800022 R
(1782156466.154819) can0 129#0000000100000031 R
(1782156466.154997) can0 120#0000000000000035 R
(1782156466.170546) can0 541#000110000003FE64 R
(1782156466.170790) can0 12D#00000000000000D4 R
(1782156466.171026) can0 12D#0000000000000035 R
(1782156466.171262) can0 12E#000000000000006A R
(1782156466.171497) can0 121#00A701D104800048 R
(1782156466.171733) can0 129#000000010000005B R
(1782156466.177135) can0 540#0000401100018000 R
(1782156466.177372) can0 5B0#100000000000008A R
(1782156466.177608) can0 120#000000000000005F R
(1782156466.177845) can0 541#000110000003FE85 R
(1782156466.178086) can0 12D#000000000000005F R
(1782156466.194035) can0 12A#10010000000A0042 R
(1782156466.194289) can0 12D#000000000000006A R
(1782156466.194525) can0 12E#000000000000008B R
(1782156466.194762) can0 121#00A701D10480007D R
(1782156466.194999) can0 129#000000010000006E R
(1782156466.195235) can0 120#000000000000006A R
(1782156466.210104) can0 541#000110000003FEB0 R
(1782156466.210356) can0 12D#000000000000008B R
(1782156466.210595) can0 450#0000000000002800 R
(1782156466.210836) can0 12D#00000000000000BE R
(1782156466.211074) can0 12E#00000000000000BE R
(1782156466.211315) can0 121#00A701D10480009C R
(1782156466.227221) can0 129#000000010000008F R
(1782156466.227466) can0 120#000000000000008B R
(1782156466.227703) can0 541#000110000003FFCC R
(1782156466.227939) can0 12D#00000000000000D4 R
(1782156466.228175) can0 12D#0000000000000035 R
(1782156466.228411) can0 12E#00000000000000D4 R
(1782156466.236805) can0 12A#10010000000A0077 R
(1782156466.237047) can0 5A0#000000000000008B R
(1782156466.237284) can0 121#00A701D1048000A9 R
(1782156466.237520) can0 129#00000001000000BA R
(1782156466.237756) can0 120#00000000000000BE R
(1782156466.237993) can0 541#000110000003FF2D R
(1782156466.251778) can0 12D#000000000000005F R
(1782156466.251936) can0 12D#000000000000006A R
(1782156466.252046) can0 12E#0000000000000035 R
(1782156466.252151) can0 450#0000000000002800 R
(1782156466.252263) can0 121#00A701D1048000C3 R
(1782156466.252366) can0 129#00000001000000D0 R
(1782156466.270191) can0 120#00000000000000D4 R
(1782156466.270330) can0 541#000110000003FF47 R
(1782156466.270439) can0 12D#000000000000008B R
(1782156466.270545) can0 12D#00000000000000BE R
(1782156466.270652) can0 12E#000000000000005F R
(1782156466.276703) can0 121#00A701D104800022 R
(1782156466.276861) can0 129#0000000100000031 R
(1782156466.277002) can0 540#0000401100018000 R
(1782156466.277144) can0 5B0#10000000000000BF R
(1782156466.277284) can0 120#0000000000000035 R
(1782156466.277425) can0 541#000110000003FF72 R
(1782156466.292438) can0 12D#00000000000000D4 R
(1782156466.292712) can0 12A#10010000000A0096 R
(1782156466.292959) can0 12D#0000000000000035 R
(1782156466.293207) can0 12E#000000000000006A R
(1782156466.293450) can0 121#00A701D104800048 R
(1782156466.293692) can0 129#000000010000005B R
(1782156466.314231) can0 120#000000000000005F R
(1782156466.314447) can0 541#000110000003FF93 R
(1782156466.314531) can0 12D#000000000000005F R
(1782156466.314607) can0 450#0000000000002800 R
(1782156466.314681) can0 12D#000000000000006A R
(1782156466.314757) can0 12E#000000000000008B R
(1782156466.326953) can0 121#00A701D10480007D R
(1782156466.327049) can0 129#000000010000006E R
(1782156466.327136) can0 120#000000000000006A R
(1782156466.327221) can0 541#000110000003FFA6 R
(1782156466.327306) can0 12D#000000000000008B R
(1782156466.327390) can0 12D#00000000000000BE R
(1782156466.331691) can0 12E#00000000000000BE R
(1782156466.331780) can0 12A#10010000000A00A3 R
(1782156466.331865) can0 5A0#00000000000000BE R
(1782156466.331952) can0 121#00A701D10480009C R
(1782156466.332037) can0 129#000000010000008F R
(1782156466.349846) can0 120#000000000000008B R
(1782156466.349975) can0 541#000110000003FFCC R
(1782156466.350076) can0 12D#00000000000000D4 R
(1782156466.350179) can0 12D#0000000000000035 R
(1782156466.350282) can0 12E#00000000000000D4 R
(1782156466.350385) can0 450#0000000000002800 R
(1782156466.366754) can0 121#00A701D1048000A9 R
(1782156466.366884) can0 129#00000001000000BA R
(1782156466.366987) can0 120#00000000000000BE R
(1782156466.367088) can0 541#000110000003FF2D R
(1782156466.367188) can0 12D#000000000000005F R
(1782156466.367289) can0 12D#000000000000006A R
(1782156466.374103) can0 12E#0000000000000035 R
(1782156466.374210) can0 121#00A701D1048000C3 R
(1782156466.374313) can0 129#00000001000000D0 R
(1782156466.374415) can0 540#0000401100018000 R
(1782156466.374515) can0 5B0#10000000000000D5 R
(1782156466.374616) can0 120#00000000000000D4 R
(1782156466.390218) can0 541#000110000003FF47 R
(1782156466.390508) can0 12D#000000000000008B R
(1782156466.390730) can0 12A#10010000000A00C9 R
(1782156466.392892) can0 12D#00000000000000BE R
(1782156466.393047) can0 12E#000000000000005F R
(1782156466.393213) can0 121#00A701D104800022 R
(1782156466.406932) can0 129#0000000100000031 R
(1782156466.407119) can0 120#0000000000000035 R
(1782156466.407293) can0 541#000110000003FF72 R
(1782156466.407465) can0 12D#00000000000000D4 R
(1782156466.407639) can0 450#0000000000002800 R
(1782156466.407815) can0 12D#0000000000000035 R
(1782156466.416957) can0 12E#000000000000006A R
(1782156466.417210) can0 121#00A701D104800048 R
(1782156466.417451) can0 129#000000010000005B R
(1782156466.417689) can0 120#000000000000005F R
(1782156466.417928) can0 541#000110000003FF93 R
(1782156466.430161) can0 12D#000000000000005F R
(1782156466.430428) can0 12D#000000000000006A R
(1782156466.430669) can0 12E#000000000000008B R
(1782156466.430906) can0 12A#10010000000A0028 R
(1782156466.431143) can0 5A0#00000000000000D4 R
(1782156466.431380) can0 121#00A701D10480007D R
(1782156466.447788) can0 129#000000010000006E R
(1782156466.448082) can0 120#000000000000006A R
(1782156466.448321) can0 541#000110000003FFA6 R
(1782156466.448561) can0 12D#000000000000008B R
(1782156466.448798) can0 12D#00000000000000BE R
(1782156466.449035) can0 12E#00000000000000BE R
(1782156466.466651) can0 450#0000000000002800 R
(1782156466.466900) can0 121#00A701D10480009C R
(1782156466.467139) can0 129#000000010000008F R
(1782156466.467375) can0 120#000000000000008B R
(1782156466.467612) can0 541#000110000003FFCC R
(1782156466.467848) can0 12D#00000000000000D4 R
(1782156466.471761) can0 12D#0000000000000035 R
(1782156466.471999) can0 12E#00000000000000D4 R
(1782156466.472235) can0 121#00A701D1048000A9 R
(1782156466.472470) can0 129#00000001000000BA R
(1782156466.472707) can0 540#0000401100018000 R
(1782156466.472943) can0 5B0#1000000000000034 R
(1782156466.486959) can0 120#00000000000000BE R
(1782156466.487203) can0 541#000110000003FF2D R
(1782156466.487441) can0 12D#000000000000005F R
(1782156466.487678) can0 12A#10010000000A0042 R
(1782156466.487916) can0 12D#000000000000006A R
(1782156466.497791) can0 12E#0000000000000035 R
(1782156466.498050) can0 121#00A701D1048000C3 R
(1782156466.498289) can0 129#00000001000000D0 R
(1782156466.498528) can0 120#00000000000000D4 R
(1782156466.498763) can0 541#000110000003FF47 R
(1782156466.498998) can0 12D#000000000000008B R
(1782156466.514106) can0 450#0000000000002800 R
(1782156466.514363) can0 12D#00000000000000BE R
(1782156466.514605) can0 12E#000000000000005F R
(1782156466.514845) can0 121#00A701D104800022 R
(1782156466.515083) can0 129#0000000100000031 R
(1782156466.515322) can0 120#0000000000000035 R
(1782156466.530021) can0 541#000110000003FF72 R
(1782156466.530296) can0 12D#00000000000000D4 R
(1782156466.530544) can0 12D#0000000000000035 R
(1782156466.530784) can0 12E#000000000000006A R
(1782156466.531030) can0 12A#10010000000A0077 R
(1782156466.531271) can0 5A0#0000000000000035 R
(1782156466.546879) can0 121#00A701D104800048 R
(1782156466.547122) can0 129#000000010000005B R
(1782156466.547360) can0 120#000000000000005F R
(1782156466.547599) can0 541#000110000003FF93 R
(1782156466.547838) can0 12D#000000000000005F R
(1782156466.548073) can0 12D#000000000000006A R
(1782156466.556863) can0 12E#000000000000008B R
(1782156466.561989) can0 450#0000000000002800 R
(1782156466.565538) can0 121#00A701D10480007D R
(1782156466.565645) can0 129#000000010000006E R
(1782156466.565801) can0 120#000000000000006A R
(1782156466.565912) can0 541#000110000003FFA6 R
(1782156466.570528) can0 12D#000000000000008B R
(1782156466.570621) can0 12D#00000000000000BE R
(1782156466.570710) can0 12E#00000000000000BE R
(1782156466.570798) can0 121#00A701D10480009C R
(1782156466.570883) can0 129#000000010000008F R
(1782156466.586542) can0 540#0000401100018000 R
(1782156466.586667) can0 5B0#100000000000005E R
(1782156466.586766) can0 120#000000000000008B R
(1782156466.586866) can0 541#000110000003FFCC R
(1782156466.586966) can0 12D#00000000000000D4 R
(1782156466.587066) can0 12A#10010000000A0096 R
(1782156466.596720) can0 12D#0000000000000035 R
(1782156466.596859) can0 12E#00000000000000D4 R
(1782156466.596965) can0 121#00A701D1048000A9 R
(1782156466.597067) can0 129#00000001000000BA R
(1782156466.597177) can0 120#00000000000000BE R
(1782156466.597280) can0 541#000110000003FF2D R
(1782156466.611617) can0 12D#000000000000005F R
(1782156466.611745) can0 450#0000000000002800 R
(1782156466.611851) can0 12D#000000000000006A R
(1782156466.611955) can0 12E#0000000000000035 R
(1782156466.612057) can0 121#00A701D1048000C3 R
(1782156466.612161) can0 129#00000001000000D0 R
(1782156466.627509) can0 120#00000000000000D4 R
(1782156466.627661) can0 541#000010000003FF4F R
(1782156466.627797) can0 12D#000000000000008B R
(1782156466.627932) can0 12D#00000000000000BE R
(1782156466.628053) can0 12E#000000000000005F R
(1782156466.628169) can0 12A#10010000000A00A3 R
(1782156466.636784) can0 5A0#000000000000005F R
(1782156466.636925) can0 121#00A701D104800022 R
(1782156466.637061) can0 129#0000000100000031 R
(1782156466.637197) can0 120#0000000000000035 R
(1782156466.637334) can0 541#000010000003FF7A R
(1782156466.651742) can0 12D#00000000000000D4 R
(1782156466.652025) can0 12D#0000000000000035 R
(1782156466.652266) can0 12E#000000000000006A R
(1782156466.652509) can0 450#0000000000002800 R
(1782156466.652746) can0 121#00A701D104800048 R
(1782156466.652980) can0 129#000000010000005B R
(1782156466.670226) can0 120#000000000000005F R
(1782156466.670388) can0 541#000010000003FF9B R
(1782156466.670503) can0 12D#000000000000005F R
(1782156466.670608) can0 12D#000000000000006A R
(1782156466.670712) can0 12E#000000000000008B R
(1782156466.670814) can0 121#00A701D10480007D R
(1782156466.676958) can0 129#000000010000006E R
(1782156466.677070) can0 540#0000401100018000 R
(1782156466.677172) can0 5B0#100000000000006B R
(1782156466.677273) can0 120#000000000000006A R
(1782156466.677375) can0 541#000010000003FFAE R
(1782156466.677475) can0 12D#000000000000008B R
(1782156466.694136) can0 12A#10010000000A00C9 R
(1782156466.694273) can0 12D#00000000000000BE R
(1782156466.694390) can0 12E#00000000000000BE R
(1782156466.694504) can0 121#00A701D10480009C R
(1782156466.694618) can0 129#000000010000008F R
(1782156466.694737) can0 120#000000000000008B R
(1782156466.710265) can0 541#000010000003FFC4 R
(1782156466.710510) can0 12D#00000000000000D4 R
(1782156466.710746) can0 450#0000000000002800 R
(1782156466.710982) can0 12D#0000000000000035 R
(1782156466.711218) can0 12E#00000000000000D4 R
(1782156466.711452) can0 121#00A701D1048000A9 R
(1782156466.727043) can0 129#00000001000000BA R
(1782156466.727288) can0 120#00000000000000BE R
(1782156466.727525) can0 541#000010000003FF25 R
(1782156466.727761) can0 12D#000000000000005F R
(1782156466.727996) can0 12D#000000000000006A R
(1782156466.734050) can0 12E#0000000000000035 R
(1782156466.734301) can0 12A#10010000000A0028 R
(1782156466.734537) can0 5A0#000000000000006A R
(1782156466.734773) can0 121#00A701D1048000C3 R
(1782156466.735007) can0 129#00000001000000D0 R
(1782156466.735241) can0 120#00000000000000D4 R
(1782156466.750174) can0 541#000010000003FF4F R
(1782156466.750416) can0 12D#000000000000008B R
(1782156466.750654) can0 12D#00000000000000BE R
(1782156466.750890) can0 12E#000000000000C044 R
(1782156466.751125) can0 450#0000000000002800 R
(1782156466.751361) can0 121#00A701D104800022 R
(1782156466.769967) can0 129#0000000100000031 R
(1782156466.770212) can0 120#0000000000000035 R
(1782156466.770449) can0 541#000010000003FF7A R
(1782156466.770683) can0 12D#00000000000000D4 R
(1782156466.770918) can0 12D#0000000000000035 R
(1782156466.771153) can0 12E#000000000000C071 R
(1782156466.776809) can0 121#00A701D104800048 R
(1782156466.777049) can0 129#000000010000005B R
(1782156466.777285) can0 540#0000401100018000 R
(1782156466.777521) can0 5B0#100000000000008A R
(1782156466.777757) can0 120#000000000000005F R
(1782156466.777991) can0 541#000010000003FF9B R
(1782156466.793102) can0 12D#000000000000005F R
(1782156466.793227) can0 12A#10010000000A0042 R
(1782156466.793328) can0 12D#000000000000006A R
(1782156466.793427) can0 12E#000000000000C090 R
(1782156466.793529) can0 121#00A701D10480007D R
(1782156466.806759) can0 129#000000010000006E R
(1782156466.806983) can0 120#000000000000006A R
(1782156466.808830) can0 541#000010000003FFAE R
(1782156466.808994) can0 12D#000000000000008B R
(1782156466.813693) can0 450#0000000000002800 R
(1782156466.813915) can0 12D#00000000000000BE R
(1782156466.826645) can0 12E#000000000000C0A5 R
(1782156466.826778) can0 121#00A701D10480009C R
(1782156466.826886) can0 129#000000010000008F R
(1782156466.826991) can0 120#000000000000008B R
(1782156466.827095) can0 541#000010000003FFC4 R
(1782156466.827203) can0 12D#00000000000000D4 R
(1782156466.831698) can0 12D#0000000000000035 R
(1782156466.831805) can0 12E#000000000000C0CF R
(1782156466.831908) can0 12A#10010000000A0077 R
(1782156466.832011) can0 5A0#0000000004000085 R
(1782156466.832114) can0 121#00A701D1048000A9 R
(1782156466.832218) can0 129#00000001000000BA R
(1782156466.849995) can0 120#00000000000000BE R
(1782156466.850244) can0 541#000010000003FF25 R
(1782156466.850484) can0 12D#000000000000005F R
(1782156466.850748) can0 12D#000000000000006A R
(1782156466.850988) can0 12E#000000000000C02E R
(1782156466.851229) can0 450#0000000000002800 R
(1782156466.866926) can0 121#00A701D1048000C3 R
(1782156466.867072) can0 129#00000001000000D0 R
(1782156466.867180) can0 120#00000000000000D4 R
(1782156466.867284) can0 541#000010000003FF4F R
(1782156466.867386) can0 12D#000000000000008B R
(1782156466.867487) can0 12D#00000000000000BE R
(1782156466.871770) can0 12E#000000000000C044 R
(1782156466.871879) can0 121#00A701D104800022 R
(1782156466.871980) can0 129#0000000100000031 R
(1782156466.872083) can0 540#0000401100018000 R
(1782156466.872187) can0 5B0#10000000000000BF R
(1782156466.889994) can0 120#0000000000000035 R
(1782156466.892792) can0 541#000010000003FF7A R
(1782156466.893031) can0 12D#00000000000000D4 R
(1782156466.893181) can0 12A#10010000000A0096 R
(1782156466.893321) can0 12D#0000000000000035 R
(1782156466.893459) can0 12E#000000000000C071 R
(1782156466.906607) can0 121#00A701D104800048 R
(1782156466.906865) can0 129#000000010000005B R
(1782156466.907108) can0 120#000000000000005F R
(1782156466.907350) can0 541#000010000003FF9B R
(1782156466.907589) can0 12D#000000000000005F R
(1782156466.907830) can0 450#0000000000002800 R
(1782156466.916775) can0 12D#000000000000006A R
(1782156466.917026) can0 12E#000000000000C090 R
(1782156466.917265) can0 121#00A701D10480007D R
(1782156466.917505) can0 129#000000010000006E R
(1782156466.917745) can0 120#000000000000006A R
(1782156466.917983) can0 541#000010000003FFAE R
(1782156466.930308) can0 12D#000000000000008B R
(1782156466.930559) can0 12D#00000000000000BE R
(1782156466.930797) can0 12E#000000000000C0A5 R
(1782156466.931034) can0 12A#10010000000A00A3 R
(1782156466.931271) can0 5A0#00000000040000B0 R
(1782156466.931507) can0 121#00A701D10480009C R
(1782156466.946920) can0 129#000000010000008F R
(1782156466.947160) can0 120#000000000000008B R
(1782156466.947394) can0 541#000010000003FFC4 R
(1782156466.947631) can0 12D#00000000000000D4 R
(1782156466.947868) can0 12D#0000000000000035 R
(1782156466.956661) can0 12E#000000000000C0CF R
(1782156466.957028) can0 450#0000000000002800 R
(1782156466.960915) can0 121#00A701D1048000A9 R
(1782156466.961022) can0 129#00000001000000BA R
(1782156466.961120) can0 120#00000000000000BE R
(1782156466.961216) can0 541#000010000003FF25 R
(1782156466.970743) can0 12D#000000000000005F R
(1782156466.970908) can0 12D#000000000000006A R
(1782156466.971019) can0 12E#000000000000C02E R
(1782156466.971123) can0 121#00A701D1048000C3 R
(1782156466.971227) can0 129#00000001000000D0 R
(1782156466.971331) can0 540#0000401100018000 R
(1782156466.986836) can0 5B0#10000000000000D5 R
(1782156466.986982) can0 120#00000000000000D4 R
(1782156466.987102) can0 541#000010000003FF4F R
(1782156466.987220) can0 12D#000000000000008B R
(1782156466.987339) can0 12A#10010000000A00C9 R
(1782156466.987461) can0 12D#00000000000000BE R
(1782156466.997897) can0 12E#000000000000C044 R
(1782156466.998047) can0 121#00A701D104800022 R
(1782156466.998186) can0 129#0000000100000031 R
(1782156466.998324) can0 120#0000000000000035 R
(1782156466.998465) can0 541#000010000003FF7A R
(1782156466.998601) can0 12D#00000000000000D4 R
(1782156467.015267) can0 450#0000000000002800 R
(1782156467.015464) can0 12D#0000000000000035 R
(1782156467.015641) can0 12E#000000000000C071 R
(1782156467.015830) can0 121#00A701D104800048 R
(1782156467.015971) can0 129#000000010000005B R
(1782156467.016073) can0 120#000000000000005F R
(1782156467.027555) can0 541#000010000003FF9B R
(1782156467.027683) can0 12D#000000000000005F R
(1782156467.027802) can0 12D#000000000000006A R
(1782156467.027934) can0 12E#000000000000C090 R
(1782156467.028047) can0 12A#10010000000A0028 R
(1782156467.046522) can0 5A0#00000000040000DA R
(1782156467.046790) can0 121#00A701D10480007D R
(1782156467.047036) can0 129#000000010000006E R
(1782156467.047280) can0 120#000000000000006A R
(1782156467.047523) can0 541#000010000003FFAE R
(1782156467.047765) can0 12D#000000000000008B R
(1782156467.055114) can0 12D#00000000000000BE R
(1782156467.055367) can0 12E#000000000000C0A5 R
(1782156467.055609) can0 450#0000000000002800 R
(1782156467.055850) can0 121#00A701D10480009C R
(1782156467.056090) can0 129#000000010000008F R
(1782156467.056331) can0 120#000000000000008B R
(1782156467.070491) can0 541#000010000003FFC4 R
(1782156467.070612) can0 12D#00000000000000D4 R
(1782156467.070707) can0 12D#0000000000000035 R
(1782156467.070796) can0 12E#000000000000C0CF R
(1782156467.070886) can0 121#00A701D1048000A9 R
(1782156467.070972) can0 129#00000001000000BA R
(1782156467.086574) can0 540#0000401100018000 R
(1782156467.086687) can0 5B0#1000000000000034 R
(1782156467.086790) can0 120#00000000000000BE R
(1782156467.086893) can0 541#000010000003FF25 R
(1782156467.086996) can0 12D#000000000000005F R
(1782156467.087097) can0 12A#10010000000A0042 R
(1782156467.095177) can0 12D#000000000000006A R
(1782156467.095292) can0 12E#000000000000C02E R
(1782156467.095399) can0 121#00A701D1048000C3 R
(1782156467.095503) can0 129#00000001000000D0 R
(1782156467.095606) can0 120#00000000000000D4 R
(1782156467.110145) can0 541#000010000003FF4F R
(1782156467.110282) can0 12D#000000000000008B R
(1782156467.110392) can0 450#0000000000002800 R
(1782156467.110497) can0 12D#00000000000000BE R
(1782156467.110600) can0 12E#000000000000C044 R
(1782156467.110702) can0 121#00A701D104800022 R
(1782156467.127208) can0 129#0000000100000031 R
(1782156467.127354) can0 120#0000000000000035 R
(1782156467.127463) can0 541#000010000003FF7A R
(1782156467.127576) can0 12D#00000000000000D4 R
(1782156467.127686) can0 12D#0000000000000035 R
(1782156467.127794) can0 12E#000000000000C071 R
(1782156467.136742) can0 12A#10010000000A0077 R
(1782156467.136870) can0 5A0#000000000400003B R
(1782156467.136987) can0 121#00A701D104800048 R
(1782156467.137104) can0 129#000000010000005B R
(1782156467.137219) can0 120#000000000000005F R
(1782156467.137335) can0 541#000010000003FF9B R
(1782156467.151712) can0 12D#000000000000005F R
(1782156467.151855) can0 12D#000000000000006A R
(1782156467.151973) can0 12E#000000000000C090 R
(1782156467.152089) can0 450#0000000000002800 R
(1782156467.152225) can0 121#00A701D10480007D R
(1782156467.152345) can0 129#000000010000006E R
(1782156467.170151) can0 120#000000000000006A R
(1782156467.170275) can0 541#000010000003FFAE R
(1782156467.170376) can0 12D#000000000000008B R
(1782156467.170472) can0 12D#00000000000000BE R
(1782156467.170567) can0 12E#000000000000C0A5 R
(1782156467.170663) can0 121#00A701D10480009C R
(1782156467.176908) can0 129#000000010000008F R
(1782156467.177187) can0 540#0000401100018000 R
(1782156467.177433) can0 5B0#100000000000005E R
(1782156467.177672) can0 120#000000000000008B R
(1782156467.177910) can0 541#000010000003FFC4 R
(1782156467.193628) can0 12D#00000000000000D4 R
(1782156467.193895) can0 12A#10010000000A0096 R
(1782156467.194037) can0 12D#0000000000000035 R
(1782156467.194146) can0 12E#000000000000C0CF R
(1782156467.194262) can0 121#00A701D1048000A9 R
(1782156467.194365) can0 129#00000001000000BA R
(1782156467.209975) can0 120#00000000000000BE R
(1782156467.210158) can0 541#000010000003FF25 R
(1782156467.210301) can0 12D#000000000000005F R
(1782156467.210441) can0 450#0000000000002800 R
(1782156467.210582) can0 12D#000000000000006A R
(1782156467.210717) can0 12E#000000000000C02E R
(1782156467.228203) can0 121#00A701D1048000C3 R
(1782156467.228344) can0 129#00000001000000D0 R
(1782156467.228468) can0 120#00000000000000D4 R
(1782156467.228589) can0 541#000010000004004D R
(1782156467.228710) can0 12D#000000000000008B R
(1782156467.228831) can0 12D#00000000000000BE R
(1782156467.235163) can0 12E#000000000000C044 R
(1782156467.235326) can0 12A#10010000000A00A3 R
(1782156467.235469) can0 5A0#0000000004000051 R
(1782156467.235608) can0 121#00A701D104800022 R
(1782156467.235747) can0 129#0000000100000031 R
(1782156467.235885) can0 120#0000000000000035 R
(1782156467.250060) can0 541#0000100000040078 R
(1782156467.250320) can0 12D#00000000000000D4 R
(1782156467.250566) can0 12D#0000000000000035 R
(1782156467.250806) can0 12E#000000000000C071 R
(1782156467.251045) can0 450#0000000000002800 R
(1782156467.266699) can0 121#00A701D104800048 R
(1782156467.266983) can0 129#000000010000005B R
(1782156467.267231) can0 120#000000000000005F R
(1782156467.267470) can0 541#0000100000040099 R
(1782156467.267707) can0 12D#000000000000005F R
(1782156467.267945) can0 12D#000000000000006A R
(1782156467.275048) can0 12E#000000000000C090 R
(1782156467.275299) can0 121#00A701D10480007D R
(1782156467.275536) can0 129#000000010000006E R
(1782156467.275772) can0 540#0000401100018000 R
(1782156467.276009) can0 5B0#100000000000006B R
(1782156467.276245) can0 120#000000000000006A R
(1782156467.290300) can0 541#00001000000400AC R
(1782156467.294216) can0 12D#000000000000008B R
(1782156467.294318) can0 12A#10010000000A00C9 R
(1782156467.294416) can0 12D#00000000000000BE R
(1782156467.294513) can0 12E#000000000000C0A5 R
(1782156467.294610) can0 121#00A701D10480009C R
(1782156467.306866) can0 129#000000010000008F R
(1782156467.311549) can0 120#000000000000008B R
(1782156467.311737) can0 541#00001000000400C6 R
(1782156467.311903) can0 12D#00000000000000D4 R
(1782156467.311994) can0 450#0000000000002800 R
(1782156467.312081) can0 12D#0000000000000035 R
(1782156467.326680) can0 12E#000000000000C0CF R
(1782156467.326795) can0 121#00A701D1048000A9 R
(1782156467.326901) can0 129#00000001000000BA R
(1782156467.327004) can0 120#00000000000000BE R
(1782156467.327107) can0 541#0000100000040027 R
(1782156467.327209) can0 12D#000000000000005F R
(1782156467.330277) can0 12D#000000000000006A R
(1782156467.330404) can0 12E#000000000000C02E R
(1782156467.330510) can0 12A#10010000000A0028 R
(1782156467.330614) can0 5A0#0000000004000064 R
(1782156467.330716) can0 121#00A701D1048000C3 R
(1782156467.347718) can0 129#00000001000000D0 R
(1782156467.347873) can0 120#00000000000000D4 R
(1782156467.347985) can0 541#000010000004004D R
(1782156467.348092) can0 12D#000000000000008B R
(1782156467.348198) can0 12D#00000000000000BE R
(1782156467.348303) can0 12E#000000000000C044 R
(1782156467.366510) can0 450#0000000000002800 R
(1782156467.366653) can0 121#00A701D104800022 R
(1782156467.366764) can0 129#0000000100000031 R
(1782156467.366868) can0 120#0000000000000035 R
(1782156467.366975) can0 541#0000100000040078 R
(1782156467.367081) can0 12D#00000000000000D4 R
(1782156467.371771) can0 12D#0000000000000035 R
(1782156467.371916) can0 12E#000000000000C071 R
(1782156467.372024) can0 121#00A701D104800048 R
(1782156467.372133) can0 129#000000010000005B R
(1782156467.372250) can0 540#0000401100018000 R
(1782156467.372357) can0 5B0#100000000000008A R
(1782156467.390081) can0 120#000000000000005F R
(1782156467.393635) can0 541#0000100000040099 R
(1782156467.393833) can0 12D#000000000000005F R
(1782156467.393940) can0 12A#10010000000A0042 R
(1782156467.394045) can0 12D#000000000000006A R
(1782156467.394149) can0 12E#000000000000C090 R
(1782156467.397894) can0 121#00A701D10480007D R
(1782156467.398005) can0 129#000000010000006E R
(1782156467.398111) can0 120#000000000000006A R
(1782156467.398214) can0 541#00001000000400AC R
(1782156467.398315) can0 12D#000000000000008B R
(1782156467.415047) can0 450#0000000000002800 R
(1782156467.415224) can0 12D#00000000000000BE R
(1782156467.415346) can0 12E#000000000000C0A5 R
(1782156467.415462) can0 121#00A701D10480009C R
(1782156467.415578) can0 129#000000010000008F R
(1782156467.415692) can0 120#000000000000008B R
(1782156467.430045) can0 541#00001000000400C6 R
(1782156467.430335) can0 12D#00000000000000D4 R
(1782156467.430582) can0 12D#0000000000000035 R
(1782156467.430825) can0 12E#000000000000C0CF R
(1782156467.431066) can0 12A#10010000000A0077 R
(1782156467.431307) can0 5A0#0000000004000085 R
(1782156467.446791) can0 121#00A701D1048000A9 R
(1782156467.447049) can0 129#00000001000000BA R
(1782156467.447292) can0 120#00000000000000BE R
(1782156467.447532) can0 541#0000100000040027 R
(1782156467.447773) can0 12D#000000000000005F R
(1782156467.448010) can0 12D#000000000000006A R
(1782156467.456794) can0 12E#000000000000C02E R
(1782156467.461884) can0 450#0000000000002800 R
(1782156467.462134) can0 121#00A701D1048000C3 R
(1782156467.462375) can0 129#00000001000000D0 R
(1782156467.462616) can0 120#00000000000000D4 R
(1782156467.462855) can0 541#000010000004004D R
(1782156467.470820) can0 12D#000000000000008B R
(1782156467.471069) can0 12D#00000000000000BE R
(1782156467.471308) can0 12E#000000000000C044 R
(1782156467.471545) can0 121#00A701D104800022 R
(1782156467.471780) can0 129#0000000100000031 R
(1782156467.472021) can0 540#0000401100018000 R
(1782156467.486707) can0 5B0#10000000000000BF R
(1782156467.486953) can0 120#0000000000000035 R
(1782156467.487190) can0 541#0000100000040078 R
(1782156467.487427) can0 12D#00000000000000D4 R
(1782156467.487664) can0 12A#10010000000A0096 R
(1782156467.496641) can0 12D#0000000000000035 R
(1782156467.496892) can0 12E#000000000000C071 R
(1782156467.497129) can0 121#00A701D104800048 R
(1782156467.497366) can0 129#000000010000005B R
(1782156467.497602) can0 120#000000000000005F R
(1782156467.497839) can0 541#0000100000040099 R
(1782156467.511708) can0 12D#000000000000005F R
(1782156467.511963) can0 450#0000000000002800 R
(1782156467.512201) can0 12D#000000000000006A R
(1782156467.512438) can0 12E#000000000000C090 R
(1782156467.512680) can0 121#00A701D10480007D R
(1782156467.512916) can0 129#000000010000006E R
(1782156467.528115) can0 120#000000000000006A R
(1782156467.528377) can0 541#00001000000400AC R
(1782156467.528621) can0 12D#000000000000008B R
(1782156467.528947) can0 12D#00000000000000BE R
(1782156467.529202) can0 12E#000000000000C0A5 R
(1782156467.529449) can0 12A#10010000000A00A3 R
(1782156467.546623) can0 5A0#00000000040000B0 R
(1782156467.546888) can0 121#00A701D10480009C R
(1782156467.547132) can0 129#000000010000008F R
(1782156467.547370) can0 120#000000000000008B R
(1782156467.547610) can0 541#00001000000400C6 R
(1782156467.547847) can0 12D#00000000000000D4 R
(1782156467.551831) can0 12D#0000000000000035 R
(1782156467.552074) can0 12E#000000000000C0CF R
(1782156467.552311) can0 450#0000000000002800 R
(1782156467.552546) can0 121#00A701D1048000A9 R
(1782156467.552783) can0 129#00000001000000BA R
(1782156467.570205) can0 120#00000000000000BE R
(1782156467.570332) can0 541#0000100000040027 R
(1782156467.570387) can0 12D#000000000000005F R
(1782156467.570438) can0 12D#000000000000006A R
(1782156467.570492) can0 12E#000000000000C02E R
(1782156467.570542) can0 121#00A701D1048000C3 R
(1782156467.576874) can0 129#00000001000000D0 R
(1782156467.576951) can0 540#0000401100018000 R
(1782156467.577006) can0 5B0#10000000000000D5 R
(1782156467.577060) can0 120#00000000000000D4 R
(1782156467.577113) can0 541#000010000004004D R
(1782156467.577167) can0 12D#000000000000008B R
(1782156467.595103) can0 12A#10010000000A00C9 R
(1782156467.595170) can0 12D#00000000000000BE R
(1782156467.595232) can0 12E#000000000000C044 R
(1782156467.595292) can0 121#00A701D104800022 R
(1782156467.595352) can0 129#0000000100000031 R
(1782156467.595411) can0 120#0000000000000035 R
(1782156467.610218) can0 541#0000100000040078 R
(1782156467.610286) can0 12D#00000000000000D4 R
(1782156467.610345) can0 450#0000000000002800 R
(1782156467.610409) can0 12D#0000000000000035 R
(1782156467.610467) can0 12E#000000000000C071 R
(1782156467.610525) can0 121#00A701D104800048 R
(1782156467.627157) can0 129#000000010000005B R
(1782156467.627230) can0 120#000000000000005F R
(1782156467.627297) can0 541#0000100000040099 R
(1782156467.627363) can0 12D#000000000000005F R
(1782156467.627430) can0 12D#000000000000006A R
(1782156467.627515) can0 12E#000000000000C090 R
(1782156467.635120) can0 12A#10010000000A0028 R
(1782156467.635190) can0 5A0#00000000040000DA R
(1782156467.635255) can0 121#00A701D10480007D R
(1782156467.635320) can0 129#000000010000006E R
(1782156467.635386) can0 120#000000000000006A R
(1782156467.650174) can0 541#00001000000400AC R
(1782156467.650276) can0 12D#000000000000008B R
(1782156467.650349) can0 12D#00000000000000BE R
(1782156467.650423) can0 12E#000000000000C0A5 R
(1782156467.650496) can0 450#0000000000002800 R
(1782156467.650570) can0 121#00A701D10480009C R
(1782156467.669948) can0 129#000000010000008F R
(1782156467.670043) can0 120#000000000000008B R
(1782156467.670137) can0 541#00001000000400C6 R
(1782156467.670223) can0 12D#00000000000000D4 R
(1782156467.670310) can0 12D#0000000000000035 R
(1782156467.670396) can0 12E#000000000000C0CF R
(1782156467.676696) can0 121#00A701D1048000A9 R
(1782156467.676786) can0 129#00000001000000BA R
(1782156467.676871) can0 540#0000401100018000 R
(1782156467.676956) can0 5B0#1000000000000034 R
(1782156467.677040) can0 120#00000000000000BE R
(1782156467.677124) can0 541#0000100000040027 R
(1782156467.691945) can0 12D#000000000000005F R
(1782156467.692054) can0 12A#10010000000A0042 R
(1782156467.692157) can0 12D#000000000000006A R
(1782156467.692259) can0 12E#000000000000C02E R
(1782156467.692361) can0 121#00A701D1048000C3 R
(1782156467.692463) can0 129#00000001000000D0 R
(1782156467.706878) can0 120#00000000000000D4 R
(1782156467.707045) can0 541#000010000004004D R
(1782156467.707157) can0 12D#000000000000008B R
(1782156467.707265) can0 450#0000000000002800 R
(1782156467.707372) can0 12D#00000000000000BE R
(1782156467.727614) can0 12E#000000000000C044 R
(1782156467.727765) can0 121#00A701D104800022 R
(1782156467.727929) can0 129#0000000100000031 R
(1782156467.728036) can0 120#0000000000000035 R
(1782156467.728135) can0 541#0000100000040078 R
(1782156467.728235) can0 12D#00000000000000D4 R
(1782156467.729971) can0 12D#0000000000000035 R
(1782156467.730101) can0 12E#000000000000C071 R
(1782156467.730204) can0 12A#10010000000A0077 R
(1782156467.730535) can0 5A0#000000000400003B R
(1782156467.746577) can0 121#00A701D104800048 R
(1782156467.746719) can0 129#000000010000005B R
(1782156467.746838) can0 120#000000000000005F R
(1782156467.746961) can0 541#0000100000040099 R
(1782156467.747080) can0 12D#000000000000005F R
(1782156467.747197) can0 12D#000000000000006A R
(1782156467.755135) can0 12E#000000000000C090 R
(1782156467.755315) can0 450#0000000000002800 R
(1782156467.755494) can0 121#00A701D10480007D R
(1782156467.755670) can0 129#000000010000006E R
(1782156467.755850) can0 120#000000000000006A R
(1782156467.770522) can0 541#00001000000400AC R
(1782156467.770678) can0 12D#000000000000008B R
(1782156467.770816) can0 12D#00000000000000BE R
(1782156467.770951) can0 12E#000000000000C0A5 R
(1782156467.771086) can0 121#00A701D10480009C R
(1782156467.771221) can0 129#000000010000008F R
(1782156467.786541) can0 540#0000401100018000 R
(1782156467.786786) can0 5B0#100000000000005E R
(1782156467.787026) can0 120#000000000000008B R
(1782156467.787263) can0 541#00001000000400C6 R
(1782156467.787500) can0 12D#00000000000000D4 R
(1782156467.787736) can0 12A#10050000000A0083 R
(1782156467.796748) can0 12D#0000000000000035 R
(1782156467.796996) can0 12E#000000000000C0CF R
(1782156467.797237) can0 121#00A701D1048000A9 R
(1782156467.797476) can0 129#00000001000000BA R
(1782156467.797715) can0 120#00000000000000BE R
(1782156467.797952) can0 541#0000100000040027 R
(1782156467.813819) can0 12D#000000000000005F R
(1782156467.814000) can0 450#0000000000002800 R
(1782156467.814112) can0 12D#000000000000006A R
(1782156467.814205) can0 12E#000000000000C02E R
(1782156467.814292) can0 121#00A701D1048000C3 R
(1782156467.814381) can0 129#00000001000000D0 R
(1782156467.827186) can0 120#00000000000000D4 R
(1782156467.827280) can0 541#000010000004004D R
(1782156467.827367) can0 12D#000000000000008B R
(1782156467.827452) can0 12D#00000000000000BE R
(1782156467.827536) can0 12E#000000000000C044 R
(1782156467.836642) can0 12A#10050000000A00B6 R
(1782156467.836768) can0 5A0#0000000004000051 R
(1782156467.836873) can0 121#00A701D104800022 R
(1782156467.836973) can0 129#0000000100000031 R
(1782156467.837073) can0 120#0000000000000035 R
(1782156467.837174) can0 541#0000100000040078 R
(1782156467.851670) can0 12D#00000000000000D4 R
(1782156467.851851) can0 12D#0000000000000035 R
(1782156467.851973) can0 12E#000000000000C071 R
(1782156467.852103) can0 450#0000000000002800 R
(1782156467.852215) can0 121#00A701D104800048 R
(1782156467.852319) can0 129#000000010000005B R
(1782156467.870246) can0 120#000000000000005F R
(1782156467.870394) can0 541#0000100000040099 R
(1782156467.870501) can0 12D#000000000000005F R
(1782156467.870605) can0 12D#000000000000006A R
(1782156467.870708) can0 12E#000000000000C090 R
(1782156467.870809) can0 121#00A701D10480007D R
(1782156467.876974) can0 129#000000010000006E R
(1782156467.877118) can0 540#0000401100018000 R
(1782156467.877235) can0 5B0#100000000000006B R
(1782156467.877344) can0 120#000000000000006A R
(1782156467.877454) can0 541#00001000000400AC R
(1782156467.877557) can0 12D#000000000000008B R
(1782156467.893889) can0 12A#10050000000A00DC R
(1782156467.894088) can0 12D#00000000000000BE R
(1782156467.894269) can0 12E#000000000000C0A5 R
(1782156467.894448) can0 121#00A701D10480009C R
(1782156467.894626) can0 129#000000010000008F R
(1782156467.894803) can0 120#000000000000008B R
(1782156467.910166) can0 541#00001000000400C6 R
(1782156467.910419) can0 12D#00000000000000D4 R
(1782156467.910664) can0 450#0000000000002800 R
(1782156467.910907) can0 12D#0000000000000035 R
(1782156467.911160) can0 12E#000000000000C0CF R
(1782156467.927602) can0 121#00A701D1048000A9 R
(1782156467.927748) can0 129#00000001000000BA R
(1782156467.927844) can0 120#00000000000000BE R
(1782156467.927943) can0 541#0000100000040027 R
(1782156467.928039) can0 12D#000000000000005F R
(1782156467.928134) can0 12D#000000000000006A R
(1782156467.935135) can0 12E#000000000000C02E R
(1782156467.935273) can0 12A#10050000000A003D R
(1782156467.935368) can0 5A0#0000000004000064 R
(1782156467.935457) can0 121#00A701D1048000C3 R
(1782156467.935544) can0 129#00000001000000D0 R
(1782156467.935634) can0 120#00000000000000D4 R
(1782156467.950243) can0 541#000010000004004D R
(1782156467.950378) can0 12D#000000000000008B R
(1782156467.950482) can0 12D#00000000000000BE R
(1782156467.950583) can0 12E#000000000000C044 R
(1782156467.950683) can0 450#0000000000002800 R
(1782156467.950783) can0 121#00A701D104800022 R
(1782156467.970035) can0 129#0000000100000031 R
(1782156467.970159) can0 120#0000000000000035 R
(1782156467.970263) can0 541#0000100000040078 R
(1782156467.970366) can0 12D#00000000000000D4 R
(1782156467.970469) can0 12D#0000000000000035 R
(1782156467.970575) can0 12E#000000000000C071 R
(1782156467.975131) can0 121#00A701D104800048 R
(1782156467.975247) can0 129#000000010000005B R
(1782156467.975361) can0 540#0000401100018000 R
(1782156467.975476) can0 5B0#100000000000008A R
(1782156467.975591) can0 120#000000000000005F R
(1782156467.990184) can0 541#0000100000040099 R
(1782156467.994286) can0 12D#000000000000005F R
(1782156467.994390) can0 12A#10050000000A0057 R
(1782156467.994488) can0 12D#000000000000006A R
(1782156467.994585) can0 12E#000000000000C090 R
(1782156467.994683) can0 121#00A701D10480007D R
(1782156468.006833) can0 129#000000010000006E R
(1782156468.006981) can0 120#000000000000006A R
(1782156468.007091) can0 541#00001000000400AC R
(1782156468.007195) can0 12D#000000000000008B R
(1782156468.007297) can0 450#0000000000002800 R
(1782156468.007399) can0 12D#00000000000000BE R
(1782156468.026589) can0 12E#000000000000C0A5 R
(1782156468.026752) can0 121#00A701D10480009C R
(1782156468.026873) can0 129#000000010000008F R
(1782156468.026982) can0 120#000000000000008B R
(1782156468.027088) can0 541#00001000000400C6 R
(1782156468.027193) can0 12D#00000000000000D4 R
(1782156468.031797) can0 12D#0000000000000035 R
(1782156468.031926) can0 12E#000000000000C0CF R
(1782156468.032042) can0 12A#10050000000A0062 R
(1782156468.032157) can0 5A0#0000000004000085 R
(1782156468.032272) can0 121#00A701D1048000A9 R
(1782156468.032387) can0 129#00000001000000BA R
(1782156468.047888) can0 120#00000000000000BE R
(1782156468.048136) can0 541#0000100000040027 R
(1782156468.048489) can0 12D#000000000000005F R
(1782156468.048759) can0 12D#000000000000006A R
(1782156468.049004) can0 12E#000000000000C02E R
(1782156468.049246) can0 450#0000000000002800 R
(1782156468.069222) can0 121#00A701D1048000C3 R
(1782156468.069410) can0 129#00000001000000D0 R
(1782156468.069507) can0 120#00000000000000D4 R
(1782156468.069596) can0 541#000010000004004D R
(1782156468.069672) can0 12D#000000000000008B R
(1782156468.071754) can0 12D#00000000000000BE R
(1782156468.071875) can0 12E#000000000000C044 R
(1782156468.071950) can0 121#00A701D104800022 R
(1782156468.072023) can0 129#0000000100000031 R
(1782156468.072096) can0 540#0000401100018000 R
(1782156468.072169) can0 5B0#10000000000000BF R
(1782156468.089991) can0 120#0000000000000035 R
(1782156468.090102) can0 541#0000100000040078 R
(1782156468.090189) can0 12D#00000000000000D4 R
(1782156468.092271) can0 12A#10050000000A0083 R
(1782156468.092382) can0 12D#0000000000000035 R
(1782156468.092476) can0 12E#000000000000C071 R
(1782156468.106522) can0 121#00A701D104800048 R
(1782156468.106637) can0 129#000000010000005B R
(1782156468.106729) can0 120#000000000000005F R
(1782156468.106816) can0 541#0000100000040099 R
(1782156468.106902) can0 12D#000000000000005F R
(1782156468.106988) can0 450#0000000000002800 R
(1782156468.116711) can0 12D#000000000000006A R
(1782156468.116820) can0 12E#000000000000C090 R
(1782156468.116925) can0 121#00A701D10480007D R
(1782156468.117027) can0 129#000000010000006E R
(1782156468.117127) can0 120#000000000000006A R
(1782156468.117227) can0 541#00001000000400AC R
(1782156468.130088) can0 12D#000000000000008B R
(1782156468.130196) can0 12D#00000000000000BE R
(1782156468.130298) can0 12E#000000000000C0A5 R
(1782156468.130400) can0 12A#10050000000A00B6 R
(1782156468.130501) can0 5A0#00000000040000B0 R
(1782156468.146713) can0 121#00A701D10480009C R
(1782156468.146836) can0 129#000000010000008F R
(1782156468.146940) can0 120#000000000000008B R
(1782156468.147040) can0 541#00001000000400C6 R
(1782156468.147140) can0 12D#00000000000000D4 R
(1782156468.147241) can0 12D#0000000000000035 R
(1782156468.156692) can0 12E#000000000000C0CF R
(1782156468.156881) can0 450#0000000000002800 R
(1782156468.160346) can0 121#00A701D1048000A9 R
(1782156468.160470) can0 129#00000001000000BA R
(1782156468.160578) can0 120#00000000000000BE R
(1782156468.160684) can0 541#0000100000040027 R
(1782156468.170886) can0 12D#000000000000005F R
(1782156468.171043) can0 12D#000000000000006A R
(1782156468.171184) can0 12E#000000000000C02E R
(1782156468.171321) can0 121#00A701D1048000C3 R
(1782156468.171459) can0 129#00000001000000D0 R
(1782156468.171603) can0 540#0000401100018000 R
(1782156468.186837) can0 5B0#10000000000000D5 R
(1782156468.187082) can0 120#00000000000000D4 R
(1782156468.187321) can0 541#000010000004004D R
(1782156468.187557) can0 12D#000000000000008B R
(1782156468.187794) can0 12A#10050000000A00DC R
(1782156468.188033) can0 12D#00000000000000BE R
(1782156468.196677) can0 12E#000000000000C044 R
(1782156468.196770) can0 121#00A701D104800022 R
(1782156468.196849) can0 129#0000000100000031 R
(1782156468.196925) can0 120#0000000000000035 R
(1782156468.197000) can0 541#0000100000040078 R
(1782156468.197074) can0 12D#00000000000000D4 R
(1782156468.211845) can0 450#0000000000002800 R
(1782156468.211934) can0 12D#0000000000000035 R
(1782156468.212020) can0 12E#000000000000C071 R
(1782156468.212105) can0 121#00A701D104800048 R
(1782156468.212190) can0 129#000000010000005B R
(1782156468.227422) can0 120#000000000000005F R
(1782156468.227520) can0 541#000010000004018F R
(1782156468.227609) can0 12D#000000000000005F R
(1782156468.227695) can0 12D#000000000000006A R
(1782156468.227781) can0 12E#000000000000C090 R
(1782156468.227866) can0 12A#10050000000A003D R
(1782156468.246547) can0 5A0#00000000040000DA R
(1782156468.246681) can0 121#00A701D10480007D R
(1782156468.246782) can0 129#000000010000006E R
(1782156468.246880) can0 120#000000000000006A R
(1782156468.246980) can0 541#00001000000401BA R
(1782156468.247080) can0 12D#000000000000008B R
(1782156468.255050) can0 12D#00000000000000BE R
(1782156468.255194) can0 12E#000000000000C0A5 R
(1782156468.255322) can0 450#0000000000002800 R
(1782156468.255440) can0 121#00A701D10480009C R
(1782156468.255559) can0 129#000000010000008F R
(1782156468.255684) can0 120#000000000000008B R
(1782156468.270549) can0 541#00001000000401D0 R
(1782156468.270679) can0 12D#00000000000000D4 R
(1782156468.270798) can0 12D#0000000000000035 R
(1782156468.270917) can0 12E#000000000000C0CF R
(1782156468.271033) can0 121#00A701D1048000A9 R
(1782156468.271151) can0 129#00000001000000BA R
(1782156468.276993) can0 540#0000401100018000 R
(1782156468.277143) can0 5B0#1000000000000034 R
(1782156468.277281) can0 120#00000000000000BE R
(1782156468.277416) can0 541#0000100000040131 R
(1782156468.277552) can0 12D#000000000000005F R
(1782156468.295037) can0 12A#10050000000A0057 R
(1782156468.295312) can0 12D#000000000000006A R
(1782156468.295554) can0 12E#000000000000C02E R
(1782156468.295791) can0 121#00A701D1048000C3 R
(1782156468.296026) can0 129#00000001000000D0 R
(1782156468.296262) can0 120#00000000000000D4 R
(1782156468.313988) can0 541#000010000004015B R
(1782156468.314208) can0 12D#000000000000008B R
(1782156468.314341) can0 450#0000000000002800 R
(1782156468.314451) can0 12D#00000000000000BE R
(1782156468.314558) can0 12E#000000000000C044 R
(1782156468.314661) can0 121#00A701D104800022 R
(1782156468.327073) can0 129#0000000100000031 R
(1782156468.327216) can0 120#0000000000000035 R
(1782156468.327325) can0 541#000010000004016E R
(1782156468.327429) can0 12D#00000000000000D4 R
(1782156468.327533) can0 12D#0000000000000035 R
(1782156468.327639) can0 12E#000000000000C071 R
(1782156468.336712) can0 12A#10050000000A0062 R
(1782156468.336861) can0 5A0#000000000400003B R
(1782156468.336997) can0 121#00A701D104800048 R
(1782156468.337132) can0 129#000000010000005B R
(1782156468.337270) can0 120#000000000000005F R
(1782156468.337405) can0 541#000010000004018F R
(1782156468.350391) can0 12D#000000000000005F R
(1782156468.350655) can0 12D#000000000000006A R
(1782156468.350900) can0 12E#000000000000C090 R
(1782156468.351142) can0 450#0000000000002800 R
(1782156468.351385) can0 121#00A701D10480007D R
(1782156468.351623) can0 129#000000010000006E R
(1782156468.370155) can0 120#000000000000006A R
(1782156468.370263) can0 541#00001000000401BA R
(1782156468.370340) can0 12D#000000000000008B R
(1782156468.370415) can0 12D#00000000000000BE R
(1782156468.370489) can0 12E#000000000000C0A5 R
(1782156468.376666) can0 121#00A701D10480009C R
(1782156468.376787) can0 129#000000010000008F R
(1782156468.376875) can0 540#0000401100018000 R
(1782156468.376961) can0 5B0#100000000000005E R
(1782156468.377046) can0 120#000000000000008B R
(1782156468.377130) can0 541#00001000000401D0 R
(1782156468.391707) can0 12D#00000000000000D4 R
(1782156468.391815) can0 12A#10050000000A0083 R
(1782156468.391901) can0 12D#0000000000000035 R
(1782156468.391988) can0 12E#000000000000C0CF R
(1782156468.392074) can0 121#00A701D1048000A9 R
(1782156468.392158) can0 129#00000001000000BA R
(1782156468.410115) can0 120#00000000000000BE R
(1782156468.410306) can0 541#0000100000040131 R
(1782156468.410409) can0 12D#000000000000005F R
(1782156468.410510) can0 450#0000000000002800 R
(1782156468.410608) can0 12D#000000000000006A R
(1782156468.410711) can0 12E#000000000000C02E R
(1782156468.427530) can0 121#00A701D1048000C3 R
(1782156468.427804) can0 129#00000001000000D0 R
(1782156468.427950) can0 120#00000000000000D4 R
(1782156468.428088) can0 541#000010000004015B R
(1782156468.428234) can0 12D#000000000000008B R
(1782156468.428370) can0 12D#00000000000000BE R
(1782156468.432070) can0 12E#000000000000C044 R
(1782156468.432218) can0 12A#10050000000A00B6 R
(1782156468.432356) can0 5A0#0000000004000051 R
(1782156468.432493) can0 121#00A701D104800022 R
(1782156468.432632) can0 129#0000000100000031 R
(1782156468.449972) can0 120#0000000000000035 R
(1782156468.450227) can0 541#000010000004016E R
(1782156468.450465) can0 12D#00000000000000D4 R
(1782156468.450702) can0 12D#0000000000000035 R
(1782156468.450938) can0 12E#000000000000C071 R
(1782156468.451171) can0 450#0000000000002800 R
(1782156468.466771) can0 121#00A701D104800048 R
(1782156468.467026) can0 129#000000010000005B R
(1782156468.467266) can0 120#000000000000005F R
(1782156468.467504) can0 541#000010000004018F R
(1782156468.467741) can0 12D#000000000000005F R
(1782156468.467976) can0 12D#000000000000006A R
(1782156468.475108) can0 12E#000000000000C090 R
(1782156468.475355) can0 121#00A701D10480007D R
(1782156468.475590) can0 129#000000010000006E R
(1782156468.475857) can0 540#0000401100018000 R
(1782156468.476092) can0 5B0#100000000000006B R
(1782156468.476326) can0 120#000000000000006A R
(1782156468.494309) can0 541#00001000000401BA R
(1782156468.494416) can0 12D#000000000000008B R
(1782156468.494515) can0 12A#10050000000A00DC R
(1782156468.494613) can0 12D#00000000000000BE R
(1782156468.494712) can0 12E#000000000000C0A5 R
(1782156468.494807) can0 121#00A701D10480009C R
(1782156468.506666) can0 129#000000010000008F R
(1782156468.506821) can0 120#000000000000008B R
(1782156468.506933) can0 541#00001000000401D0 R
(1782156468.507038) can0 12D#00000000000000D4 R
(1782156468.507141) can0 450#0000000000002800 R
(1782156468.507244) can0 12D#0000000000000035 R
(1782156468.516779) can0 12E#000000000000C0CF R
(1782156468.516889) can0 121#00A701D1048000A9 R
(1782156468.516992) can0 129#00000001000000BA R
(1782156468.517093) can0 120#00000000000000BE R
(1782156468.517194) can0 541#0000100000040131 R
(1782156468.530322) can0 12D#000000000000005F R
(1782156468.530472) can0 12D#000000000000006A R
(1782156468.530583) can0 12E#000000000000C02E R
(1782156468.530689) can0 12A#10050000000A003D R
(1782156468.530794) can0 5A0#0000000004000064 R
(1782156468.530898) can0 121#00A701D1048000C3 R
(1782156468.547823) can0 129#00000001000000D0 R
(1782156468.548096) can0 120#00000000000000D4 R
(1782156468.548343) can0 541#000010000004015B R
(1782156468.548583) can0 12D#000000000000008B R
(1782156468.548820) can0 12D#00000000000000BE R
(1782156468.549059) can0 12E#000000000000C044 R
(1782156468.566517) can0 450#0000000000002800 R
(1782156468.566638) can0 121#00A701D104800022 R
(1782156468.566731) can0 129#0000000100000031 R
(1782156468.566819) can0 120#0000000000000035 R
(1782156468.566905) can0 541#000010000004016E R
(1782156468.566993) can0 12D#00000000000000D4 R
(1782156468.571841) can0 12D#0000000000000035 R
(1782156468.571935) can0 12E#000000000000C071 R
(1782156468.572022) can0 121#00A701D104800048 R
(1782156468.572109) can0 129#000000010000005B R
(1782156468.572194) can0 540#0000401100018000 R
(1782156468.572279) can0 5B0#100000000000008A R
(1782156468.586815) can0 120#000000000000005F R
(1782156468.586922) can0 541#000010000004018F R
(1782156468.587023) can0 12D#000000000000005F R
(1782156468.587123) can0 12A#10050000000A0057 R
(1782156468.587223) can0 12D#000000000000006A R
(1782156468.597818) can0 12E#000000000000C090 R
(1782156468.597942) can0 121#00A701D10480007D R
(1782156468.598042) can0 129#000000010000006E R
(1782156468.598142) can0 120#000000000000006A R
(1782156468.598243) can0 541#00001000000401BA R
(1782156468.598344) can0 12D#000000000000008B R
(1782156468.615037) can0 450#0000000000002800 R
(1782156468.615174) can0 12D#00000000000000BE R
(1782156468.615279) can0 12E#000000000000C0A5 R
(1782156468.615385) can0 121#00A701D10480009C R
(1782156468.615488) can0 129#000000010000008F R
(1782156468.615591) can0 120#000000000000008B R
(1782156468.630098) can0 541#00001000000401D0 R
(1782156468.630257) can0 12D#00000000000000D4 R
(1782156468.630368) can0 12D#0000000000000035 R
(1782156468.630474) can0 12E#000000000000C0CF R
(1782156468.630581) can0 12A#10050000000A0062 R
(1782156468.630685) can0 5A0#0000000004000085 R
(1782156468.646839) can0 121#00A701D1048000A9 R
(1782156468.647095) can0 129#00000001000000BA R
(1782156468.647340) can0 120#00000000000000BE R
(1782156468.647581) can0 541#0000100000040131 R
(1782156468.647821) can0 12D#000000000000005F R
(1782156468.648060) can0 12D#000000000000006A R
(1782156468.655204) can0 12E#000000000000C02E R
(1782156468.655459) can0 450#0000000000002800 R
(1782156468.655701) can0 121#00A701D1048000C3 R
(1782156468.655939) can0 129#00000001000000D0 R
(1782156468.656315) can0 120#00000000000000D4 R
(1782156468.660033) can0 541#000010000004015B R
(1782156468.670617) can0 12D#000000000000008B R
(1782156468.670762) can0 12D#00000000000000BE R
(1782156468.670901) can0 12E#000000000000C044 R
(1782156468.671039) can0 121#00A701D104800022 R
(1782156468.671177) can0 129#0000000100000031 R
(1782156468.686464) can0 540#0000401100018000 R
(1782156468.686723) can0 5B0#10000000000000BF R
(1782156468.686965) can0 120#0000000000000035 R
(1782156468.687205) can0 541#000010000004016E R
(1782156468.687444) can0 12D#00000000000000D4 R
(1782156468.687683) can0 12A#10050000000A0083 R
(1782156468.696695) can0 12D#0000000000000035 R
(1782156468.696949) can0 12E#000000000000C071 R
(1782156468.697189) can0 121#00A701D104800048 R
(1782156468.697432) can0 129#000000010000005B R
(1782156468.697678) can0 120#000000000000005F R
(1782156468.697918) can0 541#000010000004018F R
(1782156468.711804) can0 12D#000000000000005F R
(1782156468.712058) can0 450#0000000000002800 R
(1782156468.712303) can0 12D#000000000000006A R
(1782156468.712556) can0 12E#000000000000C090 R
(1782156468.712798) can0 121#00A701D10480007D R
(1782156468.713039) can0 129#000000010000006E R
(1782156468.727692) can0 120#000000000000006A R
(1782156468.727797) can0 541#00001000000401BA R
(1782156468.727893) can0 12D#000000000000008B R
(1782156468.727988) can0 12D#00000000000000BE R
(1782156468.728082) can0 12E#000000000000C0A5 R
(1782156468.728176) can0 12A#10050000000A00B6 R
(1782156468.736816) can0 5A0#00000000040000B0 R
(1782156468.736992) can0 121#00A701D10480009C R
(1782156468.737106) can0 129#000000010000008F R
(1782156468.737212) can0 120#000000000000008B R
(1782156468.737316) can0 541#00001000000401D0 R
(1782156468.751735) can0 12D#00000000000000D4 R
(1782156468.751884) can0 12D#0000000000000035 R
(1782156468.751989) can0 12E#000000000000C0CF R
(1782156468.752094) can0 450#0000000000002800 R
(1782156468.752197) can0 121#00A701D1048000A9 R
(1782156468.752300) can0 129#00000001000000BA R
(1782156468.770263) can0 120#00000000000000BE R
(1782156468.770415) can0 541#0000100000040131 R
(1782156468.770553) can0 12D#000000000000005F R
(1782156468.770688) can0 12D#000000000000006A R
(1782156468.770823) can0 12E#000000000000C02E R
(1782156468.770957) can0 121#00A701D1048000C3 R
(1782156468.776908) can0 129#00000001000000D0 R
(1782156468.777160) can0 540#0000401100018000 R
(1782156468.777403) can0 5B0#10000000000000D5 R
(1782156468.777643) can0 120#00000000000000D4 R
(1782156468.777959) can0 541#000010000004015B R
(1782156468.778220) can0 12D#000000000000008B R
(1782156468.795026) can0 12A#10050000000A00DC R
(1782156468.795137) can0 12D#00000000000000BE R
(1782156468.795234) can0 12E#000000000000C044 R
(1782156468.795328) can0 121#00A701D104800022 R
(1782156468.795423) can0 129#0000000100000031 R
(1782156468.795526) can0 120#0000000000000035 R
(1782156468.811867) can0 541#000010000004016E R
(1782156468.812041) can0 12D#00000000000000D4 R
(1782156468.812172) can0 450#0000000000002800 R
(1782156468.812296) can0 12D#0000000000000035 R
(1782156468.812419) can0 12E#000000000000C071 R
(1782156468.812554) can0 121#00A701D104800048 R
(1782156468.826917) can0 129#000000010000005B R
(1782156468.827033) can0 120#000000000000005F R
(1782156468.827138) can0 541#000010000004018F R
(1782156468.827244) can0 12D#000000000000005F R
(1782156468.827348) can0 12D#000000000000006A R
(1782156468.835047) can0 12E#000000000000C090 R
(1782156468.835179) can0 12A#10050000000A003D R
(1782156468.835281) can0 5A0#00000000040000DA R
(1782156468.835385) can0 121#00A701D10480007D R
(1782156468.835488) can0 129#000000010000006E R
(1782156468.835592) can0 120#000000000000006A R
(1782156468.850244) can0 541#00001000000401BA R
(1782156468.850352) can0 12D#000000000000008B R
(1782156468.850455) can0 12D#00000000000000BE R
(1782156468.850559) can0 12E#000000000000C0A5 R
(1782156468.850663) can0 450#0000000000002800 R
(1782156468.850765) can0 121#00A701D10480009C R
(1782156468.870088) can0 129#000000010000008F R
(1782156468.870225) can0 120#000000000000008B R
(1782156468.870325) can0 541#00001000000401D0 R
(1782156468.870423) can0 12D#00000000000000D4 R
(1782156468.870519) can0 12D#0000000000000035 R
(1782156468.870616) can0 12E#000000000000C0CF R
(1782156468.876665) can0 121#00A701D1048000A9 R
(1782156468.876776) can0 129#00000001000000BA R
(1782156468.876882) can0 540#0000401100018000 R
(1782156468.876986) can0 5B0#1000000000000034 R
(1782156468.877089) can0 120#00000000000000BE R
(1782156468.877248) can0 541#0000100000040131 R
(1782156468.894642) can0 12D#000000000000005F R
(1782156468.894925) can0 12A#10050000000A0057 R
(1782156468.895176) can0 12D#000000000000006A R
(1782156468.895423) can0 12E#000000000000C02E R
(1782156468.895665) can0 121#00A701D1048000C3 R
(1782156468.906657) can0 129#00000001000000D0 R
(1782156468.906796) can0 120#00000000000000D4 R
(1782156468.906907) can0 541#000010000004015B R
(1782156468.907012) can0 12D#000000000000008B R
(1782156468.907117) can0 450#0000000000002800 R
(1782156468.907220) can0 12D#00000000000000BE R
(1782156468.926687) can0 12E#000000000000C044 R
(1782156468.926828) can0 121#00A701D104800022 R
(1782156468.926950) can0 129#0000000100000031 R
(1782156468.927071) can0 120#0000000000000035 R
(1782156468.927189) can0 541#000010000004016E R
(1782156468.927305) can0 12D#00000000000000D4 R
(1782156468.932021) can0 12D#0000000000000035 R
(1782156468.932152) can0 12E#000000000000C071 R
(1782156468.932271) can0 12A#10050000000A0062 R
(1782156468.932389) can0 5A0#000000000400003B R
(1782156468.932504) can0 121#00A701D104800048 R
(1782156468.932620) can0 129#000000010000005B R
(1782156468.950133) can0 120#000000000000005F R
(1782156468.950376) can0 541#000010000004018F R
(1782156468.950612) can0 12D#000000000000005F R
(1782156468.950848) can0 12D#000000000000006A R
(1782156468.951086) can0 12E#000000000000C090 R
(1782156468.951323) can0 450#0000000000002800 R
(1782156468.966596) can0 121#00A701D10480007D R
(1782156468.966840) can0 129#000000010000006E R
(1782156468.967080) can0 120#000000000000006A R
(1782156468.967317) can0 541#00001000000401BA R
(1782156468.967554) can0 12D#000000000000008B R
(1782156468.967793) can0 12D#00000000000000BE R
(1782156468.972047) can0 12E#000000000000C0A5 R
(1782156468.972285) can0 121#00A701D10480009C R
(1782156468.972521) can0 129#000000010000008F R
(1782156468.972758) can0 540#0000401100018000 R
(1782156468.972994) can0 5B0#100000000000005E R
(1782156468.990010) can0 120#000000000000008B R
(1782156468.994174) can0 541#00001000000401D0 R
(1782156468.994275) can0 12D#00000000000000D4 R
(1782156468.994371) can0 12A#10050000000A0083 R
(1782156468.994466) can0 12D#0000000000000035 R
(1782156468.994560) can0 12E#000000000000C0CF R
(1782156469.006581) can0 121#00A701D1048000A9 R
(1782156469.006738) can0 129#00000001000000BA R
(1782156469.006851) can0 120#00000000000000BE R
(1782156469.006958) can0 541#0000100000040131 R
(1782156469.007064) can0 12D#000000000000005F R
(1782156469.007167) can0 450#0000000000002800 R
(1782156469.016644) can0 12D#000000000000006A R
(1782156469.016784) can0 12E#000000000000C02E R
(1782156469.016916) can0 121#00A701D1048000C3 R
(1782156469.017019) can0 129#00000001000000D0 R
(1782156469.017120) can0 120#00000000000000D4 R
(1782156469.017221) can0 541#000010000004015B R
(1782156469.030405) can0 12D#000000000000008B R
(1782156469.030567) can0 12D#00000000000000BE R
(1782156469.030683) can0 12E#000000000000C044 R
(1782156469.030791) can0 12A#10050000000A00B6 R
(1782156469.030898) can0 5A0#0000000004000051 R
(1782156469.031013) can0 121#00A701D104800022 R
(1782156469.046860) can0 129#0000000100000031 R
(1782156469.047138) can0 120#0000000000000035 R
(1782156469.047383) can0 541#000010000004016E R
(1782156469.047625) can0 12D#00000000000000D4 R
(1782156469.047862) can0 12D#0000000000000035 R
(1782156469.056595) can0 12E#000000000000C071 R
(1782156469.056854) can0 450#0000000000002800 R
(1782156469.062755) can0 121#00A701D104800048 R
(1782156469.062953) can0 129#000000010000005B R
(1782156469.066219) can0 120#000000000000005F R
(1782156469.066333) can0 541#000010000004018F R
(1782156469.070786) can0 12D#000000000000005F R
(1782156469.070895) can0 12D#000000000000006A R
(1782156469.070971) can0 12E#000000000000C090 R
(1782156469.071047) can0 121#00A701D10480007D R
(1782156469.071121) can0 129#000000010000006E R
(1782156469.071195) can0 540#0000401100018000 R
(1782156469.086746) can0 5B0#100000000000006B R
(1782156469.086837) can0 120#000000000000006A R
(1782156469.086923) can0 541#00001000000401BA R
(1782156469.087008) can0 12D#000000000000008B R
(1782156469.087094) can0 12A#10050000000A00DC R
(1782156469.087179) can0 12D#00000000000000BE R
(1782156469.097902) can0 12E#000000000000C0A5 R
(1782156469.097999) can0 121#00A701D10480009C R
(1782156469.098087) can0 129#000000010000008F R
(1782156469.098173) can0 120#000000000000008B R
(1782156469.098259) can0 541#00001000000401D0 R
(1782156469.098347) can0 12D#00000000000000D4 R
(1782156469.111819) can0 450#0000000000002800 R
(1782156469.111925) can0 12D#0000000000000035 R
(1782156469.112016) can0 12E#000000000000C0CF R
(1782156469.112106) can0 121#00A701D1048000A9 R
(1782156469.112193) can0 129#00000001000000BA R
(1782156469.112281) can0 120#00000000000000BE R
(1782156469.127374) can0 541#0000100000040131 R
(1782156469.127514) can0 12D#000000000000005F R
(1782156469.127639) can0 12D#000000000000006A R
(1782156469.127746) can0 12E#000000000000C02E R
(1782156469.127868) can0 12A#10050000000A003D R
(1782156469.146516) can0 5A0#0000000004000064 R
(1782156469.146693) can0 121#00A701D1048000C3 R
(1782156469.146797) can0 129#00000001000000D0 R
(1782156469.146897) can0 120#00000000000000D4 R
(1782156469.147005) can0 541#000010000004015B R
(1782156469.147107) can0 12D#000000000000008B R
(1782156469.155014) can0 12D#00000000000000BE R
(1782156469.155146) can0 12E#000000000000C044 R
(1782156469.155265) can0 450#0000000000002800 R
(1782156469.155383) can0 121#00A701D104800022 R
(1782156469.155501) can0 129#0000000100000031 R
(1782156469.155618) can0 120#0000000000000035 R
(1782156469.170563) can0 541#000010000004016E R
(1782156469.170684) can0 12D#00000000000000D4 R
(1782156469.170788) can0 12D#0000000000000035 R
(1782156469.170890) can0 12E#000000000000C071 R
(1782156469.170996) can0 121#00A701D104800048 R
(1782156469.171100) can0 129#000000010000005B R
(1782156469.186645) can0 540#0000401100018000 R
(1782156469.186926) can0 5B0#100000000000008A R
(1782156469.187168) can0 120#000000000000005F R
(1782156469.187412) can0 541#000010000004018F R
(1782156469.187669) can0 12D#000000000000005F R
(1782156469.187914) can0 12A#10050000000A0057 R
(1782156469.195146) can0 12D#000000000000006A R
(1782156469.195269) can0 12E#000000000000C090 R
(1782156469.195384) can0 121#00A701D10480007D R
(1782156469.195500) can0 129#000000010000006E R
(1782156469.195615) can0 120#000000000000006A R
(1782156469.210266) can0 541#00001000000401BA R
(1782156469.210542) can0 12D#000000000000008B R
(1782156469.210789) can0 450#0000000000002800 R
(1782156469.211026) can0 12D#00000000000000BE R
(1782156469.211260) can0 12E#000000000000C0A5 R
(1782156469.211496) can0 121#00A701D10480009C R
(1782156469.227890) can0 129#000000010000008F R
(1782156469.228258) can0 120#000000000000008B R
(1782156469.228516) can0 541#00001000000402DF R
(1782156469.228768) can0 12D#00000000000000D4 R
(1782156469.229015) can0 12D#0000000000000035 R
(1782156469.229259) can0 12E#000000000000C0CF R
(1782156469.236681) can0 12A#10050000000A0062 R
(1782156469.236926) can0 5A0#0000000004000085 R
(1782156469.237164) can0 121#00A701D1048000A9 R
(1782156469.237418) can0 129#00000001000000BA R
(1782156469.237658) can0 120#00000000000000BE R
(1782156469.237895) can0 541#000010000004023E R
(1782156469.251851) can0 12D#000000000000005F R
(1782156469.252122) can0 12D#000000000000006A R
(1782156469.252369) can0 12E#000000000000C02E R
(1782156469.252610) can0 450#0000000000002800 R
(1782156469.252853) can0 121#00A701D1048000C3 R
(1782156469.253093) can0 129#00000001000000D0 R
(1782156469.270192) can0 120#00000000000000D4 R
(1782156469.270440) can0 541#0000100000040254 R
(1782156469.270677) can0 12D#000000000000008B R
(1782156469.270914) can0 12D#00000000000000BE R
(1782156469.271152) can0 12E#000000000000C044 R
(1782156469.271389) can0 121#00A701D104800022 R
(1782156469.276764) can0 129#0000000100000031 R
(1782156469.277004) can0 540#0000401100018000 R
(1782156469.277241) can0 5B0#10000000000000BF R
(1782156469.277478) can0 120#0000000000000035 R
(1782156469.277717) can0 541#0000100000040261 R
(1782156469.293818) can0 12D#00000000000000D4 R
(1782156469.294144) can0 12A#10050000000A0083 R
(1782156469.294424) can0 12D#0000000000000035 R
(1782156469.294671) can0 12E#000000000000C071 R
(1782156469.294916) can0 121#00A701D104800048 R
(1782156469.295163) can0 129#000000010000005B R
(1782156469.315788) can0 120#000000000000005F R
(1782156469.315974) can0 541#0000100000040280 R
(1782156469.316069) can0 12D#000000000000005F R
(1782156469.316148) can0 450#0000000000002800 R
(1782156469.316223) can0 12D#000000000000006A R
(1782156469.316301) can0 12E#000000000000C090 R
(1782156469.326825) can0 121#00A701D10480007D R
(1782156469.326920) can0 129#000000010000006E R
(1782156469.327005) can0 120#000000000000006A R
(1782156469.327091) can0 541#00001000000402B5 R
(1782156469.327175) can0 12D#000000000000008B R
(1782156469.327261) can0 12D#00000000000000BE R
(1782156469.335117) can0 12E#000000000000C0A5 R
(1782156469.335207) can0 12A#10050000000A00B6 R
(1782156469.335293) can0 5A0#00000000040000B0 R
(1782156469.335379) can0 121#00A701D10480009C R
(1782156469.335465) can0 129#000000010000008F R
(1782156469.335549) can0 120#000000000000008B R
(1782156469.350120) can0 541#00001000000402DF R
(1782156469.350226) can0 12D#00000000000000D4 R
(1782156469.350329) can0 12D#0000000000000035 R
(1782156469.350434) can0 12E#000000000000C0CF R
(1782156469.350534) can0 450#0000000000002800 R
(1782156469.366664) can0 121#00A701D1048000A9 R
(1782156469.366774) can0 129#00000001000000BA R
(1782156469.366875) can0 120#00000000000000BE R
(1782156469.366978) can0 541#000010000004023E R
(1782156469.367080) can0 12D#000000000000005F R
(1782156469.367180) can0 12D#000000000000006A R
(1782156469.375048) can0 12E#000000000000C02E R
(1782156469.375272) can0 121#00A701D1048000C3 R
(1782156469.375430) can0 129#00000001000000D0 R
(1782156469.375535) can0 540#0000401100018000 R
(1782156469.375637) can0 5B0#10000000000000D5 R
(1782156469.375739) can0 120#00000000000000D4 R
(1782156469.393812) can0 541#0000100000040254 R
(1782156469.394063) can0 12D#000000000000008B R
(1782156469.394218) can0 12A#10050000000A00DC R
(1782156469.394358) can0 12D#00000000000000BE R
(1782156469.394495) can0 12E#000000000000C044 R
(1782156469.394632) can0 121#00A701D104800022 R
(1782156469.406800) can0 129#0000000100000031 R
(1782156469.407054) can0 120#0000000000000035 R
(1782156469.407294) can0 541#0000100000040261 R
(1782156469.407535) can0 12D#00000000000000D4 R
(1782156469.407776) can0 450#0000000000002800 R
(1782156469.408014) can0 12D#0000000000000035 R
(1782156469.416742) can0 12E#000000000000C071 R
(1782156469.416998) can0 121#00A701D104800048 R
(1782156469.417244) can0 129#000000010000005B R
(1782156469.417486) can0 120#000000000000005F R
(1782156469.417728) can0 541#0000100000040280 R
(1782156469.417970) can0 12D#000000000000005F R
(1782156469.430436) can0 12D#000000000000006A R
(1782156469.430547) can0 12E#000000000000C090 R
(1782156469.430643) can0 12A#10050000000A003D R
(1782156469.430738) can0 5A0#00000000040000DA R
(1782156469.430831) can0 121#00A701D10480007D R
(1782156469.447811) can0 129#000000010000006E R
(1782156469.447915) can0 120#000000000000006A R
(1782156469.447984) can0 541#00001000000402B5 R
(1782156469.448047) can0 12D#000000000000008B R
(1782156469.448110) can0 12D#00000000000000BE R
(1782156469.448169) can0 12E#000000000000C0A5 R
(1782156469.466410) can0 450#0000000000002800 R
(1782156469.466506) can0 121#00A701D10480009C R
(1782156469.466575) can0 129#000000010000008F R
(1782156469.466642) can0 120#000000000000008B R
(1782156469.466707) can0 541#00001000000402DF R
(1782156469.466771) can0 12D#00000000000000D4 R
(1782156469.471867) can0 12D#0000000000000035 R
(1782156469.471945) can0 12E#000000000000C0CF R
(1782156469.472019) can0 121#00A701D1048000A9 R
(1782156469.472097) can0 129#00000001000000BA R
(1782156469.472173) can0 540#0000401100018000 R
(1782156469.472246) can0 5B0#1000000000000034 R
(1782156469.490076) can0 120#00000000000000BE R
(1782156469.490153) can0 541#000010000004023E R
(1782156469.491530) can0 12D#000000000000005F R
(1782156469.491682) can0 12A#10050000000A0057 R
(1782156469.491774) can0 12D#000000000000006A R
(1782156469.491860) can0 12E#000000000000C02E R
(1782156469.497899) can0 121#00A701D1048000C3 R
(1782156469.497987) can0 129#00000001000000D0 R
(1782156469.498072) can0 120#00000000000000D4 R
(1782156469.498157) can0 541#0000100000040254 R
(1782156469.498241) can0 12D#000000000000008B R
(1782156469.515044) can0 450#0000000000002800 R
(1782156469.515170) can0 12D#00000000000000BE R
(1782156469.515273) can0 12E#000000000000C044 R
(1782156469.515375) can0 121#00A701D104800022 R
(1782156469.515475) can0 129#0000000100000031 R
(1782156469.515575) can0 120#0000000000000035 R
(1782156469.530084) can0 541#0000100000040261 R
(1782156469.530196) can0 12D#00000000000000D4 R
(1782156469.530298) can0 12D#0000000000000035 R
(1782156469.530399) can0 12E#000000000000C071 R
(1782156469.530498) can0 12A#10050000000A0062 R
(1782156469.530598) can0 5A0#000000000400003B R
(1782156469.546733) can0 121#00A701D104800048 R
(1782156469.546925) can0 129#000000010000005B R
(1782156469.547055) can0 120#000000000000005F R
(1782156469.547178) can0 541#0000100000040280 R
(1782156469.547298) can0 12D#000000000000005F R
(1782156469.547419) can0 12D#000000000000006A R
(1782156469.556604) can0 12E#000000000000C090 R
(1782156469.556761) can0 450#0000000000002800 R
(1782156469.556991) can0 121#00A701D10480007D R
(1782156469.566674) can0 129#000000010000006E R
(1782156469.566777) can0 120#000000000000006A R
(1782156469.566936) can0 541#00001000000402B5 R
(1782156469.570633) can0 12D#000000000000008B R
(1782156469.570730) can0 12D#00000000000000BE R
(1782156469.570818) can0 12E#000000000000C0A5 R
(1782156469.570903) can0 121#00A701D10480009C R
(1782156469.570992) can0 129#000000010000008F R
(1782156469.571076) can0 540#0000401100018000 R
(1782156469.586531) can0 5B0#100000000000005E R
(1782156469.586665) can0 120#000000000000008B R
(1782156469.586769) can0 541#00001000000402DF R
(1782156469.586868) can0 12D#00000000000000D4 R
(1782156469.586968) can0 12A#10050000000A0083 R
(1782156469.596559) can0 12D#0000000000000035 R
(1782156469.596687) can0 12E#000000000000C0CF R
(1782156469.596793) can0 121#00A701D1048000A9 R
(1782156469.596903) can0 129#00000001000000BA R
(1782156469.597006) can0 120#00000000000000BE R
(1782156469.597110) can0 541#000010000004023E R
(1782156469.611839) can0 12D#000000000000005F R
(1782156469.611988) can0 450#0000000000002800 R
(1782156469.612098) can0 12D#000000000000006A R
(1782156469.612206) can0 12E#000000000000C02E R
(1782156469.612312) can0 121#00A701D1048000C3 R
(1782156469.612419) can0 129#00000001000000D0 R
(1782156469.627364) can0 120#00000000000000D4 R
(1782156469.627546) can0 541#0000100000040254 R
(1782156469.627711) can0 12D#000000000000008B R
(1782156469.627864) can0 12D#00000000000000BE R
(1782156469.628010) can0 12E#000000000000C044 R
(1782156469.628150) can0 12A#10050000000A00B6 R
(1782156469.646561) can0 5A0#0000000004000051 R
(1782156469.646814) can0 121#00A701D104800022 R
(1782156469.647053) can0 129#0000000100000031 R
(1782156469.647291) can0 120#0000000000000035 R
(1782156469.647527) can0 541#0000100000040261 R
(1782156469.647772) can0 12D#00000000000000D4 R
(1782156469.651938) can0 12D#0000000000000035 R
(1782156469.652177) can0 12E#000000000000C071 R
(1782156469.652414) can0 450#0000000000002800 R
(1782156469.652648) can0 121#00A701D104800048 R
(1782156469.652883) can0 129#000000010000005B R
(1782156469.670395) can0 120#000000000000005F R
(1782156469.670653) can0 541#0000100000040280 R
(1782156469.670893) can0 12D#000000000000005F R
(1782156469.671130) can0 12D#000000000000006A R
(1782156469.671367) can0 12E#000000000000C090 R
(1782156469.671603) can0 121#00A701D10480007D R
(1782156469.676836) can0 129#000000010000006E R
(1782156469.677087) can0 540#0000401100018000 R
(1782156469.677328) can0 5B0#100000000000006B R
(1782156469.677566) can0 120#000000000000006A R
(1782156469.677805) can0 541#00001000000402B5 R
(1782156469.678045) can0 12D#000000000000008B R
(1782156469.695132) can0 12A#10050000000A00DC R
(1782156469.695378) can0 12D#00000000000000BE R
(1782156469.695617) can0 12E#000000000000C0A5 R
(1782156469.695853) can0 121#00A701D10480009C R
(1782156469.696140) can0 129#000000010000008F R
(1782156469.696380) can0 120#000000000000008B R
(1782156469.710409) can0 541#00001000000402DF R
(1782156469.710653) can0 12D#00000000000000D4 R
(1782156469.710890) can0 450#0000000000002800 R
(1782156469.711130) can0 12D#0000000000000035 R
(1782156469.711366) can0 12E#000000000000C0CF R
(1782156469.711602) can0 121#00A701D1048000A9 R
(1782156469.727272) can0 129#00000001000000BA R
(1782156469.727370) can0 120#00000000000000BE R
(1782156469.727464) can0 541#000010000004023E R
(1782156469.727557) can0 12D#000000000000005F R
(1782156469.727650) can0 12D#000000000000006A R
(1782156469.727743) can0 12E#000000000000C02E R
(1782156469.730589) can0 12A#10050000000A003D R
(1782156469.730985) can0 5A0#0000000004000064 R
(1782156469.731094) can0 121#00A701D1048000C3 R
(1782156469.747806) can0 129#00000001000000D0 R
(1782156469.747971) can0 120#00000000000000D4 R
(1782156469.748111) can0 541#0000100000040254 R
(1782156469.748260) can0 12D#000000000000008B R
(1782156469.748403) can0 12D#00000000000000BE R
(1782156469.748540) can0 12E#000000000000C044 R
(1782156469.766582) can0 450#0000000000002800 R
(1782156469.766850) can0 121#00A701D104800022 R
(1782156469.767100) can0 129#0000000100000031 R
(1782156469.767342) can0 120#0000000000000035 R
(1782156469.767581) can0 541#0000100000040261 R
(1782156469.767820) can0 12D#00000000000000D4 R
(1782156469.770979) can0 12D#0000000000000035 R
(1782156469.771224) can0 12E#000000000000C071 R
(1782156469.771461) can0 121#00A701D104800048 R
(1782156469.771696) can0 129#000000010000005B R
(1782156469.771933) can0 540#0000401100018000 R
(1782156469.786634) can0 5B0#100000000000008A R
(1782156469.786915) can0 120#000000000000005F R
(1782156469.787173) can0 541#0000100000040280 R
(1782156469.787410) can0 12D#000000000000005F R
(1782156469.787646) can0 12A#10050000000A0057 R
(1782156469.787881) can0 12D#000000000000006A R
(1782156469.797920) can0 12E#000000000000C090 R
(1782156469.798057) can0 121#00A701D10480007D R
(1782156469.798152) can0 129#000000010000006E R
(1782156469.798239) can0 120#000000000000006A R
(1782156469.798326) can0 541#00001000000402B5 R
(1782156469.798413) can0 12D#000000000000008B R
(1782156469.815088) can0 450#0000000000002800 R
(1782156469.815194) can0 12D#00000000000000BE R
(1782156469.815283) can0 12E#000000000000C0A5 R
(1782156469.815370) can0 121#00A701D10480009C R
(1782156469.815458) can0 129#000000010000008F R
(1782156469.815545) can0 120#000000000000008B R
(1782156469.830159) can0 541#00001000000402DF R
(1782156469.830277) can0 12D#00000000000000D4 R
(1782156469.830381) can0 12D#0000000000000035 R
(1782156469.830484) can0 12E#000000000000C0CF R
(1782156469.830586) can0 12A#10050000000A0062 R
(1782156469.830688) can0 5A0#0000000004000085 R
(1782156469.846513) can0 121#00A701D1048000A9 R
(1782156469.846641) can0 129#00000001000000BA R
(1782156469.846741) can0 120#00000000000000BE R
(1782156469.846838) can0 541#000010000004023E R
(1782156469.846937) can0 12D#000000000000005F R
(1782156469.855026) can0 12D#000000000000006A R
(1782156469.855151) can0 12E#000000000000C02E R
(1782156469.855254) can0 450#0000000000002800 R
(1782156469.855356) can0 121#00A701D1048000C3 R
(1782156469.855458) can0 129#00000001000000D0 R
(1782156469.855561) can0 120#00000000000000D4 R
(1782156469.870612) can0 541#0000100000040254 R
(1782156469.870755) can0 12D#000000000000008B R
(1782156469.870858) can0 12D#00000000000000BE R
(1782156469.870957) can0 12E#000000000000C044 R
(1782156469.871055) can0 121#00A701D104800022 R
(1782156469.871155) can0 129#0000000100000031 R
(1782156469.886427) can0 540#0000401100018000 R
(1782156469.886624) can0 5B0#10000000000000BF R
(1782156469.886807) can0 120#0000000000000035 R
(1782156469.886985) can0 541#0000100000040261 R
(1782156469.887162) can0 12D#00000000000000D4 R
(1782156469.887342) can0 12A#10050000000A0083 R
(1782156469.896596) can0 12D#0000000000000035 R
(1782156469.896743) can0 12E#000000000000C071 R
(1782156469.896881) can0 121#00A701D104800048 R
(1782156469.897018) can0 129#000000010000005B R
(1782156469.897154) can0 120#000000000000005F R
(1782156469.897289) can0 541#0000100000040280 R
(1782156469.911920) can0 12D#000000000000005F R
(1782156469.912169) can0 450#0000000000002800 R
(1782156469.912406) can0 12D#000000000000006A R
(1782156469.912642) can0 12E#000000000000C090 R
(1782156469.912879) can0 121#00A701D10480007D R
(1782156469.913115) can0 129#000000010000006E R
(1782156469.927601) can0 120#000000000000006A R
(1782156469.927705) can0 541#00001000000402B5 R
(1782156469.927802) can0 12D#000000000000008B R
(1782156469.927898) can0 12D#00000000000000BE R
(1782156469.927993) can0 12E#000000000000C0A5 R
(1782156469.936585) can0 12A#10050000000A00B6 R
(1782156469.936738) can0 5A0#00000000040000B0 R
(1782156469.936851) can0 121#00A701D10480009C R
(1782156469.936960) can0 129#000000010000008F R
(1782156469.937067) can0 120#000000000000008B R
(1782156469.937177) can0 541#00001000000402DF R
(1782156469.952062) can0 12D#00000000000000D4 R
(1782156469.952199) can0 12D#0000000000000035 R
(1782156469.952307) can0 12E#000000000000C0CF R
(1782156469.952415) can0 450#0000000000002800 R
(1782156469.952523) can0 121#00A701D1048000A9 R
(1782156469.952633) can0 129#00000001000000BA R
(1782156469.970372) can0 120#00000000000000BE R
(1782156469.970523) can0 541#000010000004023E R
(1782156469.970661) can0 12D#000000000000005F R
(1782156469.970798) can0 12D#000000000000006A R
(1782156469.970936) can0 12E#000000000000C02E R
(1782156469.971072) can0 121#00A701D1048000C3 R
(1782156469.976823) can0 129#00000001000000D0 R
(1782156469.977001) can0 540#0000401100018000 R
(1782156469.977175) can0 5B0#10000000000000D5 R
(1782156469.977350) can0 120#00000000000000D4 R
(1782156469.977524) can0 541#0000100000040254 R
(1782156469.977696) can0 12D#000000000000008B R
(1782156469.994441) can0 12A#10050000000A00DC R
(1782156469.994548) can0 12D#00000000000000BE R
(1782156469.994645) can0 12E#000000000000C044 R
(1782156469.994740) can0 121#00A701D104800022 R
(1782156469.994834) can0 129#0000000100000031 R
(1782156470.010161) can0 120#0000000000000035 R
(1782156470.010351) can0 541#0000100000040261 R
(1782156470.010476) can0 12D#00000000000000D4 R
(1782156470.010584) can0 450#0000000000002800 R
(1782156470.010692) can0 12D#0000000000000035 R
(1782156470.010797) can0 12E#000000000000C071 R
(1782156470.026846) can0 121#00A701D104800048 R
(1782156470.027005) can0 129#000000010000005B R
(1782156470.027114) can0 120#000000000000005F R
(1782156470.027218) can0 541#0000100000040280 R
(1782156470.027323) can0 12D#000000000000005F R
(1782156470.027490) can0 12D#000000000000006A R
(1782156470.035080) can0 12E#000000000000C090 R
(1782156470.035212) can0 12A#10050000000A003D R
(1782156470.035329) can0 5A0#00000000040000DA R
(1782156470.035446) can0 121#00A701D10480007D R
(1782156470.035563) can0 129#000000010000006E R
(1782156470.035682) can0 120#000000000000006A R
(1782156470.050506) can0 541#00001000000402B5 R
(1782156470.050752) can0 12D#000000000000008B R
(1782156470.050990) can0 12D#00000000000000BE R
(1782156470.051230) can0 12E#000000000000C0A5 R
(1782156470.051475) can0 450#0000000000002800 R
(1782156470.051715) can0 121#00A701D10480009C R
(1782156470.070359) can0 129#000000010000008F R
(1782156470.070463) can0 120#000000000000008B R
(1782156470.070544) can0 541#00001000000402DF R
(1782156470.070624) can0 12D#00000000000000D4 R
(1782156470.070699) can0 12D#0000000000000035 R
(1782156470.070773) can0 12E#000000000000C0CF R
(1782156470.075135) can0 121#00A701D1048000A9 R
(1782156470.075227) can0 129#00000001000000BA R
(1782156470.075318) can0 540#0000401100018000 R
(1782156470.075404) can0 5B0#1000000000000034 R
(1782156470.075491) can0 120#00000000000000BE R
(1782156470.091593) can0 541#000010000004023E R
(1782156470.091747) can0 12D#000000000000005F R
(1782156470.091842) can0 12A#10050000000A0057 R
(1782156470.091930) can0 12D#000000000000006A R
(1782156470.092016) can0 12E#000000000000C02E R
(1782156470.092101) can0 121#00A701D1048000C3 R
(1782156470.106696) can0 129#00000001000000D0 R
(1782156470.106802) can0 120#00000000000000D4 R
(1782156470.106889) can0 541#0000100000040254 R
(1782156470.106988) can0 12D#000000000000008B R
(1782156470.107073) can0 450#0000000000002800 R
(1782156470.107158) can0 12D#00000000000000BE R
(1782156470.126600) can0 12E#000000000000C044 R
(1782156470.126798) can0 121#00A701D104800022 R
(1782156470.126906) can0 129#0000000100000031 R
(1782156470.127013) can0 120#0000000000000035 R
(1782156470.127116) can0 541#0000100000040261 R
(1782156470.127217) can0 12D#00000000000000D4 R
(1782156470.131873) can0 12D#0000000000000035 R
(1782156470.132011) can0 12E#000000000000C071 R
(1782156470.132125) can0 12A#10050000000A0062 R
(1782156470.132234) can0 5A0#000000000400003B R
(1782156470.132346) can0 121#00A701D104800048 R
(1782156470.132454) can0 129#000000010000005B R
(1782156470.147849) can0 120#000000000000005F R
(1782156470.147998) can0 541#0000100000040280 R
(1782156470.148117) can0 12D#000000000000005F R
(1782156470.148243) can0 12D#000000000000006A R
(1782156470.148367) can0 12E#000000000000C090 R
(1782156470.166388) can0 450#0000000000002800 R
(1782156470.166662) can0 121#00A701D10480007D R
(1782156470.166905) can0 129#000000010000006E R
(1782156470.167147) can0 120#000000000000006A R
(1782156470.167386) can0 541#00001000000402B5 R
(1782156470.167625) can0 12D#000000000000008B R
(1782156470.171870) can0 12D#00000000000000BE R
(1782156470.172124) can0 12E#000000000000C0A5 R
(1782156470.172363) can0 121#00A701D10480009C R
(1782156470.172600) can0 129#000000010000008F R
(1782156470.172840) can0 540#0000401100018000 R
(1782156470.173081) can0 5B0#100000000000005E R
(1782156470.190146) can0 120#000000000000008B R
(1782156470.194674) can0 541#00001000000402DF R
(1782156470.194778) can0 12D#00000000000000D4 R
(1782156470.194868) can0 12A#10050000000A0083 R
(1782156470.194955) can0 12D#0000000000000035 R
(1782156470.195042) can0 12E#000000000000C0CF R
(1782156470.206467) can0 121#00A701D1048000A9 R
(1782156470.206556) can0 129#00000001000000BA R
(1782156470.206642) can0 120#00000000000000BE R
(1782156470.206728) can0 541#000010000004023E R
(1782156470.206814) can0 12D#000000000000005F R
(1782156470.206900) can0 450#0000000000002800 R
(1782156470.216581) can0 12D#000000000000006A R
(1782156470.216687) can0 12E#000000000000C02E R
(1782156470.216789) can0 121#00A701D1048000C3 R
(1782156470.216890) can0 129#00000001000000D0 R
(1782156470.216992) can0 120#00000000000000D4 R
(1782156470.217094) can0 541#0000100000040342 R
(1782156470.230228) can0 12D#000000000000008B R
(1782156470.230343) can0 12D#00000000000000BE R
(1782156470.230449) can0 12E#000000000000C044 R
(1782156470.230552) can0 12A#10050000000A00B6 R
(1782156470.230654) can0 5A0#0000000004000051 R
(1782156470.246635) can0 121#00A701D104800022 R
(1782156470.246824) can0 129#0000000100000031 R
(1782156470.246965) can0 120#0000000000000035 R
(1782156470.247105) can0 541#0000100000040377 R
(1782156470.247247) can0 12D#00000000000000D4 R
(1782156470.247387) can0 12D#0000000000000035 R
(1782156470.256614) can0 12E#000000000000C071 R
(1782156470.256806) can0 450#0000000000002800 R
(1782156470.260890) can0 121#00A701D104800048 R
(1782156470.261105) can0 129#000000010000005B R
(1782156470.261224) can0 120#000000000000005F R
(1782156470.261331) can0 541#0000100000040396 R
(1782156470.270891) can0 12D#000000000000005F R
(1782156470.271044) can0 12D#000000000000006A R
(1782156470.271184) can0 12E#000000000000C090 R
(1782156470.271322) can0 121#00A701D10480007D R
(1782156470.271460) can0 129#000000010000006E R
(1782156470.271600) can0 540#0000401100018000 R
(1782156470.286712) can0 5B0#100000000000006B R
(1782156470.286962) can0 120#000000000000006A R
(1782156470.287206) can0 541#00001000000403A3 R
(1782156470.287447) can0 12D#000000000000008B R
(1782156470.287694) can0 12A#10050000000A00DC R
(1782156470.287936) can0 12D#00000000000000BE R
(1782156470.296686) can0 12E#000000000000C0A5 R
(1782156470.296943) can0 121#00A701D10480009C R
(1782156470.297185) can0 129#000000010000008F R
(1782156470.297424) can0 120#000000000000008B R
(1782156470.297663) can0 541#00001000000403C9 R
(1782156470.315604) can0 12D#00000000000000D4 R
(1782156470.315826) can0 450#0000000000002800 R
(1782156470.315941) can0 12D#0000000000000035 R
(1782156470.316114) can0 12E#000000000000C0CF R
(1782156470.316266) can0 121#00A701D1048000A9 R
(1782156470.316428) can0 129#00000001000000BA R
(1782156470.327203) can0 120#00000000000000BE R
(1782156470.327341) can0 541#0000100000040328 R
(1782156470.327461) can0 12D#000000000000005F R
(1782156470.327594) can0 12D#000000000000006A R
(1782156470.327722) can0 12E#000000000000C02E R
(1782156470.327855) can0 12A#10050000000A003D R
(1782156470.346487) can0 5A0#0000000004000064 R
(1782156470.346758) can0 121#00A701D1048000C3 R
(1782156470.347003) can0 129#00000001000000D0 R
(1782156470.347242) can0 120#00000000000000D4 R
(1782156470.347478) can0 541#0000100000040342 R
(1782156470.347715) can0 12D#000000000000008B R
(1782156470.355057) can0 12D#00000000000000BE R
(1782156470.355187) can0 12E#000000000000C044 R
(1782156470.355295) can0 450#0000000000002800 R
(1782156470.355402) can0 121#00A701D104800022 R
(1782156470.355527) can0 129#0000000100000031 R
(1782156470.355632) can0 120#0000000000000035 R
(1782156470.370702) can0 541#0000100000040377 R
(1782156470.370855) can0 12D#00000000000000D4 R
(1782156470.371025) can0 12D#0000000000000035 R
(1782156470.371179) can0 12E#000000000000C071 R
(1782156470.371322) can0 121#00A701D104800048 R
(1782156470.371461) can0 129#000000010000005B R
(1782156470.376880) can0 540#0000401100018000 R
(1782156470.377087) can0 5B0#100000000000008A R
(1782156470.377269) can0 120#000000000000005F R
(1782156470.377462) can0 541#0000100000040396 R
(1782156470.377654) can0 12D#000000000000005F R
(1782156470.395065) can0 12A#10050000000A0057 R
(1782156470.395193) can0 12D#000000000000006A R
(1782156470.395299) can0 12E#000000000000C090 R
(1782156470.395403) can0 121#00A701D10480007D R
(1782156470.395506) can0 129#000000010000006E R
(1782156470.395609) can0 120#000000000000006A R
(1782156470.410451) can0 541#00001000000403A3 R
(1782156470.410697) can0 12D#000000000000008B R
(1782156470.410936) can0 450#0000000000002800 R
(1782156470.411174) can0 12D#00000000000000BE R
(1782156470.411417) can0 12E#000000000000C0A5 R
(1782156470.411653) can0 121#00A701D10480009C R
(1782156470.428294) can0 129#000000010000008F R
(1782156470.428561) can0 120#000000000000008B R
(1782156470.428809) can0 541#00001000000403C9 R
(1782156470.428972) can0 12D#00000000000000D4 R
(1782156470.429110) can0 12D#0000000000000035 R
(1782156470.429250) can0 12E#000000000000C0CF R
(1782156470.436551) can0 12A#10050000000A0062 R
(1782156470.436736) can0 5A0#0000000004000085 R
(1782156470.436914) can0 121#00A701D1048000A9 R
(1782156470.437090) can0 129#00000001000000BA R
(1782156470.437265) can0 120#00000000000000BE R
(1782156470.437441) can0 541#0000100000040328 R
(1782156470.450702) can0 12D#000000000000005F R
(1782156470.450949) can0 12D#000000000000006A R
(1782156470.451188) can0 12E#000000000000C02E R
(1782156470.451429) can0 450#0000000000002800 R
(1782156470.451670) can0 121#00A701D1048000C3 R
(1782156470.470081) can0 129#00000001000000D0 R
(1782156470.470350) can0 120#00000000000000D4 R
(1782156470.470591) can0 541#0000100000040342 R
(1782156470.470829) can0 12D#000000000000008B R
(1782156470.471065) can0 12D#00000000000000BE R
(1782156470.471303) can0 12E#000000000000C044 R
(1782156470.476548) can0 121#00A701D104800022 R
(1782156470.476809) can0 129#0000000100000031 R
(1782156470.477047) can0 540#0000401100018000 R
(1782156470.477285) can0 5B0#10000000000000BF R
(1782156470.477521) can0 120#0000000000000035 R
(1782156470.477757) can0 541#0000100000040377 R
(1782156470.493363) can0 12D#00000000000000D4 R
(1782156470.493525) can0 12A#10050000000A0083 R
(1782156470.493651) can0 12D#0000000000000035 R
(1782156470.493770) can0 12E#000000000000C071 R
(1782156470.493901) can0 121#00A701D104800048 R
(1782156470.494018) can0 129#000000010000005B R
(1782156470.510228) can0 120#000000000000005F R
(1782156470.510496) can0 541#0000100000040396 R
(1782156470.510740) can0 12D#000000000000005F R
(1782156470.510980) can0 450#0000000000002800 R
(1782156470.511277) can0 12D#000000000000006A R
(1782156470.511623) can0 12E#000000000000C090 R
(1782156470.528288) can0 121#00A701D10480007D R
(1782156470.528396) can0 129#000000010000006E R
(1782156470.528496) can0 120#000000000000006A R
(1782156470.528594) can0 541#00001000000403A3 R
(1782156470.528690) can0 12D#000000000000008B R
(1782156470.528787) can0 12D#00000000000000BE R
(1782156470.532032) can0 12E#000000000000C0A5 R
(1782156470.532182) can0 12A#10050000000A00B6 R
(1782156470.532276) can0 5A0#00000000040000B0 R
(1782156470.532366) can0 121#00A701D10480009C R
(1782156470.532452) can0 129#000000010000008F R
(1782156470.550112) can0 120#000000000000008B R
(1782156470.550224) can0 541#00001000000403C9 R
(1782156470.550311) can0 12D#00000000000000D4 R
(1782156470.550400) can0 12D#0000000000000035 R
(1782156470.550484) can0 12E#000000000000C0CF R
(1782156470.550570) can0 450#0000000000002800 R
(1782156470.566612) can0 121#00A701D1048000A9 R
(1782156470.566719) can0 129#00000001000000BA R
(1782156470.566812) can0 120#00000000000000BE R
(1782156470.566898) can0 541#0000100000040328 R
(1782156470.566984) can0 12D#000000000000005F R
(1782156470.567069) can0 12D#000000000000006A R
(1782156470.575108) can0 12E#000000000000C02E R
(1782156470.575197) can0 121#00A701D1048000C3 R
(1782156470.575282) can0 129#00000001000000D0 R
(1782156470.575367) can0 540#0000401100018000 R
(1782156470.575451) can0 5B0#10000000000000D5 R
(1782156470.575535) can0 120#00000000000000D4 R
(1782156470.591594) can0 541#0000100000040342 R
