(1781710766.641905) can0 12D#0000000000000000 R
(1781710766.642339) can0 12D#0000000000000000 R
(1781710766.642659) can0 12D#0000000000000000 R
(1781710766.642920) can0 12D#0000000000000000 R
(1781710766.643158) can0 12D#0000000000000000 R
(1781710766.643393) can0 12D#0000000000000000 R
(1781710766.643625) can0 12D#0000000000000000 R
(1781710766.643737) can0 12D#0000000000000000 R
(1781710766.643847) can0 12D#0000000000000000 R
(1781710766.644270) can0 12D#0000000000000000 R
(1781710766.644410) can0 12D#0000000000000000 R
(1781710766.644517) can0 12D#0000000000000000 R
(1781710766.644621) can0 12D#0000000000000000 R
(1781710766.644722) can0 12D#0000000000000000 R
(1781710766.644825) can0 12D#0000000000000000 R
(1781710766.645716) can0 12D#0000000000000000 R
(1781710766.645827) can0 12D#0000000000000000 R
(1781710766.645931) can0 12D#0000000000000000 R
(1781710766.646032) can0 12D#0000000000000000 R
(1781710766.646132) can0 12D#0000000000000000 R
(1781710766.646233) can0 12D#0000000000000000 R
(1781710766.647388) can0 12D#0000000000000035 R
(1781710766.647502) can0 12D#0000000000000035 R
(1781710766.647605) can0 12D#0000000000000035 R
(1781710766.647707) can0 12D#0000000000000035 R
(1781710766.647809) can0 12D#0000000000000035 R
(1781710766.648936) can0 12D#0000000000000035 R
(1781710766.649061) can0 12D#0000000000000035 R
(1781710766.649167) can0 12D#0000000000000035 R
(1781710766.649270) can0 12D#0000000000000035 R
(1781710766.649371) can0 12D#0000000000000035 R
(1781710766.649473) can0 12D#0000000000000035 R
(1781710766.650624) can0 12D#0000000000000035 R
(1781710766.650736) can0 12D#0000000000000035 R
(1781710766.650837) can0 12D#0000000000000035 R
(1781710766.650938) can0 12D#0000000000000035 R
(1781710766.651039) can0 12D#0000000000000035 R
(1781710766.651141) can0 12D#0000000000000035 R
(1781710766.652244) can0 12D#0000000000000035 R
(1781710766.652361) can0 12D#0000000000000035 R
(1781710766.652473) can0 12D#0000000000000035 R
(1781710766.652602) can0 12D#0000000000000035 R
(1781710766.652715) can0 12D#0000000000000035 R
(1781710766.652828) can0 12D#0000000000000035 R
(1781710766.653909) can0 12D#0000000000000035 R
(1781710766.654023) can0 12D#0000000000000035 R
(1781710766.654136) can0 12D#0000000000000035 R
(1781710766.654247) can0 12D#0000000000000035 R
(1781710766.654358) can0 12D#0000000000000035 R
(1781710766.654469) can0 12D#0000000000000035 R
(1781710766.655279) can0 12D#0000000000000035 R
(1781710766.655432) can0 12D#0000000000000035 R
(1781710766.655556) can0 12D#0000000000000035 R
(1781710766.655672) can0 12D#0000000000000035 R
(1781710766.655787) can0 12D#0000000000000035 R
(1781710766.656853) can0 12D#0000000000000035 R
(1781710766.656992) can0 12D#0000000000000035 R
(1781710766.657106) can0 12D#0000000000000035 R
(1781710766.657218) can0 12D#000000000000005F R
(1781710766.657331) can0 12D#000000000000005F R
(1781710766.657446) can0 12D#000000000000005F R
(1781710766.658607) can0 12D#000000000000005F R
(1781710766.658732) can0 12D#000000000000005F R
(1781710766.658844) can0 12D#000000000000005F R
(1781710766.658956) can0 12D#000000000000005F R
(1781710766.659074) can0 12D#000000000000005F R
(1781710766.659186) can0 12D#000000000000005F R
(1781710766.666115) can0 12D#000000000000005F R
(1781710766.666292) can0 12D#000000000000005F R
(1781710766.666463) can0 12D#000000000000005F R
(1781710766.666632) can0 12D#000000000000005F R
(1781710766.666801) can0 12E#0000000000000000 R
(1781710766.666970) can0 12D#000000000000006A R
(1781710766.676102) can0 12E#0000000000000035 R
(1781710766.676341) can0 121#0000000004840010 R
(1781710766.676573) can0 129#0000000100000004 R
(1781710766.676803) can0 540#0000000000000000 R
(1781710766.677041) can0 5B0#0000000000000000 R
(1781710766.677272) can0 120#0000000000000000 R
(1781710766.689966) can0 12D#000000000000008B R
(1781710766.690205) can0 12A#10010000000A001D R
(1781710766.690438) can0 12D#00000000000000BE R
(1781710766.690669) can0 12E#000000000000005F R
(1781710766.690898) can0 121#0000000004840025 R
(1781710766.691128) can0 129#0000000100000031 R
(1781710766.706262) can0 120#0000000000000035 R
(1781710766.706517) can0 12D#00000000000000D4 R
(1781710766.707332) can0 12D#0000000000000035 R
(1781710766.726345) can0 12E#000000000000006A R
(1781710766.726474) can0 121#00AC01D604800053 R
(1781710766.726576) can0 129#000000010000005B R
(1781710766.726674) can0 120#000000000000005F R
(1781710766.726770) can0 12D#000000000000005F R
(1781710766.726895) can0 12D#000000000000006A R
(1781710766.736198) can0 12E#000000000000008B R
(1781710766.736377) can0 12A#10010000000A0028 R
(1781710766.736492) can0 5A0#0000000000000000 R
(1781710766.736604) can0 121#00AC01D604800066 R
(1781710766.736716) can0 129#000000010000006E R
(1781710766.736828) can0 120#000000000000006A R
(1781710766.751581) can0 12D#000000000000008B R
(1781710766.751857) can0 12D#00000000000000BE R
(1781710766.752094) can0 12E#00000000000000BE R
(1781710766.752336) can0 121#00AC01D604800087 R
(1781710766.752571) can0 129#000000010000008F R
(1781710766.770212) can0 120#000000000000008B R
(1781710766.770488) can0 12D#00000000000000D4 R
(1781710766.770725) can0 12D#0000000000000035 R
(1781710766.770965) can0 12E#00000000000000D4 R
(1781710766.771249) can0 121#00AC01D6048000B2 R
(1781710766.771492) can0 129#00000001000000BA R
(1781710766.786173) can0 540#000000010000FF00 R
(1781710766.786425) can0 5B0#0000000000000035 R
(1781710766.786660) can0 120#00000000000000BE R
(1781710766.786892) can0 12D#000000000000005F R
(1781710766.787121) can0 12A#10010000000A0042 R
(1781710766.787355) can0 12D#000000000000006A R
(1781710766.806246) can0 12E#0000000000000035 R
(1781710766.806499) can0 121#00AC01D6048000D8 R
(1781710766.806738) can0 129#00000001000000D0 R
(1781710766.806972) can0 120#00000000000000D4 R
(1781710766.807208) can0 12D#000000000000008B R
(1781710766.807441) can0 12D#00000000000000BE R
(1781710766.826361) can0 12E#000000000000005F R
(1781710766.826616) can0 121#00AC01D604800039 R
(1781710766.826850) can0 129#0000000100000031 R
(1781710766.827086) can0 120#0000000000000035 R
(1781710766.827318) can0 12D#00000000000000D4 R
(1781710766.827552) can0 12D#0000000000000035 R
(1781710766.831566) can0 12E#000000000000006A R
(1781710766.831811) can0 12A#10010000000A0077 R
(1781710766.832045) can0 5A0#0000000000000035 R
(1781710766.832276) can0 121#00AC01D604800053 R
(1781710766.832507) can0 129#000000010000005B R
(1781710766.832736) can0 120#000000000000005F R
(1781710766.851511) can0 12D#000000000000005F R
(1781710766.851752) can0 12D#000000000000006A R
(1781710766.851984) can0 12E#000000000000008B R
(1781710766.852300) can0 121#00AC01D604800066 R
(1781710766.852571) can0 129#000000010000006E R
(1781710766.870135) can0 120#000000000000006A R
(1781710766.870387) can0 12D#000000000000008B R
(1781710766.870621) can0 12D#00000000000000BE R
(1781710766.870853) can0 12E#00000000000000BE R
(1781710766.871082) can0 121#00AC01D604800087 R
(1781710766.871314) can0 129#000000010000008F R
(1781710766.885919) can0 540#000000010000FF00 R
(1781710766.886160) can0 5B0#100000000000005E R
(1781710766.886391) can0 120#000000000000008B R
(1781710766.886644) can0 541#0001100000070F1A R
(1781710766.886876) can0 12D#00000000000000D4 R
(1781710766.887107) can0 12A#10010000000A0096 R
(1781710766.896222) can0 12D#0000000000000035 R
(1781710766.896479) can0 12E#00000000000000D4 R
(1781710766.896715) can0 121#00AC01D6048000B2 R
(1781710766.897048) can0 129#00000001000000BA R
(1781710766.897321) can0 120#00000000000000BE R
(1781710766.897568) can0 541#0001100000070F2F R
(1781710766.911421) can0 12D#000000000000005F R
(1781710766.911673) can0 450#0000000000002800 R
(1781710766.911905) can0 12D#000000000000006A R
(1781710766.912137) can0 12E#0000000000000035 R
(1781710766.912368) can0 121#00A601CF048000D9 R
(1781710766.912598) can0 129#00000001000000D0 R
(1781710766.926658) can0 120#00000000000000D4 R
(1781710766.926906) can0 541#0001100000070F45 R
(1781710766.927141) can0 12D#000000000000008B R
(1781710766.927373) can0 12D#00000000000000BE R
(1781710766.927606) can0 12E#000000000000005F R
(1781710766.936080) can0 12A#10010000000A00A3 R
(1781710766.936335) can0 5A0#000000000000005F R
(1781710766.936613) can0 121#00A601CF04800038 R
(1781710766.936846) can0 129#0000000100000031 R
(1781710766.937078) can0 120#0000000000000035 R
(1781710766.937311) can0 541#0001100000070F70 R
(1781710766.951288) can0 12D#00000000000000D4 R
(1781710766.951536) can0 12D#0000000000000035 R
(1781710766.951769) can0 12E#000000000000006A R
(1781710766.952004) can0 450#0000000000002800 R
(1781710766.952238) can0 121#00A601CF04800052 R
(1781710766.952471) can0 129#000000010000005B R
(1781710766.970037) can0 120#000000000000005F R
(1781710766.970290) can0 541#0001100000070F91 R
(1781710766.970526) can0 12D#000000000000005F R
(1781710766.970758) can0 12D#000000000000006A R
(1781710766.970991) can0 12E#000000000000008B R
(1781710766.971225) can0 121#00A601CF04800067 R
(1781710766.976462) can0 129#000000010000006E R
(1781710766.976711) can0 540#000000110000FF00 R
(1781710766.976944) can0 5B0#100000000000006B R
(1781710766.977178) can0 120#000000000000006A R
(1781710766.977407) can0 541#0001100000070FA4 R
(1781710766.977639) can0 12D#000000000000008B R
(1781710766.991447) can0 12A#10010000000A00C9 R
(1781710766.991697) can0 12D#00000000000000BE R
(1781710766.991932) can0 12E#00000000000000BE R
(1781710766.992165) can0 121#00A601CF04800086 R
(1781710766.992397) can0 129#000000010000008F R
(1781710766.992629) can0 120#000000000000008B R
(1781710767.009904) can0 541#0001100000070FCE R
(1781710767.010168) can0 12D#00000000000000D4 R
(1781710767.010404) can0 450#0000000000002800 R
(1781710767.010638) can0 12D#0000000000000035 R
(1781710767.010870) can0 12E#00000000000000D4 R
(1781710767.026668) can0 121#00A601CF048000B3 R
(1781710767.026932) can0 129#00000001000000BA R
(1781710767.027171) can0 120#00000000000000BE R
(1781710767.027403) can0 541#0001100000070F2F R
(1781710767.027636) can0 12D#000000000000005F R
(1781710767.027867) can0 12D#000000000000006A R
(1781710767.032805) can0 12E#0000000000000035 R
(1781710767.033049) can0 12A#10010000000A0028 R
(1781710767.033284) can0 5A0#000000000000006A R
(1781710767.033529) can0 121#00A601CF048000D9 R
(1781710767.033764) can0 129#00000001000000D0 R
(1781710767.033995) can0 120#00000000000000D4 R
(1781710767.049974) can0 541#0001100000070F45 R
(1781710767.050220) can0 12D#000000000000008B R
(1781710767.050454) can0 12D#00000000000000BE R
(1781710767.050685) can0 12E#000000000000005F R
(1781710767.050917) can0 450#0000000000002800 R
(1781710767.051148) can0 121#00A601CF04800038 R
(1781710767.069787) can0 129#0000000100000031 R
(1781710767.070029) can0 120#0000000000000035 R
(1781710767.070263) can0 541#0001100000070F70 R
(1781710767.070495) can0 12D#00000000000000D4 R
(1781710767.070727) can0 12D#0000000000000035 R
(1781710767.070959) can0 12E#000000000000006A R
(1781710767.072921) can0 121#00A601CF04800052 R
(1781710767.073159) can0 129#000000010000005B R
(1781710767.073391) can0 540#000040100000FF00 R
(1781710767.073625) can0 5B0#100000000000008A R
(1781710767.073857) can0 120#000000000000005F R
(1781710767.089911) can0 541#0001100000070F91 R
(1781710767.090169) can0 12D#000000000000005F R
(1781710767.090403) can0 12A#10010000000A0042 R
(1781710767.090639) can0 12D#000000000000006A R
(1781710767.090870) can0 12E#000000000000008B R
(1781710767.091101) can0 121#00A601CF04800067 R
(1781710767.106598) can0 129#000000010000006E R
(1781710767.106864) can0 120#000000000000006A R
(1781710767.107105) can0 541#0001100000070FA4 R
(1781710767.107341) can0 12D#000000000000008B R
(1781710767.107576) can0 450#0000000000002800 R
(1781710767.107809) can0 12D#00000000000000BE R
(1781710767.126444) can0 12E#00000000000000BE R
(1781710767.126693) can0 121#00A601CF04800086 R
(1781710767.126929) can0 129#000000010000008F R
(1781710767.127173) can0 120#000000000000008B R
(1781710767.127405) can0 541#0001100000070FCE R
(1781710767.127637) can0 12D#00000000000000D4 R
(1781710767.131521) can0 12D#0000000000000035 R
(1781710767.131759) can0 12E#00000000000000D4 R
(1781710767.131990) can0 12A#10010000000A0077 R
(1781710767.132221) can0 5A0#000000000000008B R
(1781710767.132452) can0 121#00A601CF048000B3 R
(1781710767.132684) can0 129#00000001000000BA R
(1781710767.147589) can0 120#00000000000000BE R
(1781710767.147829) can0 541#0001100000070F2F R
(1781710767.148060) can0 12D#000000000000005F R
(1781710767.148291) can0 12D#000000000000006A R
(1781710767.148520) can0 12E#0000000000000035 R
(1781710767.148749) can0 450#0000000000002800 R
(1781710767.166467) can0 121#00A601CF048000D9 R
(1781710767.166714) can0 129#00000001000000D0 R
(1781710767.166947) can0 120#00000000000000D4 R
(1781710767.167177) can0 541#0001100000070F45 R
(1781710767.167406) can0 12D#000000000000008B R
(1781710767.171625) can0 12D#00000000000000BE R
(1781710767.171873) can0 12E#000000000000005F R
(1781710767.172108) can0 121#00A601CF04800038 R
(1781710767.172341) can0 129#0000000100000031 R
(1781710767.172574) can0 540#000040100000FF00 R
(1781710767.172805) can0 5B0#10000000000000BF R
(1781710767.189791) can0 120#0000000000000035 R
(1781710767.190041) can0 541#0001100000070F70 R
(1781710767.190275) can0 12D#00000000000000D4 R
(1781710767.190508) can0 12A#10010000000A0096 R
(1781710767.190739) can0 12D#0000000000000035 R
(1781710767.190972) can0 12E#000000000000006A R
(1781710767.206374) can0 121#00A601CF04800052 R
(1781710767.206644) can0 129#000000010000005B R
(1781710767.206893) can0 120#000000000000005F R
(1781710767.207132) can0 541#0001100000070F91 R
(1781710767.207370) can0 12D#000000000000005F R
(1781710767.207604) can0 450#0000000000002800 R
(1781710767.216546) can0 12D#000000000000006A R
(1781710767.216790) can0 12E#000000000000008B R
(1781710767.217025) can0 121#00A601CF04800067 R
(1781710767.217257) can0 129#000000010000006E R
(1781710767.217488) can0 120#000000000000006A R
(1781710767.217720) can0 541#0001100000070FA4 R
(1781710767.229877) can0 12D#000000000000008B R
(1781710767.230128) can0 12D#00000000000000BE R
(1781710767.230368) can0 12E#00000000000000BE R
(1781710767.230603) can0 12A#10010000000A00A3 R
(1781710767.230839) can0 5A0#00000000000000BE R
(1781710767.246497) can0 121#00A601CF04800086 R
(1781710767.246872) can0 129#000000010000008F R
(1781710767.247111) can0 120#000000000000008B R
(1781710767.247349) can0 541#00011000000710D4 R
(1781710767.247582) can0 12D#00000000000000D4 R
(1781710767.247815) can0 12D#0000000000000035 R
(1781710767.256493) can0 12E#00000000000000D4 R
(1781710767.256735) can0 450#0000000000002800 R
(1781710767.256965) can0 121#00A601CF048000B3 R
(1781710767.257198) can0 129#00000001000000BA R
(1781710767.257428) can0 120#00000000000000BE R
(1781710767.257660) can0 541#0001100000071035 R
(1781710767.270456) can0 12D#000000000000005F R
(1781710767.270706) can0 12D#000000000000006A R
(1781710767.270939) can0 12E#0000000000000035 R
(1781710767.271169) can0 121#00A601CF048000D9 R
(1781710767.271399) can0 129#00000001000000D0 R
(1781710767.271632) can0 540#000040100000FF00 R
(1781710767.286638) can0 5B0#10000000000000D5 R
(1781710767.286876) can0 120#00000000000000D4 R
(1781710767.287107) can0 541#000110000007105F R
(1781710767.287337) can0 12D#000000000000008B R
(1781710767.287565) can0 12A#10010000000A00C9 R
(1781710767.287802) can0 12D#00000000000000BE R
(1781710767.296597) can0 12E#000000000000005F R
(1781710767.296841) can0 121#00A601CF04800038 R
(1781710767.297073) can0 129#0000000100000031 R
(1781710767.297306) can0 120#0000000000000035 R
(1781710767.297535) can0 541#000110000007106A R
(1781710767.297765) can0 12D#00000000000000D4 R
(1781710767.311603) can0 450#0000000000002800 R
(1781710767.311848) can0 12D#0000000000000035 R
(1781710767.312081) can0 12E#000000000000006A R
(1781710767.312311) can0 121#00A601CF04800052 R
(1781710767.312541) can0 129#000000010000005B R
(1781710767.327109) can0 120#000000000000005F R
(1781710767.327358) can0 541#000110000007108B R
(1781710767.327589) can0 12D#000000000000005F R
(1781710767.327818) can0 12D#000000000000006A R
(1781710767.328048) can0 12E#000000000000008B R
(1781710767.328275) can0 12A#10010000000A0028 R
(1781710767.346300) can0 5A0#00000000000000D4 R
(1781710767.346545) can0 121#00A601CF04800067 R
(1781710767.346776) can0 129#000000010000006E R
(1781710767.347005) can0 120#000000000000006A R
(1781710767.347285) can0 541#00011000000710BE R
(1781710767.347520) can0 12D#000000000000008B R
(1781710767.352836) can0 12D#00000000000000BE R
(1781710767.353073) can0 12E#00000000000000BE R
(1781710767.353306) can0 450#0000000000002800 R
(1781710767.353536) can0 121#00A601CF04800086 R
(1781710767.353767) can0 129#000000010000008F R
(1781710767.353995) can0 120#000000000000008B R
(1781710767.370336) can0 541#00011000000710D4 R
(1781710767.370580) can0 12D#00000000000000D4 R
(1781710767.370812) can0 12D#0000000000000035 R
(1781710767.371045) can0 12E#00000000000000D4 R
(1781710767.371277) can0 121#00A601CF048000B3 R
(1781710767.371509) can0 129#00000001000000BA R
(1781710767.376878) can0 540#000040100000FF00 R
(1781710767.377124) can0 5B0#1000000000000034 R
(1781710767.377358) can0 120#00000000000000BE R
(1781710767.377589) can0 541#0001100000071035 R
(1781710767.377822) can0 12D#000000000000005F R
(1781710767.392793) can0 12A#10010000000A0042 R
(1781710767.393067) can0 12D#000000000000006A R
(1781710767.393303) can0 12E#0000000000000035 R
(1781710767.393536) can0 121#00A601CF048000D9 R
(1781710767.393768) can0 129#00000001000000D0 R
(1781710767.394001) can0 120#00000000000000D4 R
(1781710767.410040) can0 541#000110000007105F R
(1781710767.410296) can0 12D#000000000000008B R
(1781710767.410532) can0 450#0000000000002800 R
(1781710767.410765) can0 12D#00000000000000BE R
(1781710767.410997) can0 12E#000000000000005F R
(1781710767.411230) can0 121#00A601CF04800038 R
(1781710767.426898) can0 129#0000000100000031 R
(1781710767.427145) can0 120#0000000000000035 R
(1781710767.427379) can0 541#000110000007106A R
(1781710767.427611) can0 12D#00000000000000D4 R
(1781710767.427842) can0 12D#0000000000000035 R
(1781710767.428072) can0 12E#000000000000006A R
(1781710767.436539) can0 12A#10010000000A0077 R
(1781710767.436780) can0 5A0#0000000000000035 R
(1781710767.437015) can0 121#00A601CF04800052 R
(1781710767.437246) can0 129#000000010000005B R
(1781710767.437481) can0 120#000000000000005F R
(1781710767.437713) can0 541#000110000007108B R
(1781710767.450104) can0 12D#000000000000005F R
(1781710767.450343) can0 12D#000000000000006A R
(1781710767.450574) can0 12E#000000000000008B R
(1781710767.450805) can0 450#0000000000002800 R
(1781710767.451035) can0 121#00A601CF04800067 R
(1781710767.451264) can0 129#000000010000006E R
(1781710767.469917) can0 120#000000000000006A R
(1781710767.470166) can0 541#00011000000710BE R
(1781710767.470401) can0 12D#000000000000008B R
(1781710767.470632) can0 12D#00000000000000BE R
(1781710767.470865) can0 12E#00000000000000BE R
(1781710767.476425) can0 121#00A601CF04800086 R
(1781710767.476674) can0 129#000000010000008F R
(1781710767.476905) can0 540#000040100000FF00 R
(1781710767.477134) can0 5B0#100000000000005E R
(1781710767.477363) can0 120#000000000000008B R
(1781710767.477593) can0 541#00011000000710D4 R
(1781710767.491435) can0 12D#00000000000000D4 R
(1781710767.491685) can0 12A#10010000000A0096 R
(1781710767.491915) can0 12D#0000000000000035 R
(1781710767.492145) can0 12E#00000000000000D4 R
(1781710767.492376) can0 121#00A601CF048000B3 R
(1781710767.492610) can0 129#00000001000000BA R
(1781710767.509860) can0 120#00000000000000BE R
(1781710767.510111) can0 541#0001100000071035 R
(1781710767.510346) can0 12D#000000000000005F R
(1781710767.510577) can0 450#0000000000002800 R
(1781710767.510810) can0 12D#000000000000006A R
(1781710767.511042) can0 12E#0000000000000035 R
(1781710767.526755) can0 121#00A601CF048000D9 R
(1781710767.527001) can0 129#00000001000000D0 R
(1781710767.527232) can0 120#00000000000000D4 R
(1781710767.527463) can0 541#0000100000071057 R
(1781710767.527694) can0 12D#000000000000008B R
(1781710767.527932) can0 12D#00000000000000BE R
(1781710767.531678) can0 12E#000000000000005F R
(1781710767.531916) can0 12A#10010000000A00A3 R
(1781710767.532147) can0 5A0#000000000000005F R
(1781710767.532378) can0 121#00A601CF04800038 R
(1781710767.532608) can0 129#0000000100000031 R
(1781710767.549878) can0 120#0000000000000035 R
(1781710767.550131) can0 541#0000100000071062 R
(1781710767.550363) can0 12D#00000000000000D4 R
(1781710767.550594) can0 12D#0000000000000035 R
(1781710767.550824) can0 12E#000000000000006A R
(1781710767.551055) can0 450#0000000000002800 R
(1781710767.566543) can0 121#00A601CF04800052 R
(1781710767.566794) can0 129#000000010000005B R
(1781710767.567030) can0 120#000000000000005F R
(1781710767.567262) can0 541#0000100000071083 R
(1781710767.567498) can0 12D#000000000000005F R
(1781710767.567851) can0 12D#000000000000006A R
(1781710767.573818) can0 12E#000000000000008B R
(1781710767.574059) can0 121#00A601CF04800067 R
(1781710767.574292) can0 129#000000010000006E R
(1781710767.574524) can0 540#000040100000FF00 R
(1781710767.574755) can0 5B0#100000000000006B R
(1781710767.574985) can0 120#000000000000006A R
(1781710767.590050) can0 541#00001000000710B6 R
(1781710767.590296) can0 12D#000000000000008B R
(1781710767.590530) can0 12A#10010000000A00C9 R
(1781710767.590760) can0 12D#00000000000000BE R
(1781710767.590989) can0 12E#00000000000000BE R
(1781710767.591217) can0 121#00A601CF04800086 R
(1781710767.606422) can0 129#000000010000008F R
(1781710767.606671) can0 120#000000000000008B R
(1781710767.606910) can0 541#00001000000710DC R
(1781710767.607144) can0 12D#00000000000000D4 R
(1781710767.607374) can0 450#0000000000002800 R
(1781710767.607607) can0 12D#0000000000000035 R
(1781710767.616589) can0 12E#00000000000000D4 R
(1781710767.616831) can0 121#00A601CF048000B3 R
(1781710767.617065) can0 129#00000001000000BA R
(1781710767.617297) can0 120#00000000000000BE R
(1781710767.617529) can0 541#000010000007103D R
(1781710767.630003) can0 12D#000000000000005F R
(1781710767.630330) can0 12D#000000000000006A R
(1781710767.630582) can0 12E#0000000000000035 R
(1781710767.630820) can0 12A#10010000000A0028 R
(1781710767.631054) can0 5A0#000000000000006A R
(1781710767.631287) can0 121#00A601CF048000D9 R
(1781710767.647488) can0 129#00000001000000D0 R
(1781710767.647733) can0 120#00000000000000D4 R
(1781710767.647965) can0 541#0000100000071057 R
(1781710767.648198) can0 12D#000000000000008B R
(1781710767.648429) can0 12D#00000000000000BE R
(1781710767.648665) can0 12E#000000000000C044 R
(1781710767.666354) can0 450#0000000000002800 R
(1781710767.666598) can0 121#00A601CF04800038 R
(1781710767.666830) can0 129#0000000100000031 R
(1781710767.667063) can0 120#0000000000000035 R
(1781710767.667295) can0 541#0000100000071062 R
(1781710767.667527) can0 12D#00000000000000D4 R
(1781710767.671602) can0 12D#0000000000000035 R
(1781710767.671842) can0 12E#000000000000C071 R
(1781710767.672075) can0 121#00A601CF04800052 R
(1781710767.672309) can0 129#000000010000005B R
(1781710767.672540) can0 540#000040100000FF00 R
(1781710767.672771) can0 5B0#100000000000008A R
(1781710767.686651) can0 120#000000000000005F R
(1781710767.686890) can0 541#0000100000071083 R
(1781710767.687120) can0 12D#000000000000005F R
(1781710767.687349) can0 12A#10010000000A0042 R
(1781710767.687580) can0 12D#000000000000006A R
(1781710767.697511) can0 12E#000000000000C090 R
(1781710767.697776) can0 121#00A601CF04800067 R
(1781710767.698016) can0 129#000000010000006E R
(1781710767.698251) can0 120#000000000000006A R
(1781710767.698486) can0 541#00001000000710B6 R
(1781710767.698718) can0 12D#000000000000008B R
(1781710767.713806) can0 450#0000000000002800 R
(1781710767.714130) can0 12D#00000000000000BE R
(1781710767.714373) can0 12E#000000000000C0A5 R
(1781710767.714608) can0 121#00A601CF04800086 R
(1781710767.714841) can0 129#000000010000008F R
(1781710767.715073) can0 120#000000000000008B R
(1781710767.729829) can0 541#00001000000710DC R
(1781710767.729965) can0 12D#00000000000000D4 R
(1781710767.730088) can0 12D#0000000000000035 R
(1781710767.730204) can0 12E#000000000000C0CF R
(1781710767.730327) can0 12A#10010000000A0077 R
(1781710767.730444) can0 5A0#0000000004000085 R
(1781710767.746762) can0 121#00A601CF048000B3 R
(1781710767.747137) can0 129#00000001000000BA R
(1781710767.747338) can0 120#00000000000000BE R
(1781710767.747518) can0 541#000010000007103D R
(1781710767.747696) can0 12D#000000000000005F R
(1781710767.747866) can0 12D#000000000000006A R
(1781710767.754199) can0 12E#000000000000C02E R
(1781710767.754325) can0 450#0000000000002800 R
(1781710767.754427) can0 121#00A601CF048000D9 R
(1781710767.754525) can0 129#00000001000000D0 R
(1781710767.754620) can0 120#00000000000000D4 R
(1781710767.754714) can0 541#0000100000071057 R
(1781710767.770552) can0 12D#000000000000008B R
(1781710767.770833) can0 12D#00000000000000BE R
(1781710767.771072) can0 12E#000000000000C044 R
(1781710767.771307) can0 121#00A601CF04800038 R
(1781710767.771538) can0 129#0000000100000031 R
(1781710767.786297) can0 540#000040100000FF00 R
(1781710767.786576) can0 5B0#10000000000000BF R
(1781710767.786816) can0 120#0000000000000035 R
(1781710767.787051) can0 541#0000100000071062 R
(1781710767.787287) can0 12D#00000000000000D4 R
(1781710767.787521) can0 12A#10010000000A0096 R
(1781710767.796457) can0 12D#0000000000000035 R
(1781710767.796715) can0 12E#000000000000C071 R
(1781710767.797026) can0 121#00A601CF04800052 R
(1781710767.797282) can0 129#000000010000005B R
(1781710767.797525) can0 120#000000000000005F R
(1781710767.797763) can0 541#0000100000071083 R
(1781710767.811797) can0 12D#000000000000005F R
(1781710767.812049) can0 450#0000000000002800 R
(1781710767.812282) can0 12D#000000000000006A R
(1781710767.812513) can0 12E#000000000000C090 R
(1781710767.812749) can0 121#00A601CF04800067 R
(1781710767.812980) can0 129#000000010000006E R
(1781710767.827260) can0 120#000000000000006A R
(1781710767.827506) can0 541#00001000000710B6 R
(1781710767.827741) can0 12D#000000000000008B R
(1781710767.827973) can0 12D#00000000000000BE R
(1781710767.828208) can0 12E#000000000000C0A5 R
(1781710767.828446) can0 12A#10010000000A00A3 R
(1781710767.836604) can0 5A0#00000000040000B0 R
(1781710767.836848) can0 121#00A601CF04800086 R
(1781710767.837084) can0 129#000000010000008F R
(1781710767.837320) can0 120#000000000000008B R
(1781710767.837553) can0 541#00001000000710DC R
(1781710767.851458) can0 12D#00000000000000D4 R
(1781710767.851712) can0 12D#0000000000000035 R
(1781710767.851946) can0 12E#000000000000C0CF R
(1781710767.852181) can0 450#0000000000002800 R
(1781710767.852413) can0 121#00A601CF048000B3 R
(1781710767.852643) can0 129#00000001000000BA R
(1781710767.870008) can0 120#00000000000000BE R
(1781710767.870252) can0 541#000010000007103D R
(1781710767.870487) can0 12D#000000000000005F R
(1781710767.870720) can0 12D#000000000000006A R
(1781710767.870953) can0 12E#000000000000C02E R
(1781710767.871186) can0 121#00A601CF048000D9 R
(1781710767.876728) can0 129#00000001000000D0 R
(1781710767.876969) can0 540#000040100000FF00 R
(1781710767.877200) can0 5B0#10000000000000D5 R
(1781710767.877431) can0 120#00000000000000D4 R
(1781710767.877660) can0 541#0000100000071057 R
(1781710767.877890) can0 12D#000000000000008B R
(1781710767.893895) can0 12A#10010000000A00C9 R
(1781710767.894162) can0 12D#00000000000000BE R
(1781710767.894403) can0 12E#000000000000C044 R
(1781710767.894637) can0 121#00A601CF04800038 R
(1781710767.894871) can0 129#0000000100000031 R
(1781710767.895105) can0 120#0000000000000035 R
(1781710767.909973) can0 541#0000100000071062 R
(1781710767.910230) can0 12D#00000000000000D4 R
(1781710767.910466) can0 450#0000000000002800 R
(1781710767.910699) can0 12D#0000000000000035 R
(1781710767.910930) can0 12E#000000000000C071 R
(1781710767.911162) can0 121#00A601CF04800052 R
(1781710767.926819) can0 129#000000010000005B R
(1781710767.927070) can0 120#000000000000005F R
(1781710767.927304) can0 541#0000100000071083 R
(1781710767.927535) can0 12D#000000000000005F R
(1781710767.927766) can0 12D#000000000000006A R
(1781710767.933743) can0 12E#000000000000C090 R
(1781710767.933992) can0 12A#10010000000A0028 R
(1781710767.934231) can0 5A0#00000000040000DA R
(1781710767.934461) can0 121#00A601CF04800067 R
(1781710767.934692) can0 129#000000010000006E R
(1781710767.934921) can0 120#000000000000006A R
(1781710767.950002) can0 541#00001000000710B6 R
(1781710767.950140) can0 12D#000000000000008B R
(1781710767.950248) can0 12D#00000000000000BE R
(1781710767.950351) can0 12E#000000000000C0A5 R
(1781710767.950452) can0 450#0000000000002800 R
(1781710767.950554) can0 121#00A601CF04800086 R
(1781710767.969806) can0 129#000000010000008F R
(1781710767.969918) can0 120#000000000000008B R
(1781710767.969991) can0 541#00001000000710DC R
(1781710767.970060) can0 12D#00000000000000D4 R
(1781710767.970129) can0 12D#0000000000000035 R
(1781710767.970196) can0 12E#000000000000C0CF R
(1781710767.976409) can0 121#00A601CF048000B3 R
(1781710767.976474) can0 129#00000001000000BA R
(1781710767.976550) can0 540#000040100000FF00 R
(1781710767.976611) can0 5B0#1000000000000034 R
(1781710767.976671) can0 120#00000000000000BE R
(1781710767.976732) can0 541#000010000007103D R
(1781710767.989979) can0 12D#000000000000005F R
(1781710767.990037) can0 12A#10010000000A0042 R
(1781710767.990094) can0 12D#000000000000006A R
(1781710767.990149) can0 12E#000000000000C02E R
(1781710767.990204) can0 121#00A601CF048000D9 R
(1781710768.006524) can0 129#00000001000000D0 R
(1781710768.006614) can0 120#00000000000000D4 R
(1781710768.006664) can0 541#0000100000071057 R
(1781710768.006716) can0 12D#000000000000008B R
(1781710768.006767) can0 450#0000000000002800 R
(1781710768.006821) can0 12D#00000000000000BE R
(1781710768.026405) can0 12E#000000000000C044 R
(1781710768.026469) can0 121#00A601CF04800038 R
(1781710768.026525) can0 129#0000000100000031 R
(1781710768.026580) can0 120#0000000000000035 R
(1781710768.026635) can0 541#0000100000071062 R
(1781710768.026690) can0 12D#00000000000000D4 R
(1781710768.031546) can0 12D#0000000000000035 R
(1781710768.031610) can0 12E#000000000000C071 R
(1781710768.031669) can0 12A#10010000000A0077 R
(1781710768.031729) can0 5A0#000000000400003B R
(1781710768.031789) can0 121#00A601CF04800052 R
(1781710768.031848) can0 129#000000010000005B R
(1781710768.049783) can0 120#000000000000005F R
(1781710768.049846) can0 541#0000100000071083 R
(1781710768.049906) can0 12D#000000000000005F R
(1781710768.049966) can0 12D#000000000000006A R
(1781710768.050026) can0 12E#000000000000C090 R
(1781710768.050086) can0 450#0000000000002800 R
(1781710768.066300) can0 121#00A601CF04800067 R
(1781710768.066370) can0 129#000000010000006E R
(1781710768.066437) can0 120#000000000000006A R
(1781710768.066503) can0 541#00001000000710B6 R
(1781710768.066569) can0 12D#000000000000008B R
(1781710768.066635) can0 12D#00000000000000BE R
(1781710768.071690) can0 12E#000000000000C0A5 R
(1781710768.071767) can0 121#00A601CF04800086 R
(1781710768.071843) can0 129#000000010000008F R
(1781710768.071919) can0 540#000040100000FF00 R
(1781710768.071995) can0 5B0#100000000000005E R
(1781710768.089745) can0 120#000000000000008B R
(1781710768.089844) can0 541#00001000000710DC R
(1781710768.089919) can0 12D#00000000000000D4 R
(1781710768.089994) can0 12A#10010000000A0096 R
(1781710768.090070) can0 12D#0000000000000035 R
(1781710768.090145) can0 12E#000000000000C0CF R
(1781710768.106268) can0 121#00A601CF048000B3 R
(1781710768.106366) can0 129#00000001000000BA R
(1781710768.106454) can0 120#00000000000000BE R
(1781710768.106540) can0 541#000010000007103D R
(1781710768.106630) can0 12D#000000000000005F R
(1781710768.106716) can0 450#0000000000002800 R
(1781710768.116418) can0 12D#000000000000006A R
(1781710768.116540) can0 12E#000000000000C02E R
(1781710768.116646) can0 121#00A601CF048000D9 R
(1781710768.116751) can0 129#00000001000000D0 R
(1781710768.116855) can0 120#00000000000000D4 R
(1781710768.116958) can0 541#0000100000071057 R
(1781710768.130121) can0 12D#000000000000008B R
(1781710768.130291) can0 12D#00000000000000BE R
(1781710768.130411) can0 12E#000000000000C044 R
(1781710768.130522) can0 12A#10010000000A00A3 R
(1781710768.130627) can0 5A0#0000000004000051 R
(1781710768.130729) can0 121#00A601CF04800038 R
(1781710768.146605) can0 129#0000000100000031 R
(1781710768.146798) can0 120#0000000000000035 R
(1781710768.146979) can0 541#0000100000071062 R
(1781710768.147155) can0 12D#00000000000000D4 R
(1781710768.147329) can0 12D#0000000000000035 R
(1781710768.156402) can0 12E#000000000000C071 R
(1781710768.156690) can0 450#0000000000002800 R
(1781710768.156940) can0 121#00A601CF04800052 R
(1781710768.157206) can0 129#000000010000005B R
(1781710768.157443) can0 120#000000000000005F R
(1781710768.157678) can0 541#0000100000071083 R
(1781710768.170566) can0 12D#000000000000005F R
(1781710768.170827) can0 12D#000000000000006A R
(1781710768.171062) can0 12E#000000000000C090 R
(1781710768.171294) can0 121#00A601CF04800067 R
(1781710768.171526) can0 129#000000010000006E R
(1781710768.171762) can0 540#000040100000FF00 R
(1781710768.186614) can0 5B0#100000000000006B R
(1781710768.186865) can0 120#000000000000006A R
(1781710768.187098) can0 541#00001000000710B6 R
(1781710768.187330) can0 12D#000000000000008B R
(1781710768.187560) can0 12A#10010000000A00C9 R
(1781710768.187791) can0 12D#00000000000000BE R
(1781710768.197643) can0 12E#000000000000C0A5 R
(1781710768.197900) can0 121#00A601CF04800086 R
(1781710768.198136) can0 129#000000010000008F R
(1781710768.198367) can0 120#000000000000008B R
(1781710768.198597) can0 541#00001000000710DC R
(1781710768.198827) can0 12D#00000000000000D4 R
(1781710768.211682) can0 450#0000000000002800 R
(1781710768.211932) can0 12D#0000000000000035 R
(1781710768.212168) can0 12E#000000000000C0CF R
(1781710768.212401) can0 121#00A601CF048000B3 R
(1781710768.212634) can0 129#00000001000000BA R
(1781710768.212866) can0 120#00000000000000BE R
(1781710768.227265) can0 541#000010000007103D R
(1781710768.227510) can0 12D#000000000000005F R
(1781710768.227677) can0 12D#000000000000006A R
(1781710768.227826) can0 12E#000000000000C02E R
(1781710768.227970) can0 12A#10010000000A0028 R
(1781710768.246275) can0 5A0#0000000004000064 R
(1781710768.246571) can0 121#00A601CF048000D9 R
(1781710768.246814) can0 129#00000001000000D0 R
(1781710768.247052) can0 120#00000000000000D4 R
(1781710768.247284) can0 541#0000100000071141 R
(1781710768.247515) can0 12D#000000000000008B R
(1781710768.253809) can0 12D#00000000000000BE R
(1781710768.254058) can0 12E#000000000000C044 R
(1781710768.254295) can0 450#0000000000002800 R
(1781710768.254530) can0 121#00A601CF04800038 R
(1781710768.254762) can0 129#0000000100000031 R
(1781710768.254993) can0 120#0000000000000035 R
(1781710768.270338) can0 541#0000100000071174 R
(1781710768.270584) can0 12D#00000000000000D4 R
(1781710768.270817) can0 12D#0000000000000035 R
(1781710768.271051) can0 12E#000000000000C071 R
(1781710768.271283) can0 121#00A601CF04800052 R
(1781710768.271520) can0 129#000000010000005B R
(1781710768.286340) can0 540#000040100000FF00 R
(1781710768.286582) can0 5B0#100000000000008A R
(1781710768.286815) can0 120#000000000000005F R
(1781710768.287046) can0 541#0000100000071195 R
(1781710768.287277) can0 12D#000000000000005F R
(1781710768.287507) can0 12A#10010000000A0042 R
(1781710768.293919) can0 12D#000000000000006A R
(1781710768.294159) can0 12E#000000000000C090 R
(1781710768.294392) can0 121#00A601CF04800067 R
(1781710768.294625) can0 129#000000010000006E R
(1781710768.294856) can0 120#000000000000006A R
(1781710768.310157) can0 541#00001000000711A0 R
(1781710768.310406) can0 12D#000000000000008B R
(1781710768.310639) can0 450#0000000000002800 R
(1781710768.310871) can0 12D#00000000000000BE R
(1781710768.311104) can0 12E#000000000000C0A5 R
(1781710768.311336) can0 121#00A601CF04800086 R
(1781710768.326817) can0 129#000000010000008F R
(1781710768.327069) can0 120#000000000000008B R
(1781710768.327303) can0 541#00001000000711CA R
(1781710768.327534) can0 12D#00000000000000D4 R
(1781710768.327765) can0 12D#0000000000000035 R
(1781710768.327996) can0 12E#000000000000C0CF R
(1781710768.336430) can0 12A#10010000000A0077 R
(1781710768.336668) can0 5A0#0000000004000085 R
(1781710768.336899) can0 121#00A601CF048000B3 R
(1781710768.337131) can0 129#00000001000000BA R
(1781710768.337370) can0 120#00000000000000BE R
(1781710768.337602) can0 541#000010000007112B R
(1781710768.351630) can0 12D#000000000000005F R
(1781710768.351872) can0 12D#000000000000006A R
(1781710768.352102) can0 12E#000000000000C02E R
(1781710768.352332) can0 450#0000000000002800 R
(1781710768.352563) can0 121#00A601CF048000D9 R
(1781710768.352793) can0 129#00000001000000D0 R
(1781710768.371291) can0 120#00000000000000D4 R
(1781710768.371449) can0 541#0000100000071141 R
(1781710768.371560) can0 12D#000000000000008B R
(1781710768.371666) can0 12D#00000000000000BE R
(1781710768.371772) can0 12E#000000000000C044 R
(1781710768.371877) can0 121#00A601CF04800038 R
(1781710768.376507) can0 129#0000000100000031 R
(1781710768.376623) can0 540#0000401000010000 R
(1781710768.376722) can0 5B0#10000000000000BF R
(1781710768.376814) can0 120#0000000000000035 R
(1781710768.376906) can0 541#0000100000071174 R
(1781710768.391507) can0 12D#00000000000000D4 R
(1781710768.391619) can0 12A#10010000000A0096 R
(1781710768.391710) can0 12D#0000000000000035 R
(1781710768.391802) can0 12E#000000000000C071 R
(1781710768.391892) can0 121#00A601CF04800052 R
(1781710768.391982) can0 129#000000010000005B R
(1781710768.409995) can0 120#000000000000005F R
(1781710768.410072) can0 541#0000100000071195 R
(1781710768.410119) can0 12D#000000000000005F R
(1781710768.410164) can0 450#0000000000002800 R
(1781710768.410208) can0 12D#000000000000006A R
(1781710768.410252) can0 12E#000000000000C090 R
(1781710768.426680) can0 121#00A601CF04800067 R
(1781710768.426753) can0 129#000000010000006E R
(1781710768.426822) can0 120#000000000000006A R
(1781710768.426883) can0 541#00001000000711A0 R
(1781710768.426943) can0 12D#000000000000008B R
(1781710768.427003) can0 12D#00000000000000BE R
(1781710768.433806) can0 12E#000000000000C0A5 R
(1781710768.433868) can0 12A#10010000000A00A3 R
(1781710768.433928) can0 5A0#00000000040000B0 R
(1781710768.433988) can0 121#00A601CF04800086 R
(1781710768.434048) can0 129#000000010000008F R
(1781710768.434108) can0 120#000000000000008B R
(1781710768.449836) can0 541#00001000000711CA R
(1781710768.449904) can0 12D#00000000000000D4 R
(1781710768.449971) can0 12D#0000000000000035 R
(1781710768.450038) can0 12E#000000000000C0CF R
(1781710768.450104) can0 450#0000000000002800 R
(1781710768.466413) can0 121#00A601CF048000B3 R
(1781710768.466513) can0 129#00000001000000BA R
(1781710768.466589) can0 120#00000000000000BE R
(1781710768.466663) can0 541#000010000007112B R
(1781710768.466739) can0 12D#000000000000005F R
(1781710768.466814) can0 12D#000000000000006A R
(1781710768.473767) can0 12E#000000000000C02E R
(1781710768.473855) can0 121#00A601CF048000D9 R
(1781710768.473930) can0 129#00000001000000D0 R
(1781710768.474006) can0 540#0000401000010000 R
(1781710768.474080) can0 5B0#10000000000000D5 R
(1781710768.474154) can0 120#00000000000000D4 R
(1781710768.490046) can0 541#0000100000071141 R
(1781710768.490135) can0 12D#000000000000008B R
(1781710768.490222) can0 12A#10010000000A00C9 R
(1781710768.490312) can0 12D#00000000000000BE R
(1781710768.490398) can0 12E#000000000000C044 R
(1781710768.490484) can0 121#00A601CF04800038 R
(1781710768.506535) can0 129#0000000100000031 R
(1781710768.506641) can0 120#0000000000000035 R
(1781710768.506744) can0 541#0000100000071174 R
(1781710768.506847) can0 12D#00000000000000D4 R
(1781710768.506949) can0 450#0000000000002800 R
(1781710768.507052) can0 12D#0000000000000035 R
(1781710768.516541) can0 12E#000000000000C071 R
(1781710768.516756) can0 121#00A601CF04800052 R
(1781710768.516868) can0 129#000000010000005B R
(1781710768.516982) can0 120#000000000000005F R
(1781710768.517092) can0 541#0000100000071195 R
(1781710768.517203) can0 12D#000000000000005F R
(1781710768.530183) can0 12D#000000000000006A R
(1781710768.530341) can0 12E#000000000000C090 R
(1781710768.530483) can0 12A#10010000000A0028 R
(1781710768.530618) can0 5A0#00000000040000DA R
(1781710768.530751) can0 121#00A601CF04800067 R
(1781710768.547492) can0 129#000000010000006E R
(1781710768.547764) can0 120#000000000000006A R
(1781710768.548004) can0 541#00001000000711A0 R
(1781710768.548237) can0 12D#000000000000008B R
(1781710768.548475) can0 12D#00000000000000BE R
(1781710768.548708) can0 12E#000000000000C0A5 R
(1781710768.566303) can0 450#0000000000002800 R
(1781710768.566563) can0 121#00A601CF04800086 R
(1781710768.566801) can0 129#000000010000008F R
(1781710768.567033) can0 120#000000000000008B R
(1781710768.567266) can0 541#00001000000711CA R
(1781710768.567571) can0 12D#00000000000000D4 R
(1781710768.571896) can0 12D#0000000000000035 R
(1781710768.572152) can0 12E#000000000000C0CF R
(1781710768.572396) can0 121#00A601CF048000B3 R
(1781710768.572636) can0 129#00000001000000BA R
(1781710768.572873) can0 540#0000401000010000 R
(1781710768.573110) can0 5B0#1000000000000034 R
(1781710768.589910) can0 120#00000000000000BE R
(1781710768.590158) can0 541#000010000007112B R
(1781710768.590392) can0 12D#000000000000005F R
(1781710768.590621) can0 12A#10010000000A0042 R
(1781710768.590853) can0 12D#000000000000006A R
(1781710768.591084) can0 12E#000000000000C02E R
(1781710768.597685) can0 121#00A601CF048000D9 R
(1781710768.597933) can0 129#00000001000000D0 R
(1781710768.598171) can0 120#00000000000000D4 R
(1781710768.598406) can0 541#0000100000071141 R
(1781710768.598640) can0 12D#000000000000008B R
(1781710768.613731) can0 450#0000000000002800 R
(1781710768.614095) can0 12D#00000000000000BE R
(1781710768.614360) can0 12E#000000000000C044 R
(1781710768.614607) can0 121#00A601CF04800038 R
(1781710768.614851) can0 129#0000000100000031 R
(1781710768.615092) can0 120#0000000000000035 R
(1781710768.629837) can0 541#0000100000071174 R
(1781710768.630089) can0 12D#00000000000000D4 R
(1781710768.630327) can0 12D#0000000000000035 R
(1781710768.630564) can0 12E#000000000000C071 R
(1781710768.630800) can0 12A#10010000000A0077 R
(1781710768.631034) can0 5A0#000000000400003B R
(1781710768.646517) can0 121#00A601CF04800052 R
(1781710768.646765) can0 129#000000010000005B R
(1781710768.647018) can0 120#000000000000005F R
(1781710768.647309) can0 541#0000100000071195 R
(1781710768.647569) can0 12D#000000000000005F R
(1781710768.647810) can0 12D#000000000000006A R
(1781710768.656506) can0 12E#000000000000C090 R
(1781710768.656750) can0 450#0000000000002800 R
(1781710768.656984) can0 121#00A601CF04800067 R
(1781710768.657218) can0 129#000000010000006E R
(1781710768.657448) can0 120#000000000000006A R
(1781710768.657682) can0 541#00001000000711A0 R
(1781710768.670485) can0 12D#000000000000008B R
(1781710768.670732) can0 12D#00000000000000BE R
(1781710768.670972) can0 12E#000000000000C0A5 R
(1781710768.671208) can0 121#00A601CF04800086 R
(1781710768.671458) can0 129#000000010000008F R
(1781710768.671705) can0 540#0000401000010000 R
(1781710768.686453) can0 5B0#100000000000005E R
(1781710768.686708) can0 120#000000000000008B R
(1781710768.686941) can0 541#00001000000711CA R
(1781710768.687174) can0 12D#00000000000000D4 R
(1781710768.687406) can0 12A#10050000000A0083 R
(1781710768.696393) can0 12D#0000000000000035 R
(1781710768.696679) can0 12E#000000000000C0CF R
(1781710768.696928) can0 121#00A601CF048000B3 R
(1781710768.697165) can0 129#00000001000000BA R
(1781710768.697400) can0 120#00000000000000BE R
(1781710768.697634) can0 541#000010000007112B R
(1781710768.709835) can0 12D#000000000000005F R
(1781710768.710086) can0 450#0000000000002800 R
(1781710768.710843) can0 12D#000000000000006A R
(1781710768.711081) can0 12E#000000000000C02E R
(1781710768.726507) can0 121#00A601CF048000D9 R
(1781710768.726816) can0 129#00000001000000D0 R
(1781710768.727061) can0 120#00000000000000D4 R
(1781710768.727294) can0 541#0000100000071141 R
(1781710768.727526) can0 12D#000000000000008B R
(1781710768.731614) can0 12D#00000000000000BE R
(1781710768.731871) can0 12E#000000000000C044 R
(1781710768.732107) can0 12A#10050000000A00B6 R
(1781710768.732352) can0 5A0#0000000004000051 R
(1781710768.732586) can0 121#00A601CF04800038 R
(1781710768.732887) can0 129#0000000100000031 R
(1781710768.749895) can0 120#0000000000000035 R
(1781710768.750079) can0 541#0000100000071174 R
(1781710768.750196) can0 12D#00000000000000D4 R
(1781710768.750316) can0 12D#0000000000000035 R
(1781710768.750428) can0 12E#000000000000C071 R
(1781710768.750540) can0 450#0000000000002800 R
(1781710768.766776) can0 121#00A601CF04800052 R
(1781710768.767130) can0 129#000000010000005B R
(1781710768.767376) can0 120#000000000000005F R
(1781710768.767613) can0 541#0000100000071195 R
(1781710768.767851) can0 12D#000000000000005F R
(1781710768.768083) can0 12D#000000000000006A R
(1781710768.773890) can0 12E#000000000000C090 R
(1781710768.774139) can0 121#00A601CF04800067 R
(1781710768.774374) can0 129#000000010000006E R
(1781710768.774610) can0 540#0000401000010000 R
(1781710768.774841) can0 5B0#100000000000006B R
(1781710768.775073) can0 120#000000000000006A R
(1781710768.789988) can0 541#00001000000711A0 R
(1781710768.790261) can0 12D#000000000000008B R
(1781710768.790496) can0 12A#10050000000A00DC R
(1781710768.790730) can0 12D#00000000000000BE R
(1781710768.790963) can0 12E#000000000000C0A5 R
(1781710768.791197) can0 121#00A601CF04800086 R
(1781710768.806423) can0 129#000000010000008F R
(1781710768.806671) can0 120#000000000000008B R
(1781710768.806903) can0 541#00001000000711CA R
(1781710768.807134) can0 12D#00000000000000D4 R
(1781710768.807365) can0 450#0000000000002800 R
(1781710768.816409) can0 12D#0000000000000035 R
(1781710768.816673) can0 12E#000000000000C0CF R
(1781710768.816913) can0 121#00A601CF048000B3 R
(1781710768.817173) can0 129#00000001000000BA R
(1781710768.817442) can0 120#00000000000000BE R
(1781710768.817717) can0 541#000010000007112B R
(1781710768.830121) can0 12D#000000000000005F R
(1781710768.830564) can0 12D#000000000000006A R
(1781710768.830818) can0 12E#000000000000C02E R
(1781710768.831062) can0 12A#10050000000A003D R
(1781710768.831302) can0 5A0#0000000004000064 R
(1781710768.831539) can0 121#00A601CF048000D9 R
(1781710768.847536) can0 129#00000001000000D0 R
(1781710768.847783) can0 120#00000000000000D4 R
(1781710768.848019) can0 541#0000100000071141 R
(1781710768.848252) can0 12D#000000000000008B R
(1781710768.848487) can0 12D#00000000000000BE R
(1781710768.848721) can0 12E#000000000000C044 R
(1781710768.866328) can0 450#0000000000002800 R
(1781710768.866573) can0 121#00A601CF04800038 R
(1781710768.866807) can0 129#0000000100000031 R
(1781710768.867041) can0 120#0000000000000035 R
(1781710768.867276) can0 541#0000100000071174 R
(1781710768.867510) can0 12D#00000000000000D4 R
(1781710768.870685) can0 12D#0000000000000035 R
(1781710768.870921) can0 12E#000000000000C071 R
(1781710768.871160) can0 121#00A601CF04800052 R
(1781710768.871394) can0 129#000000010000005B R
(1781710768.871636) can0 540#0000401000010000 R
(1781710768.886417) can0 5B0#100000000000008A R
(1781710768.886670) can0 120#000000000000005F R
(1781710768.886905) can0 541#0000100000071195 R
(1781710768.887139) can0 12D#000000000000005F R
(1781710768.887371) can0 12A#10050000000A0057 R
(1781710768.887603) can0 12D#000000000000006A R
(1781710768.897569) can0 12E#000000000000C090 R
(1781710768.897826) can0 121#00A601CF04800067 R
(1781710768.898066) can0 129#000000010000006E R
(1781710768.898302) can0 120#000000000000006A R
(1781710768.898535) can0 541#00001000000711A0 R
(1781710768.898770) can0 12D#000000000000008B R
(1781710768.913896) can0 450#0000000000002800 R
(1781710768.914164) can0 12D#00000000000000BE R
(1781710768.914409) can0 12E#000000000000C0A5 R
(1781710768.914649) can0 121#00A601CF04800086 R
(1781710768.914888) can0 129#000000010000008F R
(1781710768.915133) can0 120#000000000000008B R
(1781710768.929938) can0 541#00001000000711CA R
(1781710768.930194) can0 12D#00000000000000D4 R
(1781710768.930434) can0 12D#0000000000000035 R
(1781710768.930674) can0 12E#000000000000C0CF R
(1781710768.930910) can0 12A#10050000000A0062 R
(1781710768.931145) can0 5A0#0000000004000085 R
(1781710768.946341) can0 121#00A601CF048000B3 R
(1781710768.946595) can0 129#00000001000000BA R
(1781710768.946837) can0 120#00000000000000BE R
(1781710768.947077) can0 541#000010000007112B R
(1781710768.947313) can0 12D#000000000000005F R
(1781710768.947546) can0 12D#000000000000006A R
(1781710768.953934) can0 12E#000000000000C02E R
(1781710768.954170) can0 450#0000000000002800 R
(1781710768.954402) can0 121#00A601CF048000D9 R
(1781710768.954633) can0 129#00000001000000D0 R
(1781710768.954864) can0 120#00000000000000D4 R
(1781710768.970327) can0 541#0000100000071141 R
(1781710768.970592) can0 12D#000000000000008B R
(1781710768.970833) can0 12D#00000000000000BE R
(1781710768.971068) can0 12E#000000000000C044 R
(1781710768.971329) can0 121#00A601CF04800038 R
(1781710768.971565) can0 129#0000000100000031 R
(1781710768.986218) can0 540#0000401000010000 R
(1781710768.986465) can0 5B0#10000000000000BF R
(1781710768.986696) can0 120#0000000000000035 R
(1781710768.986929) can0 541#0000100000071174 R
(1781710768.987160) can0 12D#00000000000000D4 R
(1781710768.987391) can0 12A#10050000000A0083 R
(1781710768.996493) can0 12D#0000000000000035 R
(1781710768.996752) can0 12E#000000000000C071 R
(1781710768.997036) can0 121#00A601CF04800052 R
(1781710768.997278) can0 129#000000010000005B R
(1781710768.997515) can0 120#000000000000005F R
(1781710768.997748) can0 541#0000100000071195 R
(1781710769.011681) can0 12D#000000000000005F R
(1781710769.011952) can0 450#0000000000002800 R
(1781710769.012190) can0 12D#000000000000006A R
(1781710769.012427) can0 12E#000000000000C090 R
(1781710769.012660) can0 121#00A601CF04800067 R
(1781710769.012893) can0 129#000000010000006E R
(1781710769.027027) can0 120#000000000000006A R
(1781710769.027309) can0 541#00001000000711A0 R
(1781710769.027550) can0 12D#000000000000008B R
(1781710769.027782) can0 12D#00000000000000BE R
(1781710769.028014) can0 12E#000000000000C0A5 R
(1781710769.036336) can0 12A#10050000000A00B6 R
(1781710769.036592) can0 5A0#00000000040000B0 R
(1781710769.036827) can0 121#00A601CF04800086 R
(1781710769.037060) can0 129#000000010000008F R
(1781710769.037291) can0 120#000000000000008B R
(1781710769.037521) can0 541#00001000000711CA R
(1781710769.051643) can0 12D#00000000000000D4 R
(1781710769.051887) can0 12D#0000000000000035 R
(1781710769.052121) can0 12E#000000000000C0CF R
(1781710769.052352) can0 450#0000000000002800 R
(1781710769.052583) can0 121#00A601CF048000B3 R
(1781710769.052815) can0 129#00000001000000BA R
(1781710769.070297) can0 120#00000000000000BE R
(1781710769.070542) can0 541#000010000007112B R
(1781710769.070776) can0 12D#000000000000005F R
(1781710769.071011) can0 12D#000000000000006A R
(1781710769.071247) can0 12E#000000000000C02E R
(1781710769.071480) can0 121#00A601CF048000D9 R
(1781710769.076729) can0 129#00000001000000D0 R
(1781710769.076980) can0 540#0000401000010000 R
(1781710769.077216) can0 5B0#10000000000000D5 R
(1781710769.077448) can0 120#00000000000000D4 R
(1781710769.077678) can0 541#0000100000071141 R
(1781710769.077910) can0 12D#000000000000008B R
(1781710769.091663) can0 12A#10050000000A00DC R
(1781710769.091905) can0 12D#00000000000000BE R
(1781710769.092146) can0 12E#000000000000C044 R
(1781710769.092412) can0 121#00A601CF04800038 R
(1781710769.092645) can0 129#0000000100000031 R
(1781710769.092875) can0 120#0000000000000035 R
(1781710769.109976) can0 541#0000100000071174 R
(1781710769.110217) can0 12D#00000000000000D4 R
(1781710769.110450) can0 450#0000000000002800 R
(1781710769.110681) can0 12D#0000000000000035 R
(1781710769.110911) can0 12E#000000000000C071 R
(1781710769.126623) can0 121#00A601CF04800052 R
(1781710769.126880) can0 129#000000010000005B R
(1781710769.127115) can0 120#000000000000005F R
(1781710769.127348) can0 541#0000100000071195 R
(1781710769.127580) can0 12D#000000000000005F R
(1781710769.127814) can0 12D#000000000000006A R
(1781710769.133797) can0 12E#000000000000C090 R
(1781710769.134038) can0 12A#10050000000A003D R
(1781710769.134269) can0 5A0#00000000040000DA R
(1781710769.134500) can0 121#00A601CF04800067 R
(1781710769.134731) can0 129#000000010000006E R
(1781710769.134963) can0 120#000000000000006A R
(1781710769.150136) can0 541#00001000000711A0 R
(1781710769.150377) can0 12D#000000000000008B R
(1781710769.150610) can0 12D#00000000000000BE R
(1781710769.150841) can0 12E#000000000000C0A5 R
(1781710769.151072) can0 450#0000000000002800 R
(1781710769.151316) can0 121#00A601CF04800086 R
(1781710769.169951) can0 129#000000010000008F R
(1781710769.170194) can0 120#000000000000008B R
(1781710769.170425) can0 541#00001000000711CA R
(1781710769.170655) can0 12D#00000000000000D4 R
(1781710769.170886) can0 12D#0000000000000035 R
(1781710769.171117) can0 12E#000000000000C0CF R
(1781710769.173920) can0 121#00A601CF048000B3 R
(1781710769.174156) can0 129#00000001000000BA R
(1781710769.174387) can0 540#0000401000010000 R
(1781710769.174615) can0 5B0#1000000000000034 R
(1781710769.174846) can0 120#00000000000000BE R
(1781710769.190034) can0 541#000010000007112B R
(1781710769.190293) can0 12D#000000000000005F R
(1781710769.190526) can0 12A#10050000000A0057 R
(1781710769.190757) can0 12D#000000000000006A R
(1781710769.190997) can0 12E#000000000000C02E R
(1781710769.191228) can0 121#00A601CF048000D9 R
(1781710769.206532) can0 129#00000001000000D0 R
(1781710769.206778) can0 120#00000000000000D4 R
(1781710769.207012) can0 541#0000100000071141 R
(1781710769.207243) can0 12D#000000000000008B R
(1781710769.207474) can0 450#0000000000002800 R
(1781710769.207706) can0 12D#00000000000000BE R
(1781710769.226384) can0 12E#000000000000C044 R
(1781710769.226636) can0 121#00A601CF04800038 R
(1781710769.226873) can0 129#0000000100000031 R
(1781710769.227110) can0 120#0000000000000035 R
(1781710769.227343) can0 541#0000100000071174 R
(1781710769.227574) can0 12D#00000000000000D4 R
(1781710769.231730) can0 12D#0000000000000035 R
(1781710769.231979) can0 12E#000000000000C071 R
(1781710769.232216) can0 12A#10050000000A0062 R
(1781710769.232446) can0 5A0#000000000400003B R
(1781710769.232675) can0 121#00A601CF04800052 R
(1781710769.232906) can0 129#000000010000005B R
(1781710769.247587) can0 120#000000000000005F R
(1781710769.247835) can0 541#000010000007129A R
(1781710769.248071) can0 12D#000000000000005F R
(1781710769.248308) can0 12D#000000000000006A R
(1781710769.248546) can0 12E#000000000000C090 R
(1781710769.248783) can0 450#0000000000002800 R
(1781710769.266402) can0 121#00A601CF04800067 R
(1781710769.266645) can0 129#000000010000006E R
(1781710769.266880) can0 120#000000000000006A R
(1781710769.267115) can0 541#00001000000712AF R
(1781710769.267350) can0 12D#000000000000008B R
(1781710769.271597) can0 12D#00000000000000BE R
(1781710769.271847) can0 12E#000000000000C0A5 R
(1781710769.272082) can0 121#00A601CF04800086 R
(1781710769.272315) can0 129#000000010000008F R
(1781710769.272548) can0 540#0000401000010000 R
(1781710769.272783) can0 5B0#100000000000005E R
(1781710769.289845) can0 120#000000000000008B R
(1781710769.290084) can0 541#00001000000712C5 R
(1781710769.290316) can0 12D#00000000000000D4 R
(1781710769.290548) can0 12A#10050000000A0083 R
(1781710769.290777) can0 12D#0000000000000035 R
(1781710769.291007) can0 12E#000000000000C0CF R
(1781710769.306271) can0 121#00A601CF048000B3 R
(1781710769.306509) can0 129#00000001000000BA R
(1781710769.306740) can0 120#00000000000000BE R
(1781710769.306970) can0 541#0000100000071224 R
(1781710769.307200) can0 12D#000000000000005F R
(1781710769.307430) can0 450#0000000000002800 R
(1781710769.316441) can0 12D#000000000000006A R
(1781710769.316679) can0 12E#000000000000C02E R
(1781710769.316912) can0 121#00A601CF048000D9 R
(1781710769.317145) can0 129#00000001000000D0 R
(1781710769.317377) can0 120#00000000000000D4 R
(1781710769.317607) can0 541#000010000007124E R
(1781710769.330002) can0 12D#000000000000008B R
(1781710769.330203) can0 12D#00000000000000BE R
(1781710769.330379) can0 12E#000000000000C044 R
(1781710769.330552) can0 12A#10050000000A00B6 R
(1781710769.330724) can0 5A0#0000000004000051 R
(1781710769.346407) can0 121#00A601CF04800038 R
(1781710769.346657) can0 129#0000000100000031 R
(1781710769.346893) can0 120#0000000000000035 R
(1781710769.347127) can0 541#000010000007127B R
(1781710769.347363) can0 12D#00000000000000D4 R
(1781710769.347594) can0 12D#0000000000000035 R
(1781710769.356437) can0 12E#000000000000C071 R
(1781710769.356698) can0 450#0000000000002800 R
(1781710769.356936) can0 121#00A601CF04800052 R
(1781710769.357168) can0 129#000000010000005B R
(1781710769.357401) can0 120#000000000000005F R
(1781710769.357633) can0 541#000010000007129A R
(1781710769.370695) can0 12D#000000000000005F R
(1781710769.370942) can0 12D#000000000000006A R
(1781710769.371173) can0 12E#000000000000C090 R
(1781710769.371405) can0 121#00A601CF04800067 R
(1781710769.371636) can0 129#000000010000006E R
(1781710769.371868) can0 540#0000401000010000 R
(1781710769.386507) can0 5B0#100000000000006B R
(1781710769.386747) can0 120#000000000000006A R
(1781710769.386979) can0 541#00001000000712AF R
(1781710769.387210) can0 12D#000000000000008B R
(1781710769.387441) can0 12A#10050000000A00DC R
(1781710769.387672) can0 12D#00000000000000BE R
(1781710769.396510) can0 12E#000000000000C0A5 R
(1781710769.396759) can0 121#00A601CF04800086 R
(1781710769.396997) can0 129#000000010000008F R
(1781710769.397234) can0 120#000000000000008B R
(1781710769.397467) can0 541#00001000000712C5 R
(1781710769.397701) can0 12D#00000000000000D4 R
(1781710769.411716) can0 450#0000000000002800 R
(1781710769.411960) can0 12D#0000000000000035 R
(1781710769.412192) can0 12E#000000000000C0CF R
(1781710769.412422) can0 121#00A601CF048000B3 R
(1781710769.412654) can0 129#00000001000000BA R
(1781710769.427062) can0 120#00000000000000BE R
(1781710769.427317) can0 541#0000100000071224 R
(1781710769.427553) can0 12D#000000000000005F R
(1781710769.427783) can0 12D#000000000000006A R
(1781710769.428014) can0 12E#000000000000C02E R
(1781710769.428245) can0 12A#10050000000A003D R
(1781710769.446254) can0 5A0#0000000004000064 R
(1781710769.446519) can0 121#00A601CF048000D9 R
(1781710769.446760) can0 129#00000001000000D0 R
(1781710769.447009) can0 120#00000000000000D4 R
(1781710769.447249) can0 541#000010000007124E R
(1781710769.447485) can0 12D#000000000000008B R
(1781710769.453846) can0 12D#00000000000000BE R
(1781710769.454089) can0 12E#000000000000C044 R
(1781710769.454323) can0 450#0000000000002800 R
(1781710769.454554) can0 121#00A601CF04800038 R
(1781710769.454788) can0 129#0000000100000031 R
(1781710769.455021) can0 120#0000000000000035 R
(1781710769.470437) can0 541#000010000007127B R
(1781710769.470681) can0 12D#00000000000000D4 R
(1781710769.470913) can0 12D#0000000000000035 R
(1781710769.471143) can0 12E#000000000000C071 R
(1781710769.471372) can0 121#00A601CF04800052 R
(1781710769.471607) can0 129#000000010000005B R
(1781710769.476775) can0 540#0000401000010000 R
(1781710769.477013) can0 5B0#100000000000008A R
(1781710769.477244) can0 120#000000000000005F R
(1781710769.477472) can0 541#000010000007129A R
(1781710769.477702) can0 12D#000000000000005F R
(1781710769.493736) can0 12A#10050000000A0057 R
(1781710769.493987) can0 12D#000000000000006A R
(1781710769.494217) can0 12E#000000000000C090 R
(1781710769.494447) can0 121#00A601CF04800067 R
(1781710769.494674) can0 129#000000010000006E R
(1781710769.494901) can0 120#000000000000006A R
(1781710769.510100) can0 541#00001000000712AF R
(1781710769.510346) can0 12D#000000000000008B R
(1781710769.510579) can0 450#0000000000002800 R
(1781710769.510811) can0 12D#00000000000000BE R
(1781710769.511040) can0 12E#000000000000C0A5 R
(1781710769.511269) can0 121#00A601CF04800086 R
(1781710769.526927) can0 129#000000010000008F R
(1781710769.527193) can0 120#000000000000008B R
(1781710769.527436) can0 541#00001000000712C5 R
(1781710769.527676) can0 12D#00000000000000D4 R
(1781710769.527916) can0 12D#0000000000000035 R
(1781710769.528156) can0 12E#000000000000C0CF R
(1781710769.536430) can0 12A#10050000000A0062 R
(1781710769.536679) can0 5A0#0000000004000085 R
(1781710769.536916) can0 121#00A601CF048000B3 R
(1781710769.537153) can0 129#00000001000000BA R
(1781710769.537389) can0 120#00000000000000BE R
(1781710769.537625) can0 541#0000100000071224 R
(1781710769.550213) can0 12D#000000000000005F R
(1781710769.550456) can0 12D#000000000000006A R
(1781710769.550690) can0 12E#000000000000C02E R
(1781710769.550923) can0 450#0000000000002800 R
(1781710769.551155) can0 121#00A601CF048000D9 R
(1781710769.551385) can0 129#00000001000000D0 R
(1781710769.570218) can0 120#00000000000000D4 R
(1781710769.570614) can0 541#000010000007124E R
(1781710769.570952) can0 12D#000000000000008B R
(1781710769.571299) can0 12D#00000000000000BE R
(1781710769.571567) can0 12E#000000000000C044 R
(1781710769.576330) can0 121#00A601CF04800038 R
(1781710769.576585) can0 129#0000000100000031 R
(1781710769.576819) can0 540#0000401000010000 R
(1781710769.577049) can0 5B0#10000000000000BF R
(1781710769.577280) can0 120#0000000000000035 R
(1781710769.577511) can0 541#000010000007127B R
(1781710769.591693) can0 12D#00000000000000D4 R
(1781710769.591950) can0 12A#10050000000A0083 R
(1781710769.592187) can0 12D#0000000000000035 R
(1781710769.592420) can0 12E#000000000000C071 R
(1781710769.592653) can0 121#00A601CF04800052 R
(1781710769.592892) can0 129#000000010000005B R
(1781710769.609927) can0 120#000000000000005F R
(1781710769.610170) can0 541#000010000007129A R
(1781710769.610403) can0 12D#000000000000005F R
(1781710769.610635) can0 450#0000000000002800 R
(1781710769.610867) can0 12D#000000000000006A R
(1781710769.611096) can0 12E#000000000000C090 R
(1781710769.626756) can0 121#00A601CF04800067 R
(1781710769.627002) can0 129#000000010000006E R
(1781710769.627235) can0 120#000000000000006A R
(1781710769.627466) can0 541#00001000000712AF R
(1781710769.627698) can0 12D#000000000000008B R
(1781710769.627930) can0 12D#00000000000000BE R
(1781710769.631775) can0 12E#000000000000C0A5 R
(1781710769.632015) can0 12A#10050000000A00B6 R
(1781710769.632247) can0 5A0#00000000040000B0 R
(1781710769.632479) can0 121#00A601CF04800086 R
(1781710769.632717) can0 129#000000010000008F R
(1781710769.649807) can0 120#000000000000008B R
(1781710769.650059) can0 541#00001000000712C5 R
(1781710769.650293) can0 12D#00000000000000D4 R
(1781710769.650525) can0 12D#0000000000000035 R
(1781710769.650755) can0 12E#000000000000C0CF R
(1781710769.650988) can0 450#0000000000002800 R
(1781710769.666413) can0 121#00A601CF048000B3 R
(1781710769.666662) can0 129#00000001000000BA R
(1781710769.666894) can0 120#00000000000000BE R
(1781710769.667123) can0 541#0000100000071224 R
(1781710769.667354) can0 12D#000000000000005F R
(1781710769.667584) can0 12D#000000000000006A R
(1781710769.673822) can0 12E#000000000000C02E R
(1781710769.674065) can0 121#00A601CF048000D9 R
(1781710769.674298) can0 129#00000001000000D0 R
(1781710769.674532) can0 540#0000401000010000 R
(1781710769.674766) can0 5B0#10000000000000D5 R
(1781710769.674998) can0 120#00000000000000D4 R
(1781710769.690174) can0 541#000010000007124E R
(1781710769.690414) can0 12D#000000000000008B R
(1781710769.690646) can0 12A#10050000000A00DC R
(1781710769.690877) can0 12D#00000000000000BE R
(1781710769.691109) can0 12E#000000000000C044 R
(1781710769.691339) can0 121#00A601CF04800038 R
(1781710769.706366) can0 129#0000000100000031 R
(1781710769.706609) can0 120#0000000000000035 R
(1781710769.706839) can0 541#000010000007127B R
(1781710769.707070) can0 12D#00000000000000D4 R
(1781710769.707302) can0 450#0000000000002800 R
(1781710769.707534) can0 12D#0000000000000035 R
(1781710769.716556) can0 12E#000000000000C071 R
(1781710769.716794) can0 121#00A601CF04800052 R
(1781710769.717025) can0 129#000000010000005B R
(1781710769.717255) can0 120#000000000000005F R
(1781710769.717485) can0 541#000010000007129A R
(1781710769.730107) can0 12D#000000000000005F R
(1781710769.730435) can0 12D#000000000000006A R
(1781710769.730676) can0 12E#000000000000C090 R
(1781710769.730908) can0 12A#10050000000A003D R
(1781710769.731146) can0 5A0#00000000040000DA R
(1781710769.731377) can0 121#00A601CF04800067 R
(1781710769.747592) can0 129#000000010000006E R
(1781710769.747746) can0 120#000000000000006A R
(1781710769.747874) can0 541#00001000000712AF R
(1781710769.748018) can0 12D#000000000000008B R
(1781710769.748155) can0 12D#00000000000000BE R
(1781710769.748279) can0 12E#000000000000C0A5 R
(1781710769.766375) can0 450#0000000000002800 R
(1781710769.766667) can0 121#00A601CF04800086 R
(1781710769.766909) can0 129#000000010000008F R
(1781710769.767163) can0 120#000000000000008B R
(1781710769.767473) can0 541#00001000000712C5 R
(1781710769.767800) can0 12D#00000000000000D4 R
(1781710769.771691) can0 12D#0000000000000035 R
(1781710769.771795) can0 12E#000000000000C0CF R
(1781710769.771990) can0 121#00A601CF048000B3 R
(1781710769.772218) can0 129#00000001000000BA R
(1781710769.772328) can0 540#0000401000010000 R
(1781710769.772426) can0 5B0#1000000000000034 R
(1781710769.786654) can0 120#00000000000000BE R
(1781710769.786915) can0 541#0000100000071224 R
(1781710769.787222) can0 12D#000000000000005F R
(1781710769.787466) can0 12A#10050000000A0057 R
(1781710769.787708) can0 12D#000000000000006A R
(1781710769.797505) can0 12E#000000000000C02E R
(1781710769.797773) can0 121#00A601CF048000D9 R
(1781710769.798012) can0 129#00000001000000D0 R
(1781710769.798244) can0 120#00000000000000D4 R
(1781710769.798475) can0 541#000010000007124E R
(1781710769.798704) can0 12D#000000000000008B R
(1781710769.813785) can0 450#0000000000002800 R
(1781710769.814029) can0 12D#00000000000000BE R
(1781710769.814265) can0 12E#000000000000C044 R
(1781710769.814496) can0 121#00A601CF04800038 R
(1781710769.814729) can0 129#0000000100000031 R
(1781710769.814961) can0 120#0000000000000035 R
(1781710769.830264) can0 541#000010000007127B R
(1781710769.830527) can0 12D#00000000000000D4 R
(1781710769.830774) can0 12D#0000000000000035 R
(1781710769.831017) can0 12E#000000000000C071 R
(1781710769.831258) can0 12A#10050000000A0062 R
(1781710769.831498) can0 5A0#000000000400003B R
(1781710769.846554) can0 121#00A601CF04800052 R
(1781710769.846822) can0 129#000000010000005B R
(1781710769.847125) can0 120#000000000000005F R
(1781710769.847377) can0 541#000010000007129A R
(1781710769.847619) can0 12D#000000000000005F R
(1781710769.847853) can0 12D#000000000000006A R
(1781710769.853909) can0 12E#000000000000C090 R
(1781710769.854150) can0 450#0000000000002800 R
(1781710769.854385) can0 121#00A601CF04800067 R
(1781710769.854621) can0 129#000000010000006E R
(1781710769.854854) can0 120#000000000000006A R
(1781710769.855096) can0 541#00001000000712AF R
(1781710769.870519) can0 12D#000000000000008B R
(1781710769.870766) can0 12D#00000000000000BE R
(1781710769.871002) can0 12E#000000000000C0A5 R
(1781710769.871236) can0 121#00A601CF04800086 R
(1781710769.871472) can0 129#000000010000008F R
(1781710769.886155) can0 540#0000401000010000 R
(1781710769.886419) can0 5B0#100000000000005E R
(1781710769.886655) can0 120#000000000000008B R
(1781710769.886891) can0 541#00001000000712C5 R
(1781710769.887123) can0 12D#00000000000000D4 R
(1781710769.887357) can0 12A#10050000000A0083 R
(1781710769.896387) can0 12D#0000000000000035 R
(1781710769.896638) can0 12E#000000000000C0CF R
(1781710769.896932) can0 121#00A601CF048000B3 R
(1781710769.897185) can0 129#00000001000000BA R
(1781710769.897424) can0 120#00000000000000BE R
(1781710769.897658) can0 541#0000100000071224 R
(1781710769.911707) can0 12D#000000000000005F R
(1781710769.911957) can0 450#0000000000002800 R
(1781710769.912194) can0 12D#000000000000006A R
(1781710769.912432) can0 12E#000000000000C02E R
(1781710769.912667) can0 121#00A601CF048000D9 R
(1781710769.912902) can0 129#00000001000000D0 R
(1781710769.927124) can0 120#00000000000000D4 R
(1781710769.927368) can0 541#000010000007124E R
(1781710769.927605) can0 12D#000000000000008B R
(1781710769.927840) can0 12D#00000000000000BE R
(1781710769.928075) can0 12E#000000000000C044 R
(1781710769.928312) can0 12A#10050000000A00B6 R
(1781710769.936468) can0 5A0#0000000004000051 R
(1781710769.936714) can0 121#00A601CF04800038 R
(1781710769.936949) can0 129#0000000100000031 R
(1781710769.937186) can0 120#0000000000000035 R
(1781710769.937421) can0 541#000010000007127B R
(1781710769.951577) can0 12D#00000000000000D4 R
(1781710769.951836) can0 12D#0000000000000035 R
(1781710769.952073) can0 12E#000000000000C071 R
(1781710769.952310) can0 450#0000000000002800 R
(1781710769.952546) can0 121#00A601CF04800052 R
(1781710769.952783) can0 129#000000010000005B R
(1781710769.970131) can0 120#000000000000005F R
(1781710769.970384) can0 541#000010000007129A R
(1781710769.970621) can0 12D#000000000000005F R
(1781710769.970856) can0 12D#000000000000006A R
(1781710769.971098) can0 12E#000000000000C090 R
(1781710769.971334) can0 121#00A601CF04800067 R
(1781710769.976674) can0 129#000000010000006E R
(1781710769.976915) can0 540#0000401000010000 R
(1781710769.977149) can0 5B0#100000000000006B R
(1781710769.977383) can0 120#000000000000006A R
(1781710769.977617) can0 541#00001000000712AF R
(1781710769.977851) can0 12D#000000000000008B R
(1781710769.993852) can0 12A#10050000000A00DC R
(1781710769.994100) can0 12D#00000000000000BE R
(1781710769.994338) can0 12E#000000000000C0A5 R
(1781710769.994573) can0 121#00A601CF04800086 R
(1781710769.994806) can0 129#000000010000008F R
(1781710769.995042) can0 120#000000000000008B R
(1781710770.010057) can0 541#00001000000712C5 R
(1781710770.010331) can0 12D#00000000000000D4 R
(1781710770.010586) can0 450#0000000000002800 R
(1781710770.010826) can0 12D#0000000000000035 R
(1781710770.011059) can0 12E#000000000000C0CF R
(1781710770.011291) can0 121#00A601CF048000B3 R
(1781710770.026781) can0 129#00000001000000BA R
(1781710770.027067) can0 120#00000000000000BE R
(1781710770.027306) can0 541#0000100000071224 R
(1781710770.027543) can0 12D#000000000000005F R
(1781710770.027778) can0 12D#000000000000006A R
(1781710770.033774) can0 12E#000000000000C02E R
(1781710770.034035) can0 12A#10050000000A003D R
(1781710770.034272) can0 5A0#0000000004000064 R
(1781710770.034507) can0 121#00A601CF048000D9 R
(1781710770.034742) can0 129#00000001000000D0 R
(1781710770.034982) can0 120#00000000000000D4 R
(1781710770.050171) can0 541#000010000007124E R
(1781710770.050427) can0 12D#000000000000008B R
(1781710770.050665) can0 12D#00000000000000BE R
(1781710770.050900) can0 12E#000000000000C044 R
(1781710770.051134) can0 450#0000000000002800 R
(1781710770.051368) can0 121#00A601CF04800038 R
(1781710770.069930) can0 129#0000000100000031 R
(1781710770.070177) can0 120#0000000000000035 R
(1781710770.070412) can0 541#000010000007127B R
(1781710770.070648) can0 12D#00000000000000D4 R
(1781710770.070882) can0 12D#0000000000000035 R
(1781710770.071117) can0 12E#000000000000C071 R
(1781710770.076436) can0 121#00A601CF04800052 R
(1781710770.076681) can0 129#000000010000005B R
(1781710770.076916) can0 540#0000401000010000 R
(1781710770.077147) can0 5B0#100000000000008A R
(1781710770.077381) can0 120#000000000000005F R
(1781710770.077613) can0 541#000010000007129A R
(1781710770.090276) can0 12D#000000000000005F R
(1781710770.090518) can0 12A#10050000000A0057 R
(1781710770.090753) can0 12D#000000000000006A R
(1781710770.090993) can0 12E#000000000000C090 R
(1781710770.091228) can0 121#00A601CF04800067 R
(1781710770.106410) can0 129#000000010000006E R
(1781710770.106664) can0 120#000000000000006A R
(1781710770.106899) can0 541#00001000000712AF R
(1781710770.107136) can0 12D#000000000000008B R
(1781710770.107370) can0 450#0000000000002800 R
(1781710770.107605) can0 12D#00000000000000BE R
(1781710770.126250) can0 12E#000000000000C0A5 R
(1781710770.126502) can0 121#00A601CF04800086 R
(1781710770.126738) can0 129#000000010000008F R
(1781710770.126972) can0 120#000000000000008B R
(1781710770.127206) can0 541#00001000000712C5 R
(1781710770.127442) can0 12D#00000000000000D4 R
(1781710770.131829) can0 12D#0000000000000035 R
(1781710770.132114) can0 12E#000000000000C0CF R
(1781710770.132365) can0 12A#10050000000A0062 R
(1781710770.132603) can0 5A0#0000000004000085 R
(1781710770.132839) can0 121#00A601CF048000B3 R
(1781710770.133074) can0 129#00000001000000BA R
(1781710770.150015) can0 120#00000000000000BE R
(1781710770.150271) can0 541#0000100000071224 R
(1781710770.150505) can0 12D#000000000000005F R
(1781710770.150736) can0 12D#000000000000006A R
(1781710770.150968) can0 12E#000000000000C02E R
(1781710770.151198) can0 450#0000000000002800 R
(1781710770.166283) can0 121#00A601CF048000D9 R
(1781710770.166540) can0 129#00000001000000D0 R
(1781710770.166783) can0 120#00000000000000D4 R
(1781710770.167021) can0 541#000010000007124E R
(1781710770.167257) can0 12D#000000000000008B R
(1781710770.167494) can0 12D#00000000000000BE R
(1781710770.171840) can0 12E#000000000000C044 R
(1781710770.172136) can0 121#00A601CF04800038 R
(1781710770.172532) can0 129#0000000100000031 R
(1781710770.172815) can0 540#0000401000010000 R
(1781710770.173051) can0 5B0#10000000000000BF R
(1781710770.189951) can0 120#0000000000000035 R
(1781710770.190200) can0 541#000010000007127B R
(1781710770.190435) can0 12D#00000000000000D4 R
(1781710770.190670) can0 12A#10050000000A0083 R
(1781710770.190903) can0 12D#0000000000000035 R
(1781710770.191165) can0 12E#000000000000C071 R
(1781710770.206221) can0 121#00A601CF04800052 R
(1781710770.206477) can0 129#000000010000005B R
(1781710770.206717) can0 120#000000000000005F R
(1781710770.206953) can0 541#000010000007129A R
(1781710770.207189) can0 12D#000000000000005F R
(1781710770.207425) can0 450#0000000000002800 R
(1781710770.216376) can0 12D#000000000000006A R
(1781710770.216621) can0 12E#000000000000C090 R
(1781710770.216857) can0 121#00A601CF04800067 R
(1781710770.217094) can0 129#000000010000006E R
(1781710770.217330) can0 120#000000000000006A R
(1781710770.217565) can0 541#00001000000712AF R
(1781710770.230213) can0 12D#000000000000008B R
(1781710770.230382) can0 12D#00000000000000BE R
(1781710770.230531) can0 12E#000000000000C0A5 R
(1781710770.230677) can0 12A#10050000000A00B6 R
(1781710770.230855) can0 5A0#00000000040000B0 R
(1781710770.231000) can0 121#00A601CF04800086 R
(1781710770.246563) can0 129#000000010000008F R
(1781710770.246814) can0 120#000000000000008B R
(1781710770.247051) can0 541#00001000000713D3 R
(1781710770.247289) can0 12D#00000000000000D4 R
(1781710770.247527) can0 12D#0000000000000035 R
(1781710770.256323) can0 12E#000000000000C0CF R
(1781710770.256579) can0 450#0000000000002800 R
(1781710770.256816) can0 121#00A601CF048000B3 R
(1781710770.257050) can0 129#00000001000000BA R
(1781710770.257285) can0 120#00000000000000BE R
(1781710770.257519) can0 541#0000100000071332 R
(1781710770.270647) can0 12D#000000000000005F R
(1781710770.270904) can0 12D#000000000000006A R
(1781710770.271138) can0 12E#000000000000C02E R
(1781710770.271374) can0 121#00A601CF048000D9 R
(1781710770.271606) can0 129#00000001000000D0 R
(1781710770.271840) can0 540#0000401000010100 R
(1781710770.286412) can0 5B0#10000000000000D5 R
(1781710770.286651) can0 120#00000000000000D4 R
(1781710770.286883) can0 541#0000100000071358 R
(1781710770.287114) can0 12D#000000000000008B R
(1781710770.287343) can0 12A#10050000000A00DC R
(1781710770.287575) can0 12D#00000000000000BE R
(1781710770.297621) can0 12E#000000000000C044 R
(1781710770.297868) can0 121#00A601CF04800038 R
(1781710770.298104) can0 129#0000000100000031 R
(1781710770.298338) can0 120#0000000000000035 R
(1781710770.298571) can0 541#000010000007136D R
(1781710770.298805) can0 12D#00000000000000D4 R
(1781710770.311745) can0 450#0000000000002800 R
(1781710770.311983) can0 12D#0000000000000035 R
(1781710770.312214) can0 12E#000000000000C071 R
(1781710770.312446) can0 121#00A601CF04800052 R
(1781710770.312677) can0 129#000000010000005B R
(1781710770.312910) can0 120#000000000000005F R
(1781710770.327146) can0 541#000010000007138C R
(1781710770.327388) can0 12D#000000000000005F R
(1781710770.327619) can0 12D#000000000000006A R
(1781710770.327852) can0 12E#000000000000C090 R
(1781710770.328085) can0 12A#10050000000A003D R
(1781710770.346153) can0 5A0#00000000040000DA R
(1781710770.346407) can0 121#00A601CF04800067 R
(1781710770.346643) can0 129#000000010000006E R
(1781710770.346877) can0 120#000000000000006A R
(1781710770.347109) can0 541#00001000000713B9 R
(1781710770.347344) can0 12D#000000000000008B R
(1781710770.353797) can0 12D#00000000000000BE R
(1781710770.354041) can0 12E#000000000000C0A5 R
(1781710770.354275) can0 450#0000000000002800 R
(1781710770.354507) can0 121#00A601CF04800086 R
(1781710770.354741) can0 129#000000010000008F R
(1781710770.354985) can0 120#000000000000008B R
(1781710770.370442) can0 541#00001000000713D3 R
(1781710770.370697) can0 12D#00000000000000D4 R
(1781710770.370933) can0 12D#0000000000000035 R
(1781710770.371180) can0 12E#000000000000C0CF R
(1781710770.371419) can0 121#00A601CF048000B3 R
(1781710770.371703) can0 129#00000001000000BA R
(1781710770.386280) can0 540#0000401000010100 R
(1781710770.386530) can0 5B0#1000000000000034 R
(1781710770.386766) can0 120#00000000000000BE R
(1781710770.386999) can0 541#0000100000071332 R
(1781710770.387234) can0 12D#000000000000005F R
(1781710770.387467) can0 12A#10050000000A0057 R
(1781710770.393948) can0 12D#000000000000006A R
(1781710770.394199) can0 12E#000000000000C02E R
(1781710770.394437) can0 121#00A601CF048000D9 R
(1781710770.394669) can0 129#00000001000000D0 R
(1781710770.394903) can0 120#00000000000000D4 R
(1781710770.410096) can0 541#0000100000071358 R
(1781710770.410357) can0 12D#000000000000008B R
(1781710770.410596) can0 450#0000000000002800 R
(1781710770.410831) can0 12D#00000000000000BE R
(1781710770.411063) can0 12E#000000000000C044 R
(1781710770.411305) can0 121#00A601CF04800038 R
(1781710770.426762) can0 129#0000000100000031 R
(1781710770.427013) can0 120#0000000000000035 R
(1781710770.427249) can0 541#000010000007136D R
(1781710770.427484) can0 12D#00000000000000D4 R
(1781710770.427718) can0 12D#0000000000000035 R
(1781710770.427950) can0 12E#000000000000C071 R
(1781710770.436364) can0 12A#10050000000A0062 R
(1781710770.436608) can0 5A0#000000000400003B R
(1781710770.436847) can0 121#00A601CF04800052 R
(1781710770.437083) can0 129#000000010000005B R
(1781710770.437316) can0 120#000000000000005F R
(1781710770.437561) can0 541#000010000007138C R
(1781710770.451722) can0 12D#000000000000005F R
(1781710770.451965) can0 12D#000000000000006A R
(1781710770.452201) can0 12E#000000000000C090 R
(1781710770.452440) can0 450#0000000000002800 R
(1781710770.452674) can0 121#00A601CF04800067 R
(1781710770.452908) can0 129#000000010000006E R
(1781710770.470025) can0 120#000000000000006A R
(1781710770.470268) can0 541#00001000000713B9 R
(1781710770.470504) can0 12D#000000000000008B R
(1781710770.470739) can0 12D#00000000000000BE R
(1781710770.470973) can0 12E#000000000000C0A5 R
(1781710770.471207) can0 121#00A601CF04800086 R
(1781710770.476498) can0 129#000000010000008F R
(1781710770.476740) can0 540#0000401000010100 R
(1781710770.476973) can0 5B0#100000000000005E R
(1781710770.477207) can0 120#000000000000008B R
(1781710770.477446) can0 541#00001000000713D3 R
(1781710770.491617) can0 12D#00000000000000D4 R
(1781710770.491872) can0 12A#10050000000A0083 R
(1781710770.492108) can0 12D#0000000000000035 R
(1781710770.492343) can0 12E#000000000000C0CF R
(1781710770.492578) can0 121#00A601CF048000B3 R
(1781710770.492813) can0 129#00000001000000BA R
(1781710770.509929) can0 120#00000000000000BE R
(1781710770.510177) can0 541#0000100000071332 R
(1781710770.510411) can0 12D#000000000000005F R
(1781710770.510643) can0 450#0000000000002800 R
(1781710770.510878) can0 12D#000000000000006A R
(1781710770.511111) can0 12E#000000000000C02E R
(1781710770.526567) can0 121#00A601CF048000D9 R
(1781710770.526809) can0 129#00000001000000D0 R
(1781710770.527045) can0 120#00000000000000D4 R
(1781710770.527280) can0 541#0000100000071358 R
(1781710770.527515) can0 12D#000000000000008B R
(1781710770.527747) can0 12D#00000000000000BE R
(1781710770.533874) can0 12E#000000000000C044 R
(1781710770.534117) can0 12A#10050000000A00B6 R
(1781710770.534386) can0 5A0#0000000004000051 R
(1781710770.534630) can0 121#00A601CF04800038 R
(1781710770.534869) can0 129#0000000100000031 R
(1781710770.535108) can0 120#0000000000000035 R
(1781710770.550040) can0 541#000010000007136D R
(1781710770.550282) can0 12D#00000000000000D4 R
(1781710770.550522) can0 12D#0000000000000035 R
(1781710770.550755) can0 12E#000000000000C071 R
(1781710770.550986) can0 450#0000000000002800 R
(1781710770.566322) can0 121#00A601CF04800052 R
(1781710770.566576) can0 129#000000010000005B R
(1781710770.566812) can0 120#000000000000005F R
(1781710770.567045) can0 541#000010000007138C R
(1781710770.567276) can0 12D#000000000000005F R
(1781710770.567621) can0 12D#000000000000006A R
(1781710770.573803) can0 12E#000000000000C090 R
(1781710770.574056) can0 121#00A601CF04800067 R
(1781710770.574291) can0 129#000000010000006E R
(1781710770.574525) can0 540#0000401000010100 R
(1781710770.574758) can0 5B0#100000000000006B R
(1781710770.575023) can0 120#000000000000006A R
(1781710770.590474) can0 541#00001000000713B9 R
(1781710770.590748) can0 12D#000000000000008B R
(1781710770.590986) can0 12A#10050000000A00DC R
(1781710770.591219) can0 12D#00000000000000BE R
(1781710770.591451) can0 12E#000000000000C0A5 R
(1781710770.591681) can0 121#00A601CF04800086 R
(1781710770.606542) can0 129#000000010000008F R
(1781710770.606863) can0 120#000000000000008B R
(1781710770.607098) can0 541#00001000000713D3 R
(1781710770.607331) can0 12D#00000000000000D4 R
(1781710770.607564) can0 450#0000000000002800 R
(1781710770.607796) can0 12D#0000000000000035 R
(1781710770.616515) can0 12E#000000000000C0CF R
(1781710770.616783) can0 121#00A601CF048000B3 R
(1781710770.617019) can0 129#00000001000000BA R
(1781710770.617251) can0 120#00000000000000BE R
(1781710770.617483) can0 541#0000100000071332 R
(1781710770.617712) can0 12D#000000000000005F R
(1781710770.630624) can0 12D#000000000000006A R
(1781710770.630895) can0 12E#000000000000C02E R
(1781710770.631138) can0 12A#10050000000A003D R
(1781710770.631382) can0 5A0#0000000004000064 R
(1781710770.631621) can0 121#00A601CF048000D9 R
(1781710770.647486) can0 129#00000001000000D0 R
(1781710770.647754) can0 120#00000000000000D4 R
(1781710770.647998) can0 541#0000100000071358 R
(1781710770.648238) can0 12D#000000000000008B R
(1781710770.648476) can0 12D#00000000000000BE R
(1781710770.648716) can0 12E#000000000000C044 R
(1781710770.666143) can0 450#0000000000002800 R
(1781710770.666413) can0 121#00A601CF04800038 R
(1781710770.666651) can0 129#0000000100000031 R
(1781710770.666889) can0 120#0000000000000035 R
(1781710770.667127) can0 541#000010000007136D R
(1781710770.667363) can0 12D#00000000000000D4 R
(1781710770.671809) can0 12D#0000000000000035 R
(1781710770.672116) can0 12E#000000000000C071 R
(1781710770.672368) can0 121#00A601CF04800052 R
(1781710770.672608) can0 129#000000010000005B R
(1781710770.672843) can0 540#0000401000010100 R
(1781710770.673078) can0 5B0#100000000000008A R
(1781710770.690034) can0 120#000000000000005F R
(1781710770.690298) can0 541#000010000007138C R
(1781710770.690537) can0 12D#000000000000005F R
(1781710770.690773) can0 12A#10050000000A0057 R
(1781710770.691009) can0 12D#000000000000006A R
(1781710770.691246) can0 12E#000000000000C090 R
(1781710770.697760) can0 121#00A601CF04800067 R
(1781710770.698029) can0 129#000000010000006E R
(1781710770.698273) can0 120#000000000000006A R
(1781710770.698509) can0 541#00001000000713B9 R
(1781710770.698745) can0 12D#000000000000008B R
(1781710770.710115) can0 450#0000000000002800 R
(1781710770.710924) can0 12D#00000000000000BE R
(1781710770.711168) can0 12E#000000000000C0A5 R
(1781710770.711408) can0 121#00A601CF04800086 R
(1781710770.726788) can0 129#000000010000008F R
(1781710770.727043) can0 120#000000000000008B R
(1781710770.727283) can0 541#00001000000713D3 R
(1781710770.727523) can0 12D#00000000000000D4 R
(1781710770.727763) can0 12D#0000000000000035 R
(1781710770.728004) can0 12E#000000000000C0CF R
(1781710770.733886) can0 12A#10050000000A0062 R
(1781710770.734205) can0 5A0#0000000004000085 R
(1781710770.734455) can0 121#00A601CF048000B3 R
(1781710770.734694) can0 129#00000001000000BA R
(1781710770.734932) can0 120#00000000000000BE R
(1781710770.735171) can0 541#0000100000071332 R
(1781710770.750292) can0 12D#000000000000005F R
(1781710770.750438) can0 12D#000000000000006A R
(1781710770.750550) can0 12E#000000000000C02E R
(1781710770.750658) can0 450#0000000000002800 R
(1781710770.750766) can0 121#00A601CF048000D9 R
(1781710770.770045) can0 129#00000001000000D0 R
(1781710770.770235) can0 120#00000000000000D4 R
(1781710770.770364) can0 541#0000100000071358 R
(1781710770.770480) can0 12D#000000000000008B R
(1781710770.770594) can0 12D#00000000000000BE R
(1781710770.770708) can0 12E#000000000000C044 R
(1781710770.776306) can0 121#00A601CF04800038 R
(1781710770.776474) can0 129#0000000100000031 R
(1781710770.776610) can0 540#0000401000010100 R
(1781710770.776745) can0 5B0#10000000000000BF R
(1781710770.776878) can0 120#0000000000000035 R
(1781710770.777021) can0 541#000010000007136D R
(1781710770.791719) can0 12D#00000000000000D4 R
(1781710770.791978) can0 12A#10050000000A0083 R
(1781710770.792216) can0 12D#0000000000000035 R
(1781710770.792450) can0 12E#000000000000C071 R
(1781710770.792683) can0 121#00A601CF04800052 R
(1781710770.792918) can0 129#000000010000005B R
(1781710770.810059) can0 120#000000000000005F R
(1781710770.810315) can0 541#000010000007138C R
(1781710770.810550) can0 12D#000000000000005F R
(1781710770.810785) can0 450#0000000000002800 R
(1781710770.811017) can0 12D#000000000000006A R
(1781710770.811249) can0 12E#000000000000C090 R
(1781710770.826373) can0 121#00A601CF04800067 R
(1781710770.826626) can0 129#000000010000006E R
(1781710770.826861) can0 120#000000000000006A R
(1781710770.827100) can0 541#00001000000713B9 R
(1781710770.827335) can0 12D#000000000000008B R
(1781710770.831663) can0 12D#00000000000000BE R
(1781710770.831949) can0 12E#000000000000C0A5 R
(1781710770.832195) can0 12A#10050000000A00B6 R
(1781710770.832435) can0 5A0#00000000040000B0 R
(1781710770.832674) can0 121#00A601CF04800086 R
(1781710770.832909) can0 129#000000010000008F R
(1781710770.849923) can0 120#000000000000008B R
(1781710770.850172) can0 541#00001000000713D3 R
(1781710770.850405) can0 12D#00000000000000D4 R
(1781710770.850651) can0 12D#0000000000000035 R
(1781710770.850885) can0 12E#000000000000C0CF R
(1781710770.851120) can0 450#0000000000002800 R
(1781710770.866380) can0 121#00A601CF048000B3 R
(1781710770.866625) can0 129#00000001000000BA R
(1781710770.866863) can0 120#00000000000000BE R
(1781710770.867095) can0 541#0000100000071332 R
(1781710770.867327) can0 12D#000000000000005F R
(1781710770.867558) can0 12D#000000000000006A R
(1781710770.873854) can0 12E#000000000000C02E R
(1781710770.874095) can0 121#00A601CF048000D9 R
(1781710770.874330) can0 129#00000001000000D0 R
(1781710770.874562) can0 540#0000401000010100 R
(1781710770.874794) can0 5B0#10000000000000D5 R
(1781710770.875028) can0 120#00000000000000D4 R
(1781710770.890041) can0 541#0000100000071358 R
(1781710770.890285) can0 12D#000000000000008B R
(1781710770.890520) can0 12A#10050000000A00DC R
(1781710770.890753) can0 12D#00000000000000BE R
(1781710770.890986) can0 12E#000000000000C044 R
(1781710770.891221) can0 121#00A601CF04800038 R
(1781710770.906380) can0 129#0000000100000031 R
(1781710770.906653) can0 120#0000000000000035 R
(1781710770.906894) can0 541#000010000007136D R
(1781710770.907129) can0 12D#00000000000000D4 R
(1781710770.907367) can0 450#0000000000002800 R
(1781710770.916223) can0 12D#0000000000000035 R
(1781710770.916480) can0 12E#000000000000C071 R
(1781710770.916716) can0 121#00A601CF04800052 R
(1781710770.916947) can0 129#000000010000005B R
(1781710770.917177) can0 120#000000000000005F R
(1781710770.917412) can0 541#000010000007138C R
(1781710770.930235) can0 12D#000000000000005F R
(1781710770.930496) can0 12D#000000000000006A R
(1781710770.930738) can0 12E#000000000000C090 R
(1781710770.930974) can0 12A#10050000000A003D R
(1781710770.931209) can0 5A0#00000000040000DA R
(1781710770.931445) can0 121#00A601CF04800067 R
(1781710770.947530) can0 129#000000010000006E R
(1781710770.947791) can0 120#000000000000006A R
(1781710770.948035) can0 541#00001000000713B9 R
(1781710770.948273) can0 12D#000000000000008B R
(1781710770.948509) can0 12D#00000000000000BE R
(1781710770.948745) can0 12E#000000000000C0A5 R
(1781710770.966165) can0 450#0000000000002800 R
(1781710770.966416) can0 121#00A601CF04800086 R
(1781710770.966648) can0 129#000000010000008F R
(1781710770.966881) can0 120#000000000000008B R
(1781710770.967113) can0 541#00001000000713D3 R
(1781710770.967345) can0 12D#00000000000000D4 R
(1781710770.970948) can0 12D#0000000000000035 R
(1781710770.971184) can0 12E#000000000000C0CF R
(1781710770.971416) can0 121#00A601CF048000B3 R
(1781710770.971650) can0 129#00000001000000BA R
(1781710770.971939) can0 540#0000401000010100 R
(1781710770.986351) can0 5B0#1000000000000034 R
(1781710770.986619) can0 120#00000000000000BE R
(1781710770.986860) can0 541#0000100000071332 R
(1781710770.987096) can0 12D#000000000000005F R
(1781710770.987332) can0 12A#10050000000A0057 R
(1781710770.987565) can0 12D#000000000000006A R
(1781710770.997558) can0 12E#000000000000C02E R
(1781710770.997811) can0 121#00A601CF048000D9 R
(1781710770.998047) can0 129#00000001000000D0 R
(1781710770.998281) can0 120#00000000000000D4 R
(1781710770.998515) can0 541#0000100000071358 R
(1781710770.998748) can0 12D#000000000000008B R
(1781710771.013992) can0 450#0000000000002800 R
(1781710771.014295) can0 12D#00000000000000BE R
(1781710771.014591) can0 12E#000000000000C044 R
(1781710771.014876) can0 121#00A601CF04800038 R
(1781710771.015157) can0 129#0000000100000031 R
(1781710771.015390) can0 120#0000000000000035 R
(1781710771.030065) can0 541#000010000007136D R
(1781710771.030317) can0 12D#00000000000000D4 R
(1781710771.030555) can0 12D#0000000000000035 R
(1781710771.030791) can0 12E#000000000000C071 R
(1781710771.031024) can0 12A#10050000000A0062 R
(1781710771.031257) can0 5A0#000000000400003B R
(1781710771.046272) can0 121#00A601CF04800052 R
(1781710771.046532) can0 129#000000010000005B R
(1781710771.046768) can0 120#000000000000005F R
(1781710771.047003) can0 541#000010000007138C R
(1781710771.047236) can0 12D#000000000000005F R
(1781710771.047470) can0 12D#000000000000006A R
(1781710771.053949) can0 12E#000000000000C090 R
(1781710771.054197) can0 450#0000000000002800 R
(1781710771.054436) can0 121#00A601CF04800067 R
(1781710771.054667) can0 129#000000010000006E R
(1781710771.054899) can0 120#000000000000006A R
(1781710771.070401) can0 541#00001000000713B9 R
(1781710771.070656) can0 12D#000000000000008B R
(1781710771.070892) can0 12D#00000000000000BE R
(1781710771.071124) can0 12E#000000000000C0A5 R
(1781710771.071356) can0 121#00A601CF04800086 R
(1781710771.071586) can0 129#000000010000008F R
(1781710771.086156) can0 540#0000401000010100 R
(1781710771.086410) can0 5B0#100000000000005E R
(1781710771.086643) can0 120#000000000000008B R
(1781710771.086874) can0 541#00001000000713D3 R
(1781710771.087107) can0 12D#00000000000000D4 R
(1781710771.087339) can0 12A#10050000000A0083 R
(1781710771.096412) can0 12D#0000000000000035 R
(1781710771.096686) can0 12E#000000000000C0CF R
(1781710771.096926) can0 121#00A601CF048000B3 R
(1781710771.097161) can0 129#00000001000000BA R
(1781710771.097397) can0 120#00000000000000BE R
(1781710771.097631) can0 541#0000100000071332 R
(1781710771.111782) can0 12D#000000000000005F R
(1781710771.112050) can0 450#0000000000002800 R
(1781710771.112289) can0 12D#000000000000006A R
(1781710771.112526) can0 12E#000000000000C02E R
(1781710771.112760) can0 121#00A601CF048000D9 R
(1781710771.112992) can0 129#00000001000000D0 R
(1781710771.126856) can0 120#00000000000000D4 R
(1781710771.127102) can0 541#0000100000071358 R
(1781710771.127336) can0 12D#000000000000008B R
(1781710771.127566) can0 12D#00000000000000BE R
(1781710771.127798) can0 12E#000000000000C044 R
(1781710771.136215) can0 12A#10050000000A00B6 R
(1781710771.136487) can0 5A0#0000000004000051 R
(1781710771.136726) can0 121#00A601CF04800038 R
(1781710771.136961) can0 129#0000000100000031 R
(1781710771.137194) can0 120#0000000000000035 R
(1781710771.137425) can0 541#000010000007136D R
(1781710771.151706) can0 12D#00000000000000D4 R
(1781710771.151957) can0 12D#0000000000000035 R
(1781710771.152193) can0 12E#000000000000C071 R
(1781710771.152426) can0 450#0000000000002800 R
(1781710771.152658) can0 121#00A601CF04800052 R
(1781710771.152891) can0 129#000000010000005B R
(1781710771.170215) can0 120#000000000000005F R
(1781710771.170461) can0 541#000010000007138C R
(1781710771.170693) can0 12D#000000000000005F R
(1781710771.170927) can0 12D#000000000000006A R
(1781710771.171158) can0 12E#000000000000C090 R
(1781710771.171389) can0 121#00A601CF04800067 R
(1781710771.176665) can0 129#000000010000006E R
(1781710771.176926) can0 540#0000401000010100 R
(1781710771.177184) can0 5B0#100000000000006B R
(1781710771.177312) can0 120#000000000000006A R
(1781710771.177430) can0 541#00001000000713B9 R
(1781710771.177545) can0 12D#000000000000008B R
(1781710771.191805) can0 12A#10050000000A00DC R
(1781710771.192062) can0 12D#00000000000000BE R
(1781710771.192299) can0 12E#000000000000C0A5 R
(1781710771.192535) can0 121#00A601CF04800086 R
(1781710771.192767) can0 129#000000010000008F R
(1781710771.193000) can0 120#000000000000008B R
(1781710771.210103) can0 541#00001000000713D3 R
(1781710771.210349) can0 12D#00000000000000D4 R
(1781710771.210584) can0 450#0000000000002800 R
(1781710771.210819) can0 12D#0000000000000035 R
(1781710771.211052) can0 12E#000000000000C0CF R
(1781710771.226418) can0 121#00A601CF048000B3 R
(1781710771.226773) can0 129#00000001000000BA R
(1781710771.227027) can0 120#00000000000000BE R
(1781710771.227264) can0 541#0000100000071332 R
(1781710771.227499) can0 12D#000000000000005F R
(1781710771.227733) can0 12D#000000000000006A R
(1781710771.233829) can0 12E#000000000000C02E R
(1781710771.234079) can0 12A#10050000000A003D R
(1781710771.234314) can0 5A0#0000000004000064 R
(1781710771.234555) can0 121#00A601CF048000D9 R
(1781710771.234792) can0 129#00000001000000D0 R
(1781710771.235027) can0 120#00000000000000D4 R
(1781710771.250301) can0 541#0000100000071450 R
(1781710771.250568) can0 12D#000000000000008B R
(1781710771.250812) can0 12D#00000000000000BE R
(1781710771.251048) can0 12E#000000000000C044 R
(1781710771.251288) can0 450#0000000000002800 R
(1781710771.251523) can0 121#00A601CF04800038 R
(1781710771.270036) can0 129#0000000100000031 R
(1781710771.270284) can0 120#0000000000000035 R
(1781710771.270522) can0 541#0000100000071465 R
(1781710771.270757) can0 12D#00000000000000D4 R
(1781710771.270996) can0 12D#0000000000000035 R
(1781710771.271230) can0 12E#000000000000C071 R
(1781710771.273927) can0 121#00A601CF04800052 R
(1781710771.274167) can0 129#000000010000005B R
(1781710771.274398) can0 540#0000401000010100 R
(1781710771.274629) can0 5B0#100000000000008A R
(1781710771.274861) can0 120#000000000000005F R
(1781710771.290134) can0 541#0000100000071484 R
(1781710771.290374) can0 12D#000000000000005F R
(1781710771.290605) can0 12A#10050000000A0057 R
(1781710771.290838) can0 12D#000000000000006A R
(1781710771.291070) can0 12E#000000000000C090 R
(1781710771.291301) can0 121#00A601CF04800067 R
(1781710771.306351) can0 129#000000010000006E R
(1781710771.306600) can0 120#000000000000006A R
(1781710771.306834) can0 541#00001000000714B1 R
(1781710771.307064) can0 12D#000000000000008B R
(1781710771.307295) can0 450#0000000000002800 R
(1781710771.307527) can0 12D#00000000000000BE R
(1781710771.326212) can0 12E#000000000000C0A5 R
(1781710771.326456) can0 121#00A601CF04800086 R
(1781710771.326687) can0 129#000000010000008F R
(1781710771.326919) can0 120#000000000000008B R
(1781710771.327149) can0 541#00001000000714DB R
(1781710771.327380) can0 12D#00000000000000D4 R
(1781710771.331831) can0 12D#0000000000000035 R
(1781710771.332068) can0 12E#000000000000C0CF R
(1781710771.332299) can0 12A#10050000000A0062 R
(1781710771.332530) can0 5A0#0000000004000085 R
(1781710771.332760) can0 121#00A601CF048000B3 R
(1781710771.332989) can0 129#00000001000000BA R
(1781710771.347610) can0 120#00000000000000BE R
(1781710771.347865) can0 541#000010000007143A R
(1781710771.348102) can0 12D#000000000000005F R
(1781710771.348335) can0 12D#000000000000006A R
(1781710771.348568) can0 12E#000000000000C02E R
(1781710771.348802) can0 450#0000000000002800 R
(1781710771.366274) can0 121#00A601CF048000D9 R
(1781710771.366517) can0 129#00000001000000D0 R
(1781710771.366750) can0 120#00000000000000D4 R
(1781710771.366991) can0 541#0000100000071450 R
(1781710771.367227) can0 12D#000000000000008B R
(1781710771.371699) can0 12D#00000000000000BE R
(1781710771.371990) can0 12E#000000000000C044 R
(1781710771.372238) can0 121#00A601CF04800038 R
(1781710771.372477) can0 129#0000000100000031 R
(1781710771.372712) can0 540#0000401000010100 R
(1781710771.372948) can0 5B0#10000000000000BF R
(1781710771.389981) can0 120#0000000000000035 R
(1781710771.390255) can0 541#0000100000071465 R
(1781710771.390496) can0 12D#00000000000000D4 R
(1781710771.390731) can0 12A#10050000000A0083 R
(1781710771.390963) can0 12D#0000000000000035 R
(1781710771.391197) can0 12E#000000000000C071 R
(1781710771.406191) can0 121#00A601CF04800052 R
(1781710771.406456) can0 129#000000010000005B R
(1781710771.406691) can0 120#000000000000005F R
(1781710771.406923) can0 541#0000100000071484 R
(1781710771.407157) can0 12D#000000000000005F R
(1781710771.407392) can0 450#0000000000002800 R
(1781710771.416333) can0 12D#000000000000006A R
(1781710771.416573) can0 12E#000000000000C090 R
(1781710771.416860) can0 121#00A601CF04800067 R
(1781710771.417097) can0 129#000000010000006E R
(1781710771.417330) can0 120#000000000000006A R
(1781710771.417563) can0 541#00001000000714B1 R
(1781710771.430143) can0 12D#000000000000008B R
(1781710771.430405) can0 12D#00000000000000BE R
(1781710771.430644) can0 12E#000000000000C0A5 R
(1781710771.430881) can0 12A#10050000000A00B6 R
(1781710771.431115) can0 5A0#00000000040000B0 R
(1781710771.446306) can0 121#00A601CF04800086 R
(1781710771.446562) can0 129#000000010000008F R
(1781710771.446802) can0 120#000000000000008B R
(1781710771.447037) can0 541#00001000000714DB R
(1781710771.447272) can0 12D#00000000000000D4 R
(1781710771.447505) can0 12D#0000000000000035 R
(1781710771.456290) can0 12E#000000000000C0CF R
(1781710771.456532) can0 450#0000000000002800 R
(1781710771.456767) can0 121#00A601CF048000B3 R
(1781710771.456998) can0 129#00000001000000BA R
(1781710771.457230) can0 120#00000000000000BE R
(1781710771.457460) can0 541#000010000007143A R
(1781710771.470746) can0 12D#000000000000005F R
(1781710771.470989) can0 12D#000000000000006A R
(1781710771.471223) can0 12E#000000000000C02E R
(1781710771.471455) can0 121#00A601CF048000D9 R
(1781710771.471687) can0 129#00000001000000D0 R
(1781710771.471922) can0 540#0000401000010100 R
(1781710771.486406) can0 5B0#10000000000000D5 R
(1781710771.486710) can0 120#00000000000000D4 R
(1781710771.487047) can0 541#0000100000071450 R
(1781710771.487288) can0 12D#000000000000008B R
